!Keysight Technologies,E5061B,MY49912438,B.06.30
!Date: Thu Nov 06 23:56:52 2025
!Data & Calibration Information:
!Freq	S11:SOLT2(ON)	S21:SOLT2(ON)	S12:SOLT2(ON)	S22:SOLT2(ON)
# Hz S RI R 50
10.000	1.010969e+000	-8.776711e-004	2.048322e-005	1.792753e-005	8.017089e-006	-1.370686e-004	-9.767162e-001	-1.236075e-003
6259.994	9.331780e-001	-3.871502e-001	-8.392780e-003	1.956511e-003	-8.336172e-003	1.893550e-003	-9.728163e-001	5.514108e-002
12509.987	7.234371e-001	-7.007586e-001	-2.974080e-002	1.427999e-002	-2.967661e-002	1.393922e-002	-9.669947e-001	1.117020e-001
18759.981	4.386800e-001	-9.013357e-001	-5.526534e-002	4.224494e-002	-5.551358e-002	4.148367e-002	-9.564326e-001	1.687413e-001
25009.975	1.376650e-001	-9.854245e-001	-7.604939e-002	8.492874e-002	-7.701275e-002	8.389897e-002	-9.402048e-001	2.252501e-001
31259.969	-1.375683e-001	-9.752613e-001	-8.632648e-002	1.375643e-001	-8.823197e-002	1.366438e-001	-9.180838e-001	2.796839e-001
37509.962	-3.661132e-001	-9.007953e-001	-8.401050e-002	1.944432e-001	-8.683814e-002	1.940739e-001	-8.905714e-001	3.307087e-001
43759.956	-5.428481e-001	-7.890994e-001	-6.963747e-002	2.507701e-001	-7.316086e-002	2.513978e-001	-8.587296e-001	3.774696e-001
50009.950	-6.712956e-001	-6.605241e-001	-4.519642e-002	3.032903e-001	-4.900147e-002	3.050431e-001	-8.235843e-001	4.192028e-001
56259.944	-7.589707e-001	-5.281046e-001	-1.292305e-002	3.499678e-001	-1.667311e-002	3.528519e-001	-7.862100e-001	4.556754e-001
62509.938	-8.137985e-001	-4.000367e-001	2.486543e-002	3.899205e-001	2.144428e-002	3.937952e-001	-7.476848e-001	4.869703e-001
68759.931	-8.431884e-001	-2.807691e-001	6.621099e-002	4.229469e-001	6.335033e-002	4.276519e-001	-7.088332e-001	5.134875e-001
75009.925	-8.533829e-001	-1.723596e-001	1.094777e-001	4.493066e-001	1.073047e-001	4.546024e-001	-6.703549e-001	5.355835e-001
81259.919	-8.493376e-001	-7.535313e-002	1.534148e-001	4.693199e-001	1.518971e-001	4.750304e-001	-6.327556e-001	5.535983e-001
87509.912	-8.350968e-001	1.045233e-002	1.970637e-001	4.837599e-001	1.962709e-001	4.897023e-001	-5.963829e-001	5.682460e-001
93759.906	-8.137821e-001	8.597463e-002	2.398200e-001	4.933430e-001	2.398280e-001	4.992628e-001	-5.611837e-001	5.801505e-001
100009.900	-7.874199e-001	1.516420e-001	2.809652e-001	4.983957e-001	2.815551e-001	5.042781e-001	-5.279568e-001	5.891168e-001
106259.894	-7.579636e-001	2.087693e-001	3.203378e-001	4.997538e-001	3.215010e-001	5.055278e-001	-4.964053e-001	5.960227e-001
112509.888	-7.266594e-001	2.581874e-001	3.575705e-001	4.978149e-001	3.592802e-001	5.034927e-001	-4.666051e-001	6.010833e-001
118759.881	-6.945254e-001	3.009783e-001	3.927166e-001	4.932837e-001	3.949500e-001	4.987668e-001	-4.384758e-001	6.046778e-001
125009.875	-6.622333e-001	3.379306e-001	4.257140e-001	4.865337e-001	4.282860e-001	4.917944e-001	-4.120865e-001	6.070016e-001
131259.869	-6.302903e-001	3.698181e-001	4.565045e-001	4.779334e-001	4.594679e-001	4.829501e-001	-3.872365e-001	6.083826e-001
137509.862	-5.990047e-001	3.973863e-001	4.852444e-001	4.678736e-001	4.884459e-001	4.725998e-001	-3.639030e-001	6.089431e-001
143759.856	-5.686862e-001	4.211428e-001	5.118767e-001	4.565425e-001	5.153474e-001	4.610517e-001	-3.420099e-001	6.088948e-001
150009.850	-5.394141e-001	4.416880e-001	5.366129e-001	4.443091e-001	5.402680e-001	4.485740e-001	-3.214561e-001	6.083601e-001
156259.844	-5.112876e-001	4.594312e-001	5.595138e-001	4.313023e-001	5.632860e-001	4.353201e-001	-3.021504e-001	6.074392e-001
162509.837	-4.843936e-001	4.748024e-001	5.806776e-001	4.177486e-001	5.846088e-001	4.214932e-001	-2.839397e-001	6.062868e-001
168759.831	-4.586181e-001	4.881682e-001	6.002886e-001	4.037463e-001	6.041927e-001	4.073036e-001	-2.668570e-001	6.049245e-001
175009.825	-4.340821e-001	4.997320e-001	6.182317e-001	3.894071e-001	6.223111e-001	3.927891e-001	-2.506781e-001	6.034555e-001
181259.819	-4.106795e-001	5.098098e-001	6.348775e-001	3.749261e-001	6.389949e-001	3.780854e-001	-2.353833e-001	6.019147e-001
187509.813	-3.884516e-001	5.185518e-001	6.500964e-001	3.603250e-001	6.543858e-001	3.632568e-001	-2.208954e-001	6.003604e-001
193759.806	-3.672194e-001	5.262153e-001	6.641518e-001	3.456512e-001	6.684520e-001	3.484232e-001	-2.072250e-001	5.987987e-001
200009.800	-3.470238e-001	5.329600e-001	6.770847e-001	3.309701e-001	6.814038e-001	3.336205e-001	-1.942238e-001	5.972627e-001
206259.794	-3.277693e-001	5.388521e-001	6.889190e-001	3.164161e-001	6.932340e-001	3.188924e-001	-1.818697e-001	5.958025e-001
212509.787	-3.094239e-001	5.440596e-001	6.997641e-001	3.019282e-001	7.041745e-001	3.042408e-001	-1.700066e-001	5.944046e-001
218759.781	-2.918533e-001	5.486705e-001	7.097692e-001	2.875709e-001	7.140848e-001	2.897632e-001	-1.587747e-001	5.930830e-001
225009.775	-2.751265e-001	5.527697e-001	7.188685e-001	2.733688e-001	7.231970e-001	2.754268e-001	-1.479344e-001	5.918543e-001
231259.769	-2.590822e-001	5.564370e-001	7.272011e-001	2.593533e-001	7.315424e-001	2.612427e-001	-1.375512e-001	5.907313e-001
237509.762	-2.438281e-001	5.597104e-001	7.347336e-001	2.455443e-001	7.391440e-001	2.472859e-001	-1.275741e-001	5.896958e-001
243759.756	-2.290971e-001	5.626987e-001	7.416708e-001	2.319049e-001	7.460338e-001	2.335621e-001	-1.179712e-001	5.887861e-001
250009.750	-2.149852e-001	5.653763e-001	7.479212e-001	2.184500e-001	7.522566e-001	2.200294e-001	-1.087105e-001	5.879591e-001
256259.744	-2.014271e-001	5.678264e-001	7.535645e-001	2.052522e-001	7.579026e-001	2.067378e-001	-9.977755e-002	5.872507e-001
262509.737	-1.884749e-001	5.700714e-001	7.586439e-001	1.923189e-001	7.629826e-001	1.936790e-001	-9.112961e-002	5.866325e-001
268759.731	-1.759420e-001	5.721401e-001	7.632200e-001	1.795791e-001	7.675519e-001	1.808547e-001	-8.274474e-002	5.861221e-001
275009.725	-1.638409e-001	5.740647e-001	7.673031e-001	1.670540e-001	7.716297e-001	1.682633e-001	-7.460008e-002	5.856913e-001
281259.719	-1.520808e-001	5.758545e-001	7.710008e-001	1.547237e-001	7.752619e-001	1.558855e-001	-6.669621e-002	5.853817e-001
287509.712	-1.407820e-001	5.775422e-001	7.742175e-001	1.426619e-001	7.785009e-001	1.436924e-001	-5.891577e-002	5.851257e-001
293759.706	-1.297870e-001	5.791259e-001	7.770620e-001	1.307945e-001	7.812749e-001	1.318295e-001	-5.140645e-002	5.849771e-001
300009.700	-1.191111e-001	5.806246e-001	7.795167e-001	1.191382e-001	7.837267e-001	1.201215e-001	-4.398584e-002	5.848875e-001
306259.694	-1.088480e-001	5.820581e-001	7.815936e-001	1.077739e-001	7.858472e-001	1.086122e-001	-3.673411e-002	5.848763e-001
312509.688	-9.885461e-002	5.834185e-001	7.833092e-001	9.663124e-002	7.875679e-001	9.742338e-002	-2.970355e-002	5.849476e-001
318759.681	-8.909326e-002	5.847280e-001	7.848204e-001	8.562970e-002	7.890371e-001	8.639901e-002	-2.275044e-002	5.850858e-001
325009.675	-7.965794e-002	5.859955e-001	7.859546e-001	7.493416e-002	7.901758e-001	7.562277e-002	-1.597235e-002	5.853040e-001
331259.669	-7.047117e-002	5.872206e-001	7.868270e-001	6.444266e-002	7.910631e-001	6.500462e-002	-9.252477e-003	5.855544e-001
337509.662	-6.149952e-002	5.884221e-001	7.874485e-001	5.417040e-002	7.917160e-001	5.462350e-002	-2.648317e-003	5.858630e-001
343759.656	-5.267191e-002	5.895787e-001	7.878380e-001	4.401652e-002	7.920458e-001	4.449444e-002	3.790945e-003	5.862437e-001
350009.650	-4.410169e-002	5.907261e-001	7.879808e-001	3.415189e-002	7.922009e-001	3.451632e-002	1.020062e-002	5.866531e-001
356259.644	-3.573264e-002	5.918248e-001	7.879018e-001	2.447856e-002	7.921203e-001	2.480541e-002	1.644785e-002	5.871337e-001
362509.637	-2.752888e-002	5.929210e-001	7.876270e-001	1.499797e-002	7.918261e-001	1.527384e-002	2.263575e-002	5.876558e-001
368759.631	-1.940417e-002	5.939642e-001	7.871985e-001	5.612406e-003	7.913882e-001	5.845440e-003	2.883726e-002	5.881626e-001
375009.625	-1.153727e-002	5.950272e-001	7.865354e-001	-3.486441e-003	7.907068e-001	-3.303332e-003	3.485499e-002	5.887771e-001
381259.619	-3.816121e-003	5.960565e-001	7.857082e-001	-1.240270e-002	7.898801e-001	-1.226205e-002	4.081087e-002	5.893991e-001
387509.612	3.783354e-003	5.970922e-001	7.847555e-001	-2.116091e-002	7.888921e-001	-2.103430e-002	4.671483e-002	5.900619e-001
393759.606	1.131228e-002	5.980660e-001	7.836323e-001	-2.978421e-002	7.877544e-001	-2.968539e-002	5.262940e-002	5.906985e-001
400009.600	1.865903e-002	5.990581e-001	7.823520e-001	-3.819400e-002	7.864417e-001	-3.812671e-002	5.842567e-002	5.913992e-001
406259.594	2.588703e-002	6.000379e-001	7.809408e-001	-4.643909e-002	7.850107e-001	-4.641064e-002	6.416374e-002	5.921336e-001
412509.587	3.306701e-002	6.009712e-001	7.794118e-001	-5.454433e-002	7.834556e-001	-5.452919e-002	6.991608e-002	5.928222e-001
418759.581	4.009241e-002	6.019032e-001	7.777326e-001	-6.244929e-002	7.817591e-001	-6.246529e-002	7.557396e-002	5.935858e-001
425009.575	4.701357e-002	6.028541e-001	7.759420e-001	-7.018204e-002	7.799819e-001	-7.030407e-002	8.124607e-002	5.943075e-001
431259.569	5.391586e-002	6.037246e-001	7.740313e-001	-7.783494e-002	7.780595e-001	-7.791045e-002	8.681638e-002	5.950682e-001
437509.563	6.065107e-002	6.046230e-001	7.720388e-001	-8.526699e-002	7.760315e-001	-8.543269e-002	9.243499e-002	5.958006e-001
443759.556	6.730446e-002	6.055191e-001	7.699617e-001	-9.256692e-002	7.738801e-001	-9.271353e-002	9.792355e-002	5.965627e-001
450009.550	7.395750e-002	6.063265e-001	7.677647e-001	-9.976335e-002	7.716873e-001	-9.997421e-002	1.034808e-001	5.973019e-001
456259.544	8.045434e-002	6.071982e-001	7.654668e-001	-1.067587e-001	7.693853e-001	-1.069905e-001	1.089071e-001	5.980912e-001
462509.537	8.687492e-002	6.080299e-001	7.630991e-001	-1.136162e-001	7.669917e-001	-1.139197e-001	1.143681e-001	5.988398e-001
468759.531	9.323685e-002	6.088497e-001	7.606359e-001	-1.203246e-001	7.645321e-001	-1.206573e-001	1.197323e-001	5.996216e-001
475009.525	9.959666e-002	6.096175e-001	7.581150e-001	-1.269512e-001	7.619929e-001	-1.273114e-001	1.251378e-001	6.003528e-001
481259.519	1.058363e-001	6.104007e-001	7.555055e-001	-1.334091e-001	7.593619e-001	-1.337646e-001	1.304425e-001	6.011364e-001
487509.512	1.120415e-001	6.111790e-001	7.528124e-001	-1.397128e-001	7.566420e-001	-1.400992e-001	1.357769e-001	6.018875e-001
493759.506	1.181526e-001	6.119251e-001	7.500856e-001	-1.458715e-001	7.538924e-001	-1.463631e-001	1.410948e-001	6.025972e-001
500009.500	1.242793e-001	6.126131e-001	7.472995e-001	-1.520049e-001	7.510903e-001	-1.524000e-001	1.462980e-001	6.033448e-001
506259.494	1.302619e-001	6.133167e-001	7.444357e-001	-1.579252e-001	7.482403e-001	-1.584611e-001	1.515823e-001	6.040439e-001
512509.487	1.362786e-001	6.139519e-001	7.415125e-001	-1.638033e-001	7.452999e-001	-1.642927e-001	1.567625e-001	6.047733e-001
518759.481	1.421851e-001	6.146340e-001	7.385474e-001	-1.694948e-001	7.423140e-001	-1.699924e-001	1.619262e-001	6.054852e-001
525009.475	1.480406e-001	6.152433e-001	7.355359e-001	-1.751089e-001	7.392873e-001	-1.756734e-001	1.671298e-001	6.060905e-001
531259.469	1.538862e-001	6.158317e-001	7.324813e-001	-1.806278e-001	7.362136e-001	-1.811563e-001	1.722361e-001	6.067769e-001
537509.463	1.596428e-001	6.164354e-001	7.293785e-001	-1.859591e-001	7.331101e-001	-1.864823e-001	1.773152e-001	6.074385e-001
543759.456	1.653417e-001	6.170206e-001	7.262249e-001	-1.911989e-001	7.299612e-001	-1.918048e-001	1.824458e-001	6.080382e-001
550009.450	1.709919e-001	6.175883e-001	7.230618e-001	-1.963347e-001	7.267596e-001	-1.969593e-001	1.874753e-001	6.086772e-001
556259.444	1.766238e-001	6.181214e-001	7.198612e-001	-2.013736e-001	7.235469e-001	-2.019915e-001	1.924995e-001	6.092907e-001
562509.438	1.821827e-001	6.186443e-001	7.166361e-001	-2.062965e-001	7.202665e-001	-2.069824e-001	1.975674e-001	6.098153e-001
568759.431	1.877166e-001	6.191411e-001	7.133721e-001	-2.111197e-001	7.169799e-001	-2.118061e-001	2.025372e-001	6.104047e-001
575009.425	1.932937e-001	6.195430e-001	7.100469e-001	-2.158986e-001	7.136437e-001	-2.166249e-001	2.076056e-001	6.108808e-001
581259.419	1.987934e-001	6.199213e-001	7.067019e-001	-2.205539e-001	7.103099e-001	-2.212366e-001	2.125375e-001	6.114379e-001
587509.412	2.042126e-001	6.203481e-001	7.033476e-001	-2.250785e-001	7.069439e-001	-2.257394e-001	2.174370e-001	6.119513e-001
593759.406	2.095881e-001	6.207612e-001	6.999741e-001	-2.295195e-001	7.035354e-001	-2.302309e-001	2.223837e-001	6.123805e-001
600009.400	2.149247e-001	6.211306e-001	6.965701e-001	-2.338419e-001	7.001039e-001	-2.345543e-001	2.272552e-001	6.128460e-001
606259.394	2.202197e-001	6.214946e-001	6.931701e-001	-2.380858e-001	6.966705e-001	-2.388913e-001	2.321782e-001	6.132343e-001
612509.387	2.255389e-001	6.217355e-001	6.896980e-001	-2.422853e-001	6.932126e-001	-2.430312e-001	2.369952e-001	6.136735e-001
618759.381	2.307801e-001	6.220224e-001	6.862446e-001	-2.463372e-001	6.897117e-001	-2.471431e-001	2.418662e-001	6.139827e-001
625009.375	2.359711e-001	6.222819e-001	6.827871e-001	-2.503300e-001	6.862259e-001	-2.511314e-001	2.466682e-001	6.143275e-001
631259.369	2.411278e-001	6.225507e-001	6.792934e-001	-2.542032e-001	6.827428e-001	-2.550169e-001	2.514180e-001	6.146967e-001
637509.362	2.462701e-001	6.227863e-001	6.757850e-001	-2.580082e-001	6.791942e-001	-2.588801e-001	2.562259e-001	6.149488e-001
643759.356	2.514142e-001	6.229109e-001	6.722758e-001	-2.617762e-001	6.756803e-001	-2.626022e-001	2.609574e-001	6.152703e-001
650009.350	2.564728e-001	6.230929e-001	6.687548e-001	-2.654119e-001	6.721121e-001	-2.662896e-001	2.657065e-001	6.154690e-001
656259.344	2.615069e-001	6.232397e-001	6.652214e-001	-2.689686e-001	6.685758e-001	-2.698439e-001	2.703776e-001	6.157380e-001
662509.337	2.665034e-001	6.233752e-001	6.616874e-001	-2.724305e-001	6.649949e-001	-2.733916e-001	2.750858e-001	6.158906e-001
668759.331	2.714724e-001	6.234867e-001	6.581485e-001	-2.758251e-001	6.614478e-001	-2.767801e-001	2.797140e-001	6.161148e-001
675009.325	2.764040e-001	6.235653e-001	6.546004e-001	-2.791607e-001	6.578931e-001	-2.801162e-001	2.843250e-001	6.163238e-001
681259.319	2.813459e-001	6.235433e-001	6.510287e-001	-2.824414e-001	6.542964e-001	-2.834152e-001	2.889744e-001	6.163975e-001
687509.313	2.862338e-001	6.235832e-001	6.474757e-001	-2.856287e-001	6.507469e-001	-2.865902e-001	2.935356e-001	6.165480e-001
693759.306	2.910797e-001	6.235887e-001	6.438975e-001	-2.887227e-001	6.471501e-001	-2.897518e-001	2.981405e-001	6.165976e-001
700009.300	2.958809e-001	6.235827e-001	6.403555e-001	-2.917445e-001	6.435755e-001	-2.927758e-001	3.026518e-001	6.166825e-001
706259.294	3.006532e-001	6.235472e-001	6.367865e-001	-2.946909e-001	6.400228e-001	-2.957290e-001	3.071556e-001	6.167678e-001
712509.287	3.054515e-001	6.233888e-001	6.332231e-001	-2.976303e-001	6.364187e-001	-2.986809e-001	3.116786e-001	6.167281e-001
718759.281	3.101583e-001	6.233038e-001	6.296483e-001	-3.004543e-001	6.328675e-001	-3.014948e-001	3.161278e-001	6.167522e-001
725009.275	3.148485e-001	6.232019e-001	6.261229e-001	-3.032157e-001	6.292694e-001	-3.043152e-001	3.206108e-001	6.166737e-001
731259.269	3.195159e-001	6.230610e-001	6.225409e-001	-3.058817e-001	6.257138e-001	-3.070052e-001	3.250176e-001	6.166532e-001
737509.262	3.245075e-001	6.243027e-001	6.194673e-001	-3.085268e-001	6.225678e-001	-3.098487e-001	3.296849e-001	6.178924e-001
743759.256	3.291133e-001	6.240905e-001	6.159204e-001	-3.111202e-001	6.189825e-001	-3.124645e-001	3.341038e-001	6.176943e-001
750009.250	3.337369e-001	6.237402e-001	6.123095e-001	-3.136857e-001	6.154286e-001	-3.149495e-001	3.384281e-001	6.175619e-001
756259.244	3.382899e-001	6.235074e-001	6.087970e-001	-3.161453e-001	6.118773e-001	-3.174162e-001	3.427446e-001	6.174214e-001
762509.237	3.428098e-001	6.232087e-001	6.052454e-001	-3.185292e-001	6.083049e-001	-3.198705e-001	3.470928e-001	6.171761e-001
768759.231	3.472972e-001	6.229094e-001	6.017215e-001	-3.208882e-001	6.047646e-001	-3.221865e-001	3.513502e-001	6.169867e-001
775009.225	3.518079e-001	6.224832e-001	5.981660e-001	-3.231965e-001	6.012009e-001	-3.245025e-001	3.556312e-001	6.166648e-001
781259.219	3.562278e-001	6.221348e-001	5.946593e-001	-3.254250e-001	5.976673e-001	-3.267384e-001	3.598601e-001	6.164342e-001
787509.212	3.605566e-001	6.218172e-001	5.911696e-001	-3.275432e-001	5.941406e-001	-3.289106e-001	3.640281e-001	6.161526e-001
793759.206	3.649038e-001	6.214170e-001	5.876584e-001	-3.296477e-001	5.906179e-001	-3.310489e-001	3.682188e-001	6.157909e-001
800009.200	3.692634e-001	6.210281e-001	5.841937e-001	-3.316870e-001	5.871170e-001	-3.330996e-001	3.723806e-001	6.155116e-001
806259.194	3.735574e-001	6.205780e-001	5.807080e-001	-3.337063e-001	5.836009e-001	-3.351302e-001	3.765395e-001	6.151126e-001
812509.188	3.778649e-001	6.201257e-001	5.772277e-001	-3.356564e-001	5.801327e-001	-3.370794e-001	3.806382e-001	6.147816e-001
818759.181	3.821462e-001	6.195578e-001	5.737371e-001	-3.375920e-001	5.766744e-001	-3.389743e-001	3.847155e-001	6.144465e-001
825009.175	3.863602e-001	6.190534e-001	5.702725e-001	-3.394359e-001	5.731844e-001	-3.408471e-001	3.887967e-001	6.139620e-001
831259.169	3.905493e-001	6.185502e-001	5.668428e-001	-3.412413e-001	5.697436e-001	-3.426618e-001	3.928463e-001	6.135687e-001
837509.162	3.947097e-001	6.180107e-001	5.634350e-001	-3.429750e-001	5.662839e-001	-3.444340e-001	3.968633e-001	6.130721e-001
843759.156	3.988440e-001	6.174713e-001	5.600239e-001	-3.446761e-001	5.628792e-001	-3.461321e-001	4.008423e-001	6.126411e-001
850009.150	4.029509e-001	6.169095e-001	5.566100e-001	-3.463297e-001	5.594668e-001	-3.478036e-001	4.047983e-001	6.121905e-001
856259.144	4.070347e-001	6.163182e-001	5.532212e-001	-3.479377e-001	5.560473e-001	-3.494339e-001	4.087468e-001	6.116392e-001
862509.137	4.110716e-001	6.157127e-001	5.498596e-001	-3.494773e-001	5.526820e-001	-3.510312e-001	4.126743e-001	6.111557e-001
868759.131	4.150980e-001	6.151215e-001	5.465292e-001	-3.509966e-001	5.492837e-001	-3.525650e-001	4.165655e-001	6.105744e-001
875009.125	4.190655e-001	6.144843e-001	5.432005e-001	-3.524701e-001	5.459633e-001	-3.540228e-001	4.204035e-001	6.100351e-001
881259.119	4.230364e-001	6.137392e-001	5.398345e-001	-3.539393e-001	5.426255e-001	-3.554516e-001	4.242254e-001	6.095140e-001
887509.112	4.269586e-001	6.130589e-001	5.365299e-001	-3.553237e-001	5.393040e-001	-3.568812e-001	4.280539e-001	6.088776e-001
893759.106	4.308517e-001	6.123865e-001	5.332424e-001	-3.566790e-001	5.359890e-001	-3.582133e-001	4.318206e-001	6.083035e-001
900009.100	4.347189e-001	6.116997e-001	5.299739e-001	-3.579884e-001	5.326989e-001	-3.595488e-001	4.355787e-001	6.076264e-001
906259.094	4.385331e-001	6.110098e-001	5.267364e-001	-3.592319e-001	5.294322e-001	-3.608108e-001	4.393096e-001	6.070163e-001
912509.087	4.423743e-001	6.102694e-001	5.234824e-001	-3.605013e-001	5.261761e-001	-3.620801e-001	4.430403e-001	6.064157e-001
918759.081	4.461477e-001	6.095539e-001	5.202726e-001	-3.616833e-001	5.229131e-001	-3.632583e-001	4.467503e-001	6.056395e-001
925009.075	4.499082e-001	6.088076e-001	5.170817e-001	-3.628488e-001	5.196895e-001	-3.644102e-001	4.504138e-001	6.049939e-001
931259.069	4.536320e-001	6.080496e-001	5.138998e-001	-3.639504e-001	5.165149e-001	-3.655437e-001	4.540366e-001	6.043640e-001
937509.063	4.573276e-001	6.072732e-001	5.107045e-001	-3.650341e-001	5.132858e-001	-3.666604e-001	4.576612e-001	6.035787e-001
943759.056	4.610158e-001	6.064908e-001	5.075453e-001	-3.660883e-001	5.101324e-001	-3.677031e-001	4.612407e-001	6.029087e-001
950009.050	4.646429e-001	6.056858e-001	5.044231e-001	-3.670721e-001	5.069844e-001	-3.687040e-001	4.647908e-001	6.022146e-001
956259.044	4.682749e-001	6.048751e-001	5.013034e-001	-3.680586e-001	5.038101e-001	-3.697136e-001	4.683531e-001	6.013994e-001
962509.037	4.718805e-001	6.040441e-001	4.982021e-001	-3.690097e-001	5.007252e-001	-3.706489e-001	4.718420e-001	6.006860e-001
968759.031	4.754640e-001	6.031981e-001	4.950969e-001	-3.699377e-001	4.976247e-001	-3.715607e-001	4.753431e-001	5.999309e-001
975009.025	4.790215e-001	6.022367e-001	4.919715e-001	-3.708351e-001	4.944977e-001	-3.724506e-001	4.788016e-001	5.990781e-001
981259.019	4.825300e-001	6.013799e-001	4.889432e-001	-3.716766e-001	4.914558e-001	-3.732892e-001	4.822255e-001	5.983180e-001
