"# Channel 1"
"# Trace 1"
Frequency, Formatted Data, Formatted Data
+1.00000000000E+002, -1.01092841490E+003, -7.88265787098E+003
+6.34993750000E+003, -7.27597327884E+000, -2.48009350485E+002
+1.25998750000E+004, -1.52094488911E+000, -1.25166045346E+002
+1.88498125000E+004, -5.64893491785E-001, -8.36561496177E+001
+2.50997500000E+004, -2.28206868933E-001, -6.28030594714E+001
+3.13496875000E+004, -6.82708337832E-002, -5.02603419382E+001
+3.75996250000E+004, +2.23653323050E-002, -4.18868393462E+001
+4.38495625000E+004, +7.96791407251E-002, -3.59005074090E+001
+5.00995000000E+004, +1.18810729441E-001, -3.14202860604E+001
+5.63494375000E+004, +1.46466017897E-001, -2.79285284080E+001
+6.25993750000E+004, +1.67368685637E-001, -2.51370304277E+001
+6.88493125000E+004, +1.83626179832E-001, -2.28546904422E+001
+7.50992500000E+004, +1.93132230048E-001, -2.09551346682E+001
+8.13491875000E+004, +2.02890900249E-001, -1.93447759134E+001
+8.75991250000E+004, +2.08219355525E-001, -1.79683394689E+001
+9.38490625000E+004, +2.01693030191E-001, -1.67749831245E+001
+1.00099000000E+005, +2.05129179404E-001, -1.57286376640E+001
+1.06348937500E+005, +2.06100026446E-001, -1.48079513050E+001
+1.12598875000E+005, +2.08923843988E-001, -1.39857812560E+001
+1.18848812500E+005, +2.08989778362E-001, -1.32532798486E+001
+1.25098750000E+005, +2.09284502602E-001, -1.25929853813E+001
+1.31348687500E+005, +2.09349341707E-001, -1.19951371642E+001
+1.37598625000E+005, +2.07523734440E-001, -1.14526343775E+001
+1.43848562500E+005, +2.08022774766E-001, -1.09544402860E+001
+1.50098500000E+005, +2.06685725216E-001, -1.05002726118E+001
+1.56348437500E+005, +2.06164598729E-001, -1.00805220561E+001
+1.62598375000E+005, +2.05604489915E-001, -9.69379189332E+000
+1.68848312500E+005, +2.02152315657E-001, -9.33590834043E+000
+1.75098250000E+005, +2.02201663618E-001, -9.00255321011E+000
+1.81348187500E+005, +2.00618374554E-001, -8.69289808201E+000
+1.87598125000E+005, +2.00989216042E-001, -8.40263588424E+000
+1.93848062500E+005, +2.00298468332E-001, -8.13126748593E+000
+2.00098000000E+005, +1.98879093866E-001, -7.87665860398E+000
+2.06347937500E+005, +1.99206000146E-001, -7.63785998417E+000
+2.12597875000E+005, +1.98490227315E-001, -7.41222164064E+000
+2.18847812500E+005, +1.96332281741E-001, -7.20148567083E+000
+2.25097750000E+005, +1.96746457735E-001, -7.00016961742E+000
+2.31347687500E+005, +1.95366713948E-001, -6.81193629927E+000
+2.37597625000E+005, +1.95660255725E-001, -6.63185793314E+000
+2.43847562500E+005, +1.93761492636E-001, -6.46203760003E+000
+2.50097500000E+005, +1.92485477564E-001, -6.29989776591E+000
+2.56347437500E+005, +1.91543121694E-001, -6.14598935207E+000
+2.62597375000E+005, +1.92391182193E-001, -5.99831392091E+000
+2.68847312500E+005, +1.91785180015E-001, -5.85902014294E+000
+2.75097250000E+005, +1.91203954528E-001, -5.72514244704E+000
+2.81347187500E+005, +1.88934341684E-001, -5.59856336221E+000
+2.87597125000E+005, +1.88403271522E-001, -5.47595109278E+000
+2.93847062500E+005, +1.85888243932E-001, -5.35981069537E+000
+3.00097000000E+005, +1.83560961295E-001, -5.24788644776E+000
+3.06346937500E+005, +1.83280190762E-001, -5.14043875934E+000
+3.12596875000E+005, +1.83286247826E-001, -5.03741522953E+000
+3.18846812500E+005, +1.81281898731E-001, -4.93820949564E+000
+3.25096750000E+005, +1.81309599627E-001, -4.84237318537E+000
+3.31346687500E+005, +1.81075658797E-001, -4.75031772360E+000
+3.37596625000E+005, +1.81110146726E-001, -4.66145527144E+000
+3.43846562500E+005, +1.79393217453E-001, -4.57690687647E+000
+3.50096500000E+005, +1.80407881277E-001, -4.49415641839E+000
+3.56346437500E+005, +1.80313202796E-001, -4.41431579256E+000
+3.62596375000E+005, +1.80386176844E-001, -4.33739364328E+000
+3.68846312500E+005, +1.78505313220E-001, -4.26436136868E+000
+3.75096250000E+005, +1.78716176523E-001, -4.19170913863E+000
+3.81346187500E+005, +1.78569556540E-001, -4.12295894831E+000
+3.87596125000E+005, +1.78611035000E-001, -4.05543184496E+000
+3.93846062500E+005, +1.77094827815E-001, -3.99098259402E+000
+4.00096000000E+005, +1.78103539884E-001, -3.92776064163E+000
+4.06345937500E+005, +1.78325878935E-001, -3.86638119892E+000
+4.12595875000E+005, +1.76674073154E-001, -3.80770116649E+000
+4.18845812500E+005, +1.77376798663E-001, -3.74938580861E+000
+4.25095750000E+005, +1.77766930176E-001, -3.69346975757E+000
+4.31345687500E+005, +1.76924041268E-001, -3.63925893112E+000
+4.37595625000E+005, +1.77139081683E-001, -3.58663691357E+000
+4.43845562500E+005, +1.77297285304E-001, -3.53542930227E+000
+4.50095500000E+005, +1.75579510024E-001, -3.48582744154E+000
+4.56345437500E+005, +1.76177385482E-001, -3.43756360280E+000
+4.62595375000E+005, +1.77369277223E-001, -3.39030743875E+000
+4.68845312500E+005, +1.77604139328E-001, -3.34370785843E+000
+4.75095250000E+005, +1.76741714073E-001, -3.29964652748E+000
+4.81345187500E+005, +1.77546418057E-001, -3.25587565877E+000
+4.87595125000E+005, +1.77880339315E-001, -3.21541221088E+000
+4.93845062500E+005, +1.78946985053E-001, -3.17394674853E+000
+5.00095000000E+005, +1.77341487997E-001, -3.13366563591E+000
+5.06344937500E+005, +1.78193781544E-001, -3.09416937185E+000
+5.12594875000E+005, +1.76565535207E-001, -3.05612586421E+000
+5.18844812500E+005, +1.77539928911E-001, -3.01757383663E+000
+5.25094750000E+005, +1.76637492310E-001, -2.97950283957E+000
+5.31344687500E+005, +1.75747135261E-001, -2.94353692224E+000
+5.37594625000E+005, +1.76113460267E-001, -2.90820888057E+000
+5.43844562500E+005, +1.76966133753E-001, -2.87403125998E+000
+5.50094500000E+005, +1.77393734881E-001, -2.84064280309E+000
+5.56344437500E+005, +1.78709413308E-001, -2.80804202622E+000
+5.62594375000E+005, +1.78861331095E-001, -2.77615056950E+000
+5.68844312500E+005, +1.79817058348E-001, -2.74362789909E+000
+5.75094250000E+005, +1.78649516796E-001, -2.71625617479E+000
+5.81344187500E+005, +1.77118545374E-001, -2.68651216650E+000
+5.87594125000E+005, +1.77529136673E-001, -2.65691431875E+000
+5.93844062500E+005, +1.78334594541E-001, -2.62827162167E+000
+6.00094000000E+005, +1.79096156819E-001, -2.59992060459E+000
+6.06343937500E+005, +1.80037975201E-001, -2.57227011553E+000
+6.12593875000E+005, +1.78547454886E-001, -2.54513698065E+000
+6.18843812500E+005, +1.79035097109E-001, -2.51817802516E+000
+6.25093750000E+005, +1.78498803664E-001, -2.49105277526E+000
+6.31343687500E+005, +1.79199635381E-001, -2.46562428222E+000
+6.37593625000E+005, +1.79961510649E-001, -2.44045521400E+000
+6.43843562500E+005, +1.78289123130E-001, -2.41545137385E+000
+6.50093500000E+005, +1.78708250205E-001, -2.39152312413E+000
+6.56343437500E+005, +1.79017008214E-001, -2.36851221047E+000
+6.62593375000E+005, +1.79911042216E-001, -2.34479600656E+000
+6.68843312500E+005, +1.80755646245E-001, -2.32175143109E+000
+6.75093250000E+005, +1.81345802435E-001, -2.29958675296E+000
+6.81343187500E+005, +1.79857663589E-001, -2.27834883626E+000
+6.87593125000E+005, +1.80448667251E-001, -2.25629033666E+000
+6.93843062500E+005, +1.81086038984E-001, -2.23536549296E+000
+7.00093000000E+005, +1.81189653108E-001, -2.21450044371E+000
+7.06342937500E+005, +1.82488479077E-001, -2.19376407649E+000
+7.12592875000E+005, +1.80352568533E-001, -2.17367274719E+000
+7.18842812500E+005, +1.81542481864E-001, -2.15410773673E+000
+7.25092750000E+005, +1.81292617827E-001, -2.13490197600E+000
+7.31342687500E+005, +1.84197327221E-001, -2.12067864258E+000
+7.37592625000E+005, +1.70517385528E-001, -2.16561789364E+000
+7.43842562500E+005, +1.69751250160E-001, -2.14600973912E+000
+7.50092500000E+005, +1.67174691056E-001, -2.12729493603E+000
+7.56342437500E+005, +1.66495702323E-001, -2.10825908410E+000
+7.62592375000E+005, +1.65991651023E-001, -2.08945327727E+000
+7.68842312500E+005, +1.65331472096E-001, -2.07116613450E+000
+7.75092250000E+005, +1.62728114896E-001, -2.05347966779E+000
+7.81342187500E+005, +1.57018054100E-001, -2.04185854385E+000
+7.87592125000E+005, +1.63450709395E-001, -2.01592088747E+000
+7.93842062500E+005, +1.63862159551E-001, -1.99860784088E+000
+8.00092000000E+005, +1.63179635065E-001, -1.98175286897E+000
+8.06341937500E+005, +1.63323412067E-001, -1.96506541126E+000
+8.12591875000E+005, +1.63053464057E-001, -1.94869749512E+000
+8.18841812500E+005, +1.61232034826E-001, -1.93271900636E+000
+8.25091750000E+005, +1.61636756641E-001, -1.91729460170E+000
+8.31341687500E+005, +1.61685679652E-001, -1.90161457407E+000
+8.37591625000E+005, +1.61495078066E-001, -1.88607990711E+000
+8.43841562500E+005, +1.61762380732E-001, -1.87061388416E+000
+8.50091500000E+005, +1.61065065091E-001, -1.85632422519E+000
+8.56341437500E+005, +1.61109951981E-001, -1.84196524520E+000
+8.62591375000E+005, +1.60435486539E-001, -1.82735346958E+000
+8.68841312500E+005, +1.60831528458E-001, -1.81314700118E+000
+8.75091250000E+005, +1.60036490953E-001, -1.79861023317E+000
+8.81341187500E+005, +1.58677976856E-001, -1.78546039172E+000
+8.87591125000E+005, +1.58237461950E-001, -1.77125050665E+000
+8.93841062500E+005, +1.58233562562E-001, -1.75782596266E+000
+9.00091000000E+005, +1.58314341385E-001, -1.74410402819E+000
+9.06340937500E+005, +1.64433044391E-001, -1.72760335646E+000
+9.12590875000E+005, +1.57231673960E-001, -1.71863681258E+000
+9.18840812500E+005, +1.57673111086E-001, -1.70579786439E+000
+9.25090750000E+005, +1.58068303144E-001, -1.69310644142E+000
+9.31340687500E+005, +1.58064328297E-001, -1.68038984438E+000
+9.37590625000E+005, +1.59121944934E-001, -1.66797020444E+000
+9.43840562500E+005, +1.59284821628E-001, -1.65546303749E+000
+9.50090500000E+005, +1.59765393468E-001, -1.64353436145E+000
+9.56340437500E+005, +1.59154609227E-001, -1.63146327756E+000
+9.62590375000E+005, +1.59996893474E-001, -1.61917563911E+000
+9.68840312500E+005, +1.59769817935E-001, -1.60750825073E+000
+9.75090250000E+005, +1.58264832921E-001, -1.59582124292E+000
+9.81340187500E+005, +1.58568191862E-001, -1.58480395534E+000
+9.87590125000E+005, +1.58416911491E-001, -1.57344997055E+000
+9.93840062500E+005, +1.59368947594E-001, -1.56285672244E+000
+1.00009000000E+006, +1.59732631766E-001, -1.55177688488E+000
+1.00633993750E+006, +1.60221929479E-001, -1.54062046137E+000
+1.01258987500E+006, +1.61541070646E-001, -1.53046056678E+000
+1.01883981250E+006, +1.61596413897E-001, -1.51968163279E+000
+1.02508975000E+006, +1.62192464228E-001, -1.50965987041E+000
+1.03133968750E+006, +1.62748692961E-001, -1.49985179879E+000
+1.03758962500E+006, +1.63004902959E-001, -1.48957849830E+000
+1.04383956250E+006, +1.61767269366E-001, -1.47838870315E+000
+1.05008950000E+006, +1.62449336209E-001, -1.46850585949E+000
+1.05633943750E+006, +1.62583835674E-001, -1.45888995110E+000
+1.06258937500E+006, +1.63813936878E-001, -1.44938373574E+000
+1.06883931250E+006, +1.61353173768E-001, -1.43981863359E+000
+1.07508925000E+006, +1.62004724450E-001, -1.43064034754E+000
+1.08133918750E+006, +1.62639081110E-001, -1.42138098137E+000
+1.08758912500E+006, +1.63093730938E-001, -1.41206506716E+000
+1.09383906250E+006, +1.63329170936E-001, -1.40342016856E+000
+1.10008900000E+006, +1.63721108286E-001, -1.39438676820E+000
+1.10633893750E+006, +1.64235694629E-001, -1.38526597683E+000
+1.11258887500E+006, +1.64672725188E-001, -1.37652357952E+000
+1.11883881250E+006, +1.62927503646E-001, -1.36748208572E+000
+1.12508875000E+006, +1.63294038957E-001, -1.35899037143E+000
+1.13133868750E+006, +1.64328671263E-001, -1.35040066574E+000
+1.13758862500E+006, +1.64760831861E-001, -1.34213108108E+000
+1.14383856250E+006, +1.68529413074E-001, -1.33668902102E+000
+1.15008850000E+006, +1.69147343538E-001, -1.32824131262E+000
+1.15633843750E+006, +1.70211677630E-001, -1.32051272304E+000
+1.16258837500E+006, +1.68616858923E-001, -1.31201446840E+000
+1.16883831250E+006, +1.69021738638E-001, -1.30400967558E+000
+1.17508825000E+006, +1.69562874468E-001, -1.29658876331E+000
+1.18133818750E+006, +1.70279364997E-001, -1.28894217775E+000
+1.18758812500E+006, +1.70832861239E-001, -1.28154051271E+000
+1.19383806250E+006, +1.71999362082E-001, -1.27411589432E+000
+1.20008800000E+006, +1.70772688887E-001, -1.26668666364E+000
+1.20633793750E+006, +1.71311252714E-001, -1.25925860393E+000
+1.21258787500E+006, +1.71882247362E-001, -1.25271221061E+000
+1.21883781250E+006, +1.72640239829E-001, -1.24527927514E+000
+1.22508775000E+006, +1.73569337572E-001, -1.23826830562E+000
+1.23133768750E+006, +1.73941924445E-001, -1.23113527462E+000
+1.23758762500E+006, +1.72974797561E-001, -1.22453239031E+000
+1.24383756250E+006, +1.73315445406E-001, -1.21805084405E+000
+1.25008750000E+006, +1.71558285056E-001, -1.20554945827E+000
+1.25633743750E+006, +1.72774894463E-001, -1.19886749475E+000
+1.26258737500E+006, +1.73248354417E-001, -1.19186154865E+000
+1.26883731250E+006, +1.71667430027E-001, -1.18584274483E+000
+1.27508725000E+006, +1.72384753733E-001, -1.17895337131E+000
+1.28133718750E+006, +1.72980590491E-001, -1.17245706983E+000
+1.28758712500E+006, +1.73493123361E-001, -1.16620288966E+000
+1.29383706250E+006, +1.73930446404E-001, -1.15952252825E+000
+1.30008700000E+006, +1.74818830014E-001, -1.15307430326E+000
+1.30633693750E+006, +1.73246897838E-001, -1.14687822821E+000
+1.31258687500E+006, +1.73870124201E-001, -1.14082208522E+000
+1.31883681250E+006, +1.74177878877E-001, -1.13483285955E+000
+1.32508675000E+006, +1.74998116466E-001, -1.12911227046E+000
+1.33133668750E+006, +1.75609071382E-001, -1.12314859663E+000
+1.33758662500E+006, +1.76526265440E-001, -1.11713366773E+000
+1.34383656250E+006, +1.74919820108E-001, -1.11099091862E+000
+1.35008650000E+006, +1.75583251412E-001, -1.10560801959E+000
+1.35633643750E+006, +1.76622435421E-001, -1.09986262936E+000
+1.36258637500E+006, +1.76916872472E-001, -1.09403235260E+000
+1.36883631250E+006, +1.77797009883E-001, -1.08852049757E+000
+1.37508625000E+006, +1.77941289450E-001, -1.08272822209E+000
+1.38133618750E+006, +1.76797980158E-001, -1.07771432655E+000
+1.38758612500E+006, +1.77670198541E-001, -1.07263757602E+000
+1.39383606250E+006, +1.77725724309E-001, -1.06710653079E+000
+1.40008600000E+006, +1.79109125511E-001, -1.06201999640E+000
+1.40633593750E+006, +1.79111088360E-001, -1.05663923265E+000
+1.41258587500E+006, +1.78214713745E-001, -1.05212324532E+000
+1.41883581250E+006, +1.78638160653E-001, -1.04723019699E+000
+1.42508575000E+006, +1.79132061471E-001, -1.04167011285E+000
+1.43133568750E+006, +1.80327147797E-001, -1.03671162283E+000
+1.43758562500E+006, +1.80300850434E-001, -1.03209196437E+000
+1.44383556250E+006, +1.80598486253E-001, -1.02648301823E+000
+1.45008550000E+006, +1.79220017017E-001, -1.02279184285E+000
+1.45633543750E+006, +1.79930166164E-001, -1.01748288739E+000
+1.46258537500E+006, +1.80855504366E-001, -1.01327644643E+000
+1.46883531250E+006, +1.79861184169E-001, -1.01779279030E+000
+1.47508525000E+006, +1.80448012683E-001, -1.01236860845E+000
+1.48133518750E+006, +1.80668490849E-001, -1.00730311778E+000
+1.48758512500E+006, +1.80835973873E-001, -1.00207380195E+000
+1.49383506250E+006, +1.79482228770E-001, -9.96921293157E-001
+1.50008500000E+006, +1.79975456322E-001, -9.92132522360E-001
+1.50633493750E+006, +1.79984594908E-001, -9.86713644956E-001
+1.51258487500E+006, +1.80385866410E-001, -9.81623867961E-001
+1.51883481250E+006, +1.80730907066E-001, -9.76512377924E-001
+1.52508475000E+006, +1.80792140774E-001, -9.71180271493E-001
+1.53133468750E+006, +1.80708286659E-001, -9.66646976787E-001
+1.53758462500E+006, +1.81005969675E-001, -9.61186445656E-001
+1.54383456250E+006, +1.79502595391E-001, -9.56739686538E-001
+1.55008450000E+006, +1.79648284389E-001, -9.51105915828E-001
+1.55633443750E+006, +1.79433267636E-001, -9.46042095948E-001
+1.56258437500E+006, +1.82285834182E-001, -9.42001636880E-001
+1.56883431250E+006, +1.82848170066E-001, -9.38101777325E-001
+1.57508425000E+006, +1.83271717182E-001, -9.33865551906E-001
+1.58133418750E+006, +1.83407645621E-001, -9.29263855314E-001
+1.58758412500E+006, +1.81773014677E-001, -9.25139717074E-001
+1.59383406250E+006, +1.81701731357E-001, -9.20663390235E-001
+1.60008400000E+006, +1.82237280629E-001, -9.16068709641E-001
+1.60633393750E+006, +1.82621233651E-001, -9.11925175408E-001
+1.61258387500E+006, +1.82683288086E-001, -9.07003532989E-001
+1.61883381250E+006, +1.82610631928E-001, -9.03177786522E-001
+1.62508375000E+006, +1.83067028862E-001, -8.98232639875E-001
+1.63133368750E+006, +1.83247319249E-001, -8.93636189336E-001
+1.63758362500E+006, +1.81158858129E-001, -8.89458590506E-001
+1.64383356250E+006, +1.81532284716E-001, -8.85005224680E-001
+1.65008350000E+006, +1.81402857906E-001, -8.80980380538E-001
+1.65633343750E+006, +1.82225278748E-001, -8.76013943023E-001
+1.66258337500E+006, +1.81557023722E-001, -8.71383427905E-001
+1.66883331250E+006, +1.81350028160E-001, -8.67222304999E-001
+1.67508325000E+006, +1.82088143125E-001, -8.62488157605E-001
+1.68133318750E+006, +1.82297196809E-001, -8.58009204897E-001
+1.68758312500E+006, +1.80634536423E-001, -8.53358636012E-001
+1.69383306250E+006, +1.81023159088E-001, -8.49173668088E-001
+1.70008300000E+006, +1.81372029827E-001, -8.45110765549E-001
+1.70633293750E+006, +1.81212968483E-001, -8.40484156830E-001
+1.71258287500E+006, +1.78270255493E-001, -8.30853996155E-001
+1.71883281250E+006, +1.78673122125E-001, -8.25979659038E-001
+1.72508275000E+006, +1.78959143641E-001, -8.22130681786E-001
+1.73133268750E+006, +1.79104297540E-001, -8.18427644851E-001
+1.73758262500E+006, +1.78202427842E-001, -8.14632589306E-001
+1.74383256250E+006, +1.78303326668E-001, -8.10560719536E-001
+1.75008250000E+006, +1.78357110486E-001, -8.06172354201E-001
+1.75633243750E+006, +1.78688930965E-001, -8.02508237418E-001
+1.76258237500E+006, +1.78849321961E-001, -7.98689644386E-001
+1.76883231250E+006, +1.80270769993E-001, -7.94884579170E-001
+1.77508225000E+006, +1.78173457952E-001, -7.90993384513E-001
+1.78133218750E+006, +1.77886440024E-001, -7.87453411481E-001
+1.78758212500E+006, +1.79010765967E-001, -7.83680313162E-001
+1.79383206250E+006, +1.78909847366E-001, -7.79710401488E-001
+1.80008200000E+006, +1.79181121937E-001, -7.76376336674E-001
+1.80633193750E+006, +1.79406370828E-001, -7.72498249978E-001
+1.81258187500E+006, +1.79676654273E-001, -7.68649831675E-001
+1.81883181250E+006, +1.78822607315E-001, -7.65575978812E-001
+1.82508175000E+006, +1.78689999385E-001, -7.61648163660E-001
+1.83133168750E+006, +1.79358807888E-001, -7.57984968452E-001
+1.83758162500E+006, +1.79707397284E-001, -7.54495093598E-001
+1.84383156250E+006, +1.80016789861E-001, -7.51172251969E-001
+1.85008150000E+006, +1.80171705447E-001, -7.47471564302E-001
+1.85633143750E+006, +1.78211052258E-001, -7.43851417494E-001
+1.86258137500E+006, +1.78592005306E-001, -7.40551778285E-001
+1.86883131250E+006, +1.79150020018E-001, -7.37195482545E-001
+1.87508125000E+006, +1.78932251929E-001, -7.35288749886E-001
+1.88133118750E+006, +1.79365116637E-001, -7.32058856045E-001
+1.88758112500E+006, +1.79651973515E-001, -7.28027986094E-001
+1.89383106250E+006, +1.79718882409E-001, -7.25156045604E-001
+1.90008100000E+006, +1.77953592194E-001, -7.21512977282E-001
+1.90633093750E+006, +1.78703014316E-001, -7.17811347246E-001
+1.91258087500E+006, +1.78459872235E-001, -7.14933089662E-001
+1.91883081250E+006, +1.78960727087E-001, -7.11333057813E-001
+1.92508075000E+006, +1.79305859110E-001, -7.08255504695E-001
+1.93133068750E+006, +1.80006437721E-001, -7.04825619054E-001
+1.93758062500E+006, +1.79596773423E-001, -7.01167369523E-001
+1.94383056250E+006, +1.79814742518E-001, -6.98178588674E-001
+1.95008050000E+006, +1.78580668481E-001, -6.95802695048E-001
+1.95633043750E+006, +1.78701631860E-001, -6.92354958803E-001
+1.96258037500E+006, +1.78990375726E-001, -6.89415250380E-001
+1.96883031250E+006, +1.79480079657E-001, -6.86258896380E-001
+1.97508025000E+006, +1.77254303434E-001, -6.83793862655E-001
+1.98133018750E+006, +1.78063907968E-001, -6.80486598302E-001
+1.98758012500E+006, +1.78299819469E-001, -6.76971650979E-001
+1.99383006250E+006, +1.76576879163E-001, -6.74347235647E-001
+2.00008000000E+006, +1.77002783950E-001, -6.72111276604E-001
