!Keysight Technologies,E5061B,MY49912438,B.06.30
!Date: Thu Nov 06 19:53:36 2025
!Data & Calibration Information:
!Freq	S11:SOLT1(ON)
# Hz S dB R 50
100.000	1.390233e-002	-7.150884e-001
6349.938	9.865667e-002	-2.277834e+001
12599.875	7.271273e-002	-4.354536e+001
18849.813	5.165629e-002	-6.173053e+001
25099.750	3.075889e-002	-7.704892e+001
31349.688	1.179826e-002	-8.970239e+001
37599.625	-4.566047e-003	-1.000917e+002
43849.563	-1.826635e-002	-1.086424e+002
50099.500	-2.959298e-002	-1.157088e+002
56349.438	-3.878618e-002	-1.216268e+002
62599.375	-4.641785e-002	-1.266185e+002
68849.313	-5.277236e-002	-1.308698e+002
75099.250	-5.707591e-002	-1.345221e+002
81349.188	-6.131374e-002	-1.376970e+002
87599.125	-6.406887e-002	-1.404659e+002
93849.063	-6.298585e-002	-1.429063e+002
100099.000	-6.485192e-002	-1.450752e+002
106348.938	-6.583255e-002	-1.470053e+002
112598.875	-6.732063e-002	-1.487452e+002
118848.813	-6.784407e-002	-1.503081e+002
125098.750	-6.837588e-002	-1.517266e+002
131348.688	-6.877736e-002	-1.530186e+002
137598.625	-6.850721e-002	-1.541972e+002
143848.563	-6.896455e-002	-1.552844e+002
150098.500	-6.877708e-002	-1.562795e+002
156348.438	-6.883147e-002	-1.572024e+002
162598.375	-6.884684e-002	-1.580554e+002
168848.313	-6.786906e-002	-1.588469e+002
175098.250	-6.804642e-002	-1.595861e+002
181348.188	-6.765724e-002	-1.602742e+002
187598.125	-6.791315e-002	-1.609206e+002
193848.063	-6.779808e-002	-1.615259e+002
200098.000	-6.742474e-002	-1.620949e+002
206347.938	-6.763337e-002	-1.626293e+002
212597.875	-6.747993e-002	-1.631350e+002
218847.813	-6.682684e-002	-1.636079e+002
225097.750	-6.704293e-002	-1.640602e+002
231347.688	-6.664074e-002	-1.644835e+002
237597.625	-6.680439e-002	-1.648889e+002
243847.563	-6.621396e-002	-1.652715e+002
250097.500	-6.583150e-002	-1.656372e+002
256347.438	-6.555865e-002	-1.659845e+002
262597.375	-6.589549e-002	-1.663181e+002
268847.313	-6.573074e-002	-1.666329e+002
275097.250	-6.557166e-002	-1.669356e+002
281347.188	-6.483000e-002	-1.672221e+002
287597.125	-6.468246e-002	-1.674997e+002
293847.063	-6.385076e-002	-1.677628e+002
300097.000	-6.308097e-002	-1.680164e+002
306346.938	-6.301231e-002	-1.682601e+002
312596.875	-6.304056e-002	-1.684938e+002
318846.813	-6.237561e-002	-1.687189e+002
325096.750	-6.240832e-002	-1.689365e+002
331346.688	-6.234961e-002	-1.691455e+002
337596.625	-6.238217e-002	-1.693474e+002
343846.563	-6.180992e-002	-1.695395e+002
350096.500	-6.217804e-002	-1.697276e+002
356346.438	-6.216296e-002	-1.699092e+002
362596.375	-6.220474e-002	-1.700841e+002
368846.313	-6.157149e-002	-1.702503e+002
375096.250	-6.165926e-002	-1.704156e+002
381346.188	-6.162267e-002	-1.705721e+002
387596.125	-6.165051e-002	-1.707258e+002
393846.063	-6.113976e-002	-1.708726e+002
400096.000	-6.150025e-002	-1.710166e+002
406345.938	-6.158874e-002	-1.711564e+002
412595.875	-6.102917e-002	-1.712901e+002
418845.813	-6.128266e-002	-1.714230e+002
425095.750	-6.142762e-002	-1.715504e+002
431345.688	-6.114603e-002	-1.716740e+002
437595.625	-6.122961e-002	-1.717940e+002
443845.563	-6.129319e-002	-1.719108e+002
450095.500	-6.070775e-002	-1.720239e+002
456345.438	-6.092258e-002	-1.721340e+002
462595.375	-6.134262e-002	-1.722418e+002
468845.313	-6.143152e-002	-1.723481e+002
475095.250	-6.114034e-002	-1.724486e+002
481345.188	-6.142573e-002	-1.725485e+002
487595.125	-6.154768e-002	-1.726409e+002
493845.063	-6.192329e-002	-1.727355e+002
500095.000	-6.137392e-002	-1.728275e+002
506344.938	-6.167493e-002	-1.729176e+002
512594.875	-6.111707e-002	-1.730045e+002
518844.813	-6.146009e-002	-1.730925e+002
525094.750	-6.115325e-002	-1.731795e+002
531344.688	-6.085016e-002	-1.732616e+002
537594.625	-6.098203e-002	-1.733423e+002
543844.563	-6.128211e-002	-1.734204e+002
550094.500	-6.143486e-002	-1.734966e+002
556344.438	-6.189505e-002	-1.735711e+002
562594.375	-6.195207e-002	-1.736440e+002
568844.313	-6.228756e-002	-1.737183e+002
575094.250	-6.188682e-002	-1.737808e+002
581344.188	-6.136040e-002	-1.738488e+002
587594.125	-6.150652e-002	-1.739164e+002
593844.063	-6.178931e-002	-1.739819e+002
600094.000	-6.205685e-002	-1.740467e+002
606343.938	-6.238675e-002	-1.741099e+002
612593.875	-6.187368e-002	-1.741719e+002
618843.813	-6.204605e-002	-1.742336e+002
625093.750	-6.186354e-002	-1.742956e+002
631343.688	-6.210956e-002	-1.743537e+002
637593.625	-6.237670e-002	-1.744113e+002
643843.563	-6.180002e-002	-1.744684e+002
650093.500	-6.194814e-002	-1.745231e+002
656343.438	-6.205789e-002	-1.745758e+002
662593.375	-6.237060e-002	-1.746300e+002
668843.313	-6.266609e-002	-1.746827e+002
675093.250	-6.287327e-002	-1.747334e+002
681343.188	-6.235974e-002	-1.747820e+002
687593.125	-6.256715e-002	-1.748324e+002
693843.063	-6.279050e-002	-1.748803e+002
700093.000	-6.282876e-002	-1.749280e+002
706342.938	-6.328145e-002	-1.749754e+002
712592.875	-6.254297e-002	-1.750214e+002
718842.813	-6.295774e-002	-1.750661e+002
725092.750	-6.287315e-002	-1.751101e+002
731342.688	-6.388207e-002	-1.751426e+002
737592.625	-5.913310e-002	-1.750398e+002
743842.563	-5.886940e-002	-1.750847e+002
750092.500	-5.797770e-002	-1.751275e+002
756342.438	-5.774408e-002	-1.751710e+002
762592.375	-5.757108e-002	-1.752141e+002
768842.313	-5.734385e-002	-1.752559e+002
775092.250	-5.644253e-002	-1.752964e+002
781342.188	-5.446301e-002	-1.753230e+002
787592.125	-5.669663e-002	-1.753823e+002
793842.063	-5.684093e-002	-1.754219e+002
800092.000	-5.660569e-002	-1.754605e+002
806341.938	-5.665705e-002	-1.754987e+002
812591.875	-5.656485e-002	-1.755361e+002
818841.813	-5.593436e-002	-1.755727e+002
825091.750	-5.607610e-002	-1.756080e+002
831341.688	-5.609442e-002	-1.756439e+002
837591.625	-5.602961e-002	-1.756794e+002
843841.563	-5.612365e-002	-1.757148e+002
850091.500	-5.588290e-002	-1.757475e+002
856341.438	-5.589966e-002	-1.757804e+002
862591.375	-5.566683e-002	-1.758138e+002
868841.313	-5.580540e-002	-1.758464e+002
875091.250	-5.553070e-002	-1.758796e+002
881341.188	-5.506035e-002	-1.759097e+002
887591.125	-5.490860e-002	-1.759422e+002
893841.063	-5.490829e-002	-1.759730e+002
900091.000	-5.493737e-002	-1.760044e+002
906340.938	-5.706197e-002	-1.760422e+002
912590.875	-5.456359e-002	-1.760627e+002
918840.813	-5.471774e-002	-1.760921e+002
925090.750	-5.485584e-002	-1.761211e+002
931340.688	-5.485540e-002	-1.761502e+002
937590.625	-5.522336e-002	-1.761787e+002
943840.563	-5.528080e-002	-1.762073e+002
950090.500	-5.544846e-002	-1.762346e+002
956340.438	-5.523735e-002	-1.762622e+002
962590.375	-5.553057e-002	-1.762904e+002
968840.313	-5.545259e-002	-1.763171e+002
975090.250	-5.493106e-002	-1.763439e+002
981340.188	-5.503712e-002	-1.763691e+002
987590.125	-5.498540e-002	-1.763951e+002
993840.063	-5.531659e-002	-1.764193e+002
1000090.000	-5.544358e-002	-1.764447e+002
1006339.938	-5.561419e-002	-1.764702e+002
1012589.875	-5.607277e-002	-1.764935e+002
1018839.813	-5.609272e-002	-1.765182e+002
1025089.750	-5.630031e-002	-1.765411e+002
1031339.688	-5.649405e-002	-1.765636e+002
1037589.625	-5.658368e-002	-1.765871e+002
1043839.563	-5.615481e-002	-1.766127e+002
1050089.500	-5.639223e-002	-1.766354e+002
1056339.438	-5.643956e-002	-1.766574e+002
1062589.375	-5.686721e-002	-1.766792e+002
1068839.313	-5.601358e-002	-1.767011e+002
1075089.250	-5.624036e-002	-1.767221e+002
1081339.188	-5.646117e-002	-1.767433e+002
1087589.125	-5.661961e-002	-1.767646e+002
1093839.063	-5.670190e-002	-1.767844e+002
1100089.000	-5.683854e-002	-1.768051e+002
1106338.938	-5.701776e-002	-1.768260e+002
1112588.875	-5.717004e-002	-1.768460e+002
1118838.813	-5.656470e-002	-1.768667e+002
1125088.750	-5.669248e-002	-1.768862e+002
1131338.688	-5.705222e-002	-1.769058e+002
1137588.625	-5.720277e-002	-1.769248e+002
1143838.563	-5.851152e-002	-1.769372e+002
1150088.500	-5.872659e-002	-1.769566e+002
1156338.438	-5.909660e-002	-1.769743e+002
1162588.375	-5.854341e-002	-1.769937e+002
1168838.313	-5.868447e-002	-1.770121e+002
1175088.250	-5.887281e-002	-1.770291e+002
1181338.188	-5.912205e-002	-1.770466e+002
1187588.125	-5.931468e-002	-1.770635e+002
1193838.063	-5.972015e-002	-1.770805e+002
1200088.000	-5.929468e-002	-1.770976e+002
1206337.938	-5.948213e-002	-1.771146e+002
1212587.875	-5.968078e-002	-1.771296e+002
1218837.813	-5.994442e-002	-1.771466e+002
1225087.750	-6.026744e-002	-1.771626e+002
1231337.688	-6.039724e-002	-1.771790e+002
1237587.625	-6.006181e-002	-1.771941e+002
1243837.563	-6.018048e-002	-1.772090e+002
1250087.500	-5.957106e-002	-1.772376e+002
1256337.438	-5.999389e-002	-1.772529e+002
1262587.375	-6.015870e-002	-1.772689e+002
1268837.313	-5.961008e-002	-1.772827e+002
1275087.250	-5.985955e-002	-1.772985e+002
1281337.188	-6.006682e-002	-1.773134e+002
1287587.125	-6.024515e-002	-1.773277e+002
1293837.063	-6.039739e-002	-1.773430e+002
1300087.000	-6.070624e-002	-1.773578e+002
1306336.938	-6.016073e-002	-1.773720e+002
1312586.875	-6.037748e-002	-1.773859e+002
1318836.813	-6.048468e-002	-1.773996e+002
1325086.750	-6.076983e-002	-1.774127e+002
1331336.688	-6.098232e-002	-1.774263e+002
1337586.625	-6.130116e-002	-1.774401e+002
1343836.563	-6.074363e-002	-1.774542e+002
1350086.500	-6.097431e-002	-1.774665e+002
1356336.438	-6.133549e-002	-1.774797e+002
1362586.375	-6.143806e-002	-1.774930e+002
1368836.313	-6.174400e-002	-1.775057e+002
1375086.250	-6.179442e-002	-1.775189e+002
1381336.188	-6.139764e-002	-1.775304e+002
1387586.125	-6.170081e-002	-1.775420e+002
1393836.063	-6.172039e-002	-1.775547e+002
1400086.000	-6.220109e-002	-1.775664e+002
1406335.938	-6.220205e-002	-1.775787e+002
1412585.875	-6.189099e-002	-1.775890e+002
1418835.813	-6.203830e-002	-1.776002e+002
1425085.750	-6.221012e-002	-1.776130e+002
1431335.688	-6.262542e-002	-1.776243e+002
1437585.625	-6.261652e-002	-1.776349e+002
1443835.563	-6.272018e-002	-1.776478e+002
1450085.500	-6.224163e-002	-1.776562e+002
1456335.438	-6.248853e-002	-1.776684e+002
1462585.375	-6.281012e-002	-1.776780e+002
1468835.313	-6.246456e-002	-1.776677e+002
1475085.250	-6.266864e-002	-1.776801e+002
1481335.188	-6.274547e-002	-1.776917e+002
1487585.125	-6.280390e-002	-1.777037e+002
1493835.063	-6.233400e-002	-1.777155e+002
1500085.000	-6.250554e-002	-1.777265e+002
1506334.938	-6.250898e-002	-1.777389e+002
1512584.875	-6.264859e-002	-1.777505e+002
1518834.813	-6.276868e-002	-1.777623e+002
1525084.750	-6.279021e-002	-1.777745e+002
1531334.688	-6.276130e-002	-1.777849e+002
1537584.625	-6.286496e-002	-1.777974e+002
1543834.563	-6.234303e-002	-1.778076e+002
1550084.500	-6.239390e-002	-1.778205e+002
1556334.438	-6.231946e-002	-1.778321e+002
1562584.375	-6.331039e-002	-1.778413e+002
1568834.313	-6.350589e-002	-1.778503e+002
1575084.250	-6.365320e-002	-1.778600e+002
1581334.188	-6.370063e-002	-1.778705e+002
1587584.125	-6.313308e-002	-1.778799e+002
1593834.063	-6.310853e-002	-1.778902e+002
1600084.000	-6.329475e-002	-1.779007e+002
1606333.938	-6.342830e-002	-1.779102e+002
1612583.875	-6.345008e-002	-1.779215e+002
1618833.813	-6.342502e-002	-1.779303e+002
1625083.750	-6.358376e-002	-1.779416e+002
1631333.688	-6.364659e-002	-1.779521e+002
1637583.625	-6.292140e-002	-1.779617e+002
1643833.563	-6.305130e-002	-1.779719e+002
1650083.500	-6.300652e-002	-1.779811e+002
1656333.438	-6.329240e-002	-1.779925e+002
1662583.375	-6.306049e-002	-1.780031e+002
1668833.313	-6.298878e-002	-1.780126e+002
1675083.250	-6.324536e-002	-1.780235e+002
1681333.188	-6.331817e-002	-1.780338e+002
1687583.125	-6.274086e-002	-1.780444e+002
1693833.063	-6.287603e-002	-1.780540e+002
1700083.000	-6.299738e-002	-1.780633e+002
1706332.938	-6.294232e-002	-1.780739e+002
1712582.875	-6.192059e-002	-1.780960e+002
1718832.813	-6.206073e-002	-1.781071e+002
1725082.750	-6.216023e-002	-1.781160e+002
1731332.688	-6.221080e-002	-1.781244e+002
1737582.625	-6.189770e-002	-1.781331e+002
1743832.563	-6.193291e-002	-1.781425e+002
1750082.500	-6.195176e-002	-1.781525e+002
1756332.438	-6.206717e-002	-1.781609e+002
1762582.375	-6.212303e-002	-1.781697e+002
1768832.313	-6.261693e-002	-1.781784e+002
1775082.250	-6.188857e-002	-1.781873e+002
1781332.188	-6.178901e-002	-1.781954e+002
1787582.125	-6.217970e-002	-1.782041e+002
1793832.063	-6.214480e-002	-1.782132e+002
1800082.000	-6.223916e-002	-1.782208e+002
1806331.938	-6.231755e-002	-1.782297e+002
1812581.875	-6.241158e-002	-1.782385e+002
1818831.813	-6.211504e-002	-1.782455e+002
1825081.750	-6.206913e-002	-1.782545e+002
1831331.688	-6.230158e-002	-1.782629e+002
1837581.625	-6.242280e-002	-1.782709e+002
1843831.563	-6.253040e-002	-1.782785e+002
1850081.500	-6.258435e-002	-1.782870e+002
1856331.438	-6.190342e-002	-1.782953e+002
1862581.375	-6.203587e-002	-1.783029e+002
1868831.313	-6.222983e-002	-1.783106e+002
1875081.250	-6.215426e-002	-1.783149e+002
1881331.188	-6.230474e-002	-1.783223e+002
1887581.125	-6.240453e-002	-1.783316e+002
1893831.063	-6.242787e-002	-1.783382e+002
1900081.000	-6.181480e-002	-1.783465e+002
1906330.938	-6.207526e-002	-1.783550e+002
1912580.875	-6.199090e-002	-1.783616e+002
1918830.813	-6.216501e-002	-1.783698e+002
1925080.750	-6.228501e-002	-1.783769e+002
1931330.688	-6.252849e-002	-1.783847e+002
1937580.625	-6.238631e-002	-1.783931e+002
1943830.563	-6.246213e-002	-1.784000e+002
1950080.500	-6.203353e-002	-1.784054e+002
1956330.438	-6.207567e-002	-1.784133e+002
1962580.375	-6.217607e-002	-1.784201e+002
1968830.313	-6.234629e-002	-1.784273e+002
1975080.250	-6.157319e-002	-1.784329e+002
1981330.188	-6.185454e-002	-1.784405e+002
1987580.125	-6.193661e-002	-1.784486e+002
1993830.063	-6.133819e-002	-1.784546e+002
2000080.000	-6.148621e-002	-1.784597e+002
2006329.938	-6.130346e-002	-1.784670e+002
2012579.875	-6.161996e-002	-1.784738e+002
2018829.813	-6.171513e-002	-1.784814e+002
2025079.750	-6.173176e-002	-1.784870e+002
2031329.688	-6.118040e-002	-1.784944e+002
2037579.625	-6.139233e-002	-1.784996e+002
2043829.563	-6.162824e-002	-1.785060e+002
2050079.500	-6.165264e-002	-1.785130e+002
2056329.438	-6.148389e-002	-1.785197e+002
2062579.375	-6.181711e-002	-1.785260e+002
2068829.313	-6.099866e-002	-1.785313e+002
2075079.250	-6.116497e-002	-1.785394e+002
2081329.188	-6.150963e-002	-1.785449e+002
2087579.125	-6.109691e-002	-1.785533e+002
2093829.063	-6.121923e-002	-1.785585e+002
2100079.000	-6.130403e-002	-1.785647e+002
2106328.938	-6.086100e-002	-1.785713e+002
2112578.875	-6.088714e-002	-1.785769e+002
2118828.813	-6.108318e-002	-1.785837e+002
2125078.750	-6.111011e-002	-1.785892e+002
2131328.688	-6.117510e-002	-1.785946e+002
2137578.625	-6.127059e-002	-1.786005e+002
2143828.563	-6.134123e-002	-1.786067e+002
2150078.500	-6.057393e-002	-1.786133e+002
2156328.438	-6.069900e-002	-1.786196e+002
2162578.375	-6.073536e-002	-1.786242e+002
2168828.313	-6.087738e-002	-1.786316e+002
2175078.250	-6.105819e-002	-1.786370e+002
2181328.188	-6.101773e-002	-1.786426e+002
2187578.125	-6.047519e-002	-1.786485e+002
2193828.063	-6.052753e-002	-1.786549e+002
2200078.000	-6.058030e-002	-1.786600e+002
2206327.938	-6.086608e-002	-1.786650e+002
2212577.875	-6.113529e-002	-1.786692e+002
2218827.813	-6.163835e-002	-1.786737e+002
2225077.750	-6.155874e-002	-1.786809e+002
2231327.688	-6.106535e-002	-1.786858e+002
2237577.625	-6.122928e-002	-1.786915e+002
2243827.563	-6.123410e-002	-1.786955e+002
2250077.500	-6.149269e-002	-1.787002e+002
2256327.438	-6.131497e-002	-1.787064e+002
2262577.375	-6.073105e-002	-1.787116e+002
2268827.313	-6.078973e-002	-1.787166e+002
2275077.250	-6.097565e-002	-1.787232e+002
2281327.188	-6.091842e-002	-1.787271e+002
2287577.125	-6.112027e-002	-1.787331e+002
2293827.063	-6.060303e-002	-1.787382e+002
2300077.000	-6.046694e-002	-1.787434e+002
2306326.938	-6.064025e-002	-1.787498e+002
2312576.875	-6.057641e-002	-1.787537e+002
2318826.813	-6.070411e-002	-1.787585e+002
2325076.750	-6.088455e-002	-1.787637e+002
2331326.688	-6.003826e-002	-1.787682e+002
2337576.625	-6.005732e-002	-1.787734e+002
2343826.563	-5.945714e-002	-1.787808e+002
2350076.500	-6.041395e-002	-1.787864e+002
2356326.438	-6.061200e-002	-1.787922e+002
2362576.375	-6.062057e-002	-1.787968e+002
2368826.313	-6.022962e-002	-1.788024e+002
2375076.250	-6.015151e-002	-1.788065e+002
2381326.188	-6.029792e-002	-1.788109e+002
2387576.125	-6.025854e-002	-1.788159e+002
2393826.063	-6.052587e-002	-1.788214e+002
2400076.000	-6.044523e-002	-1.788262e+002
2406325.938	-6.047178e-002	-1.788304e+002
2412575.875	-5.986740e-002	-1.788362e+002
2418825.813	-5.975005e-002	-1.788408e+002
2425075.750	-5.990478e-002	-1.788451e+002
2431325.688	-5.994316e-002	-1.788505e+002
2437575.625	-5.990137e-002	-1.788551e+002
2443825.563	-6.008139e-002	-1.788587e+002
2450075.500	-5.943471e-002	-1.788644e+002
2456325.438	-5.938138e-002	-1.788685e+002
2462575.375	-5.955609e-002	-1.788737e+002
2468825.313	-5.967807e-002	-1.788777e+002
2475075.250	-5.896281e-002	-1.788790e+002
2481325.188	-5.894864e-002	-1.788843e+002
2487575.125	-5.904175e-002	-1.788883e+002
2493825.063	-5.902431e-002	-1.788935e+002
2500075.000	-5.891961e-002	-1.788974e+002
2506324.938	-5.916955e-002	-1.789023e+002
2512574.875	-5.915325e-002	-1.789060e+002
2518824.813	-5.914466e-002	-1.789104e+002
2525074.750	-5.924461e-002	-1.789153e+002
2531324.688	-5.904947e-002	-1.789232e+002
2537574.625	-5.906185e-002	-1.789272e+002
2543824.563	-5.886379e-002	-1.789312e+002
2550074.500	-5.929720e-002	-1.789360e+002
2556324.438	-5.924722e-002	-1.789408e+002
2562574.375	-5.876065e-002	-1.789458e+002
2568824.313	-5.870257e-002	-1.789492e+002
2575074.250	-5.880875e-002	-1.789534e+002
2581324.188	-5.872793e-002	-1.789578e+002
2587574.125	-5.897368e-002	-1.789626e+002
2593824.063	-5.893338e-002	-1.789669e+002
2600074.000	-5.902935e-002	-1.789710e+002
2606323.938	-5.909833e-002	-1.789740e+002
2612573.875	-5.838035e-002	-1.789793e+002
2618823.813	-5.849350e-002	-1.789832e+002
2625073.750	-5.851412e-002	-1.789889e+002
2631323.688	-5.849978e-002	-1.789922e+002
2637573.625	-5.857003e-002	-1.789966e+002
2643823.563	-5.856115e-002	-1.790002e+002
2650073.500	-5.850357e-002	-1.790040e+002
2656323.438	-5.852529e-002	-1.790084e+002
2662573.375	-5.851117e-002	-1.790123e+002
2668823.313	-5.779476e-002	-1.790163e+002
2675073.250	-5.798546e-002	-1.790198e+002
2681323.188	-5.798162e-002	-1.790229e+002
2687573.125	-5.792114e-002	-1.790280e+002
2693823.063	-5.798851e-002	-1.790327e+002
2700073.000	-5.792080e-002	-1.790362e+002
2706322.938	-5.784147e-002	-1.790403e+002
2712572.875	-5.781296e-002	-1.790431e+002
2718822.813	-5.781143e-002	-1.790481e+002
2725072.750	-5.734655e-002	-1.790513e+002
2731322.688	-5.735001e-002	-1.790560e+002
2737572.625	-5.723852e-002	-1.790592e+002
2743822.563	-5.744521e-002	-1.790642e+002
2750072.500	-5.738392e-002	-1.790669e+002
2756322.438	-5.733476e-002	-1.790717e+002
2762572.375	-5.730667e-002	-1.790754e+002
2768822.313	-5.740060e-002	-1.790795e+002
2775072.250	-5.735950e-002	-1.790825e+002
2781322.188	-5.659455e-002	-1.790861e+002
2787572.125	-5.665832e-002	-1.790908e+002
2793822.063	-5.675404e-002	-1.790939e+002
2800072.000	-5.669021e-002	-1.790978e+002
2806321.938	-5.668675e-002	-1.791018e+002
2812571.875	-5.642856e-002	-1.791047e+002
2818821.813	-5.661812e-002	-1.791097e+002
2825071.750	-5.663115e-002	-1.791128e+002
2831321.688	-5.649879e-002	-1.791162e+002
2837571.625	-5.602826e-002	-1.791200e+002
2843821.563	-5.594943e-002	-1.791229e+002
2850071.500	-5.602713e-002	-1.791272e+002
2856321.438	-5.581415e-002	-1.791302e+002
2862571.375	-5.463114e-002	-1.791309e+002
2868821.313	-5.379870e-002	-1.791341e+002
2875071.250	-5.298647e-002	-1.791371e+002
2881321.188	-5.276461e-002	-1.791408e+002
2887571.125	-5.257558e-002	-1.791455e+002
2893821.063	-5.183768e-002	-1.791490e+002
2900071.000	-5.176434e-002	-1.791521e+002
2906320.938	-5.183339e-002	-1.791555e+002
2912570.875	-5.180321e-002	-1.791590e+002
2918820.813	-5.190643e-002	-1.791626e+002
2925070.750	-5.182112e-002	-1.791664e+002
2931320.688	-5.200803e-002	-1.791688e+002
2937570.625	-5.200656e-002	-1.791720e+002
2943820.563	-5.184504e-002	-1.791764e+002
2950070.500	-5.191443e-002	-1.791794e+002
2956320.438	-5.180840e-002	-1.791843e+002
2962570.375	-5.116602e-002	-1.791872e+002
2968820.313	-5.132794e-002	-1.791911e+002
2975070.250	-5.135886e-002	-1.791941e+002
