!Keysight Technologies,E5061B,MY49912438,B.06.30
!Date: Thu Nov 06 18:51:16 2025
!Data & Calibration Information:
!Freq	S11:SOLT1(ON)
# Hz S RI R 50
5.000	-9.957585e-001	-8.457598e-004
6254.997	-9.880920e-001	2.138047e-002
12504.994	-9.872897e-001	4.367079e-002
18754.991	-9.855654e-001	6.585891e-002
25004.987	-9.833648e-001	8.791777e-002
31254.984	-9.807087e-001	1.098859e-001
37504.981	-9.776402e-001	1.317051e-001
43754.978	-9.741954e-001	1.533917e-001
50004.975	-9.704508e-001	1.750261e-001
56254.972	-9.661905e-001	1.964902e-001
62504.969	-9.615013e-001	2.177956e-001
68754.966	-9.563888e-001	2.389764e-001
75004.962	-9.509091e-001	2.600481e-001
81254.959	-9.449506e-001	2.808699e-001
87504.956	-9.385764e-001	3.015688e-001
93754.953	-9.318901e-001	3.225849e-001
100004.950	-9.246635e-001	3.428468e-001
106254.947	-9.170500e-001	3.629540e-001
112504.944	-9.089570e-001	3.827115e-001
118754.941	-9.005084e-001	4.022727e-001
125004.938	-8.917028e-001	4.215766e-001
131254.934	-8.825099e-001	4.405817e-001
137504.931	-8.729510e-001	4.593835e-001
143754.928	-8.630073e-001	4.777603e-001
150004.925	-8.527741e-001	4.958977e-001
156254.922	-8.421689e-001	5.136867e-001
162504.919	-8.312763e-001	5.311475e-001
168754.916	-8.200643e-001	5.484043e-001
175004.913	-8.086064e-001	5.651309e-001
181254.909	-7.968478e-001	5.816343e-001
187504.906	-7.848128e-001	5.976623e-001
193754.903	-7.725483e-001	6.134116e-001
200004.900	-7.600652e-001	6.288062e-001
206254.897	-7.473623e-001	6.437920e-001
212504.894	-7.344519e-001	6.584506e-001
218754.891	-7.213177e-001	6.728281e-001
225004.887	-7.080503e-001	6.866806e-001
231254.884	-6.945715e-001	7.003082e-001
237504.881	-6.810295e-001	7.134421e-001
243754.878	-6.672482e-001	7.263243e-001
250004.875	-6.533586e-001	7.388188e-001
256254.872	-6.393486e-001	7.509366e-001
262504.869	-6.253182e-001	7.625826e-001
268754.866	-6.111382e-001	7.739815e-001
275004.862	-5.968567e-001	7.849821e-001
281254.859	-5.824340e-001	7.957481e-001
287504.856	-5.680161e-001	8.060564e-001
293754.853	-5.534517e-001	8.160892e-001
300004.850	-5.388519e-001	8.257981e-001
306254.847	-5.243454e-001	8.350331e-001
312504.844	-5.098037e-001	8.439623e-001
318754.841	-4.951184e-001	8.525863e-001
325004.837	-4.805877e-001	8.608343e-001
331254.834	-4.660419e-001	8.687281e-001
337504.831	-4.515115e-001	8.763289e-001
343754.828	-4.368714e-001	8.837044e-001
350004.825	-4.223896e-001	8.906300e-001
356254.822	-4.079541e-001	8.972916e-001
362504.819	-3.935369e-001	9.036694e-001
368754.816	-3.790186e-001	9.098011e-001
375004.813	-3.647122e-001	9.155899e-001
381254.809	-3.505072e-001	9.211328e-001
387504.806	-3.363257e-001	9.263572e-001
393754.803	-3.220965e-001	9.313444e-001
400004.800	-3.080699e-001	9.360505e-001
406254.797	-2.941321e-001	9.404904e-001
412504.794	-2.801289e-001	9.447019e-001
418754.791	-2.663554e-001	9.486295e-001
425004.787	-2.526621e-001	9.523410e-001
431254.784	-2.389318e-001	9.558075e-001
437504.781	-2.254477e-001	9.590526e-001
443754.778	-2.120828e-001	9.620933e-001
450004.775	-1.985892e-001	9.648894e-001
456254.772	-1.854651e-001	9.674955e-001
462504.769	-1.723963e-001	9.698783e-001
468754.766	-1.594328e-001	9.720621e-001
475004.763	-1.464543e-001	9.740500e-001
481254.759	-1.337486e-001	9.758633e-001
487504.756	-1.211261e-001	9.774506e-001
493754.753	-1.086596e-001	9.789047e-001
500004.750	-9.614105e-002	9.801679e-001
506254.747	-8.393018e-002	9.812845e-001
512504.744	-7.163143e-002	9.822058e-001
518754.741	-5.966216e-002	9.829800e-001
525004.737	-4.771629e-002	9.836163e-001
531254.734	-3.581724e-002	9.840634e-001
537504.731	-2.419710e-002	9.844222e-001
543754.728	-1.271381e-002	9.846336e-001
550004.725	-1.321554e-003	9.846962e-001
556254.722	9.890573e-003	9.846407e-001
562504.719	2.105261e-002	9.844778e-001
568754.716	3.205234e-002	9.841484e-001
575004.713	4.311202e-002	9.836563e-001
581254.709	5.400622e-002	9.830661e-001
587504.706	6.462178e-002	9.824271e-001
593754.703	7.510868e-002	9.816804e-001
600004.700	8.549498e-002	9.808284e-001
606254.697	9.572934e-002	9.798689e-001
612504.694	1.060166e-001	9.787563e-001
618754.691	1.160468e-001	9.776096e-001
625004.688	1.259948e-001	9.763718e-001
631254.684	1.357374e-001	9.750697e-001
637504.681	1.453901e-001	9.736761e-001
643754.678	1.550820e-001	9.721191e-001
650004.675	1.644973e-001	9.705617e-001
656254.672	1.737818e-001	9.689655e-001
662504.669	1.829750e-001	9.672717e-001
668754.666	1.920515e-001	9.655193e-001
675004.662	2.009881e-001	9.636908e-001
681254.659	2.099663e-001	9.616976e-001
687504.656	2.186996e-001	9.597615e-001
693754.653	2.273002e-001	9.577712e-001
700004.650	2.358248e-001	9.557099e-001
706254.647	2.442076e-001	9.536102e-001
712504.644	2.526507e-001	9.513283e-001
718754.641	2.608169e-001	9.491258e-001
725004.637	2.689187e-001	9.468846e-001
731254.634	2.768830e-001	9.445879e-001
737504.631	2.838138e-001	9.448083e-001
743754.628	2.916666e-001	9.424018e-001
750004.625	2.995404e-001	9.398267e-001
756254.622	3.071792e-001	9.373160e-001
762504.619	3.147077e-001	9.347991e-001
768754.616	3.221761e-001	9.322097e-001
775004.612	3.296457e-001	9.294947e-001
781254.609	3.369122e-001	9.268695e-001
787504.606	3.439614e-001	9.242284e-001
793754.603	3.510013e-001	9.215526e-001
800004.600	3.579771e-001	9.188632e-001
806254.597	3.648361e-001	9.161332e-001
812504.594	3.716146e-001	9.133977e-001
818754.591	3.783932e-001	9.104317e-001
825004.588	3.850068e-001	9.076571e-001
831254.584	3.914806e-001	9.048622e-001
837504.581	3.979097e-001	9.020180e-001
843754.578	4.042262e-001	8.991489e-001
850004.575	4.104941e-001	8.963063e-001
856254.572	4.166594e-001	8.934405e-001
862504.569	4.227594e-001	8.905581e-001
868754.566	4.287812e-001	8.876723e-001
875004.563	4.346880e-001	8.847534e-001
881254.559	4.406316e-001	8.817152e-001
887504.556	4.464168e-001	8.787747e-001
893754.553	4.521298e-001	8.758444e-001
900004.550	4.577246e-001	8.728969e-001
906254.547	4.633043e-001	8.699382e-001
912504.544	4.688089e-001	8.669530e-001
918754.541	4.742165e-001	8.640032e-001
925004.537	4.795188e-001	8.610471e-001
931254.534	4.847880e-001	8.580777e-001
937504.531	4.899648e-001	8.551139e-001
943754.528	4.950881e-001	8.521276e-001
950004.525	5.001378e-001	8.491605e-001
956254.522	5.051498e-001	8.461697e-001
962504.519	5.100661e-001	8.432122e-001
968754.516	5.149655e-001	8.402419e-001
975004.512	5.198037e-001	8.370977e-001
981254.509	5.245142e-001	8.341250e-001
987504.506	5.292212e-001	8.311368e-001
993754.503	5.338502e-001	8.281807e-001
1000004.500	5.383902e-001	8.252235e-001
1006254.497	5.428682e-001	8.222363e-001
1012504.494	5.473046e-001	8.192951e-001
1018754.491	5.516965e-001	8.163321e-001
1025004.487	5.560441e-001	8.133837e-001
1031254.484	5.603076e-001	8.104470e-001
1037504.481	5.645267e-001	8.075127e-001
1043754.478	5.687129e-001	8.044606e-001
1050004.475	5.728228e-001	8.015634e-001
1056254.472	5.769059e-001	7.986339e-001
1062504.469	5.809026e-001	7.957288e-001
1068754.466	5.848930e-001	7.926371e-001
1075004.462	5.888116e-001	7.897550e-001
1081254.459	5.926880e-001	7.868657e-001
1087504.456	5.964965e-001	7.839647e-001
1093754.453	6.002744e-001	7.810995e-001
1100004.450	6.039971e-001	7.782260e-001
1106254.447	6.076710e-001	7.753503e-001
1112504.444	6.113063e-001	7.725008e-001
1118754.441	6.149013e-001	7.694731e-001
1125004.438	6.184505e-001	7.666397e-001
1131254.434	6.219368e-001	7.637941e-001
1137504.431	6.254011e-001	7.609879e-001
1143754.428	6.287825e-001	7.583810e-001
1150004.425	6.321599e-001	7.555942e-001
1156254.422	6.355011e-001	7.528127e-001
1162504.419	6.387770e-001	7.498509e-001
1168754.416	6.420170e-001	7.470809e-001
1175004.412	6.452589e-001	7.443206e-001
1181254.409	6.484335e-001	7.415772e-001
1187504.406	6.515749e-001	7.388345e-001
1193754.403	6.546830e-001	7.361035e-001
1200004.400	6.577290e-001	7.331851e-001
1206254.397	6.607704e-001	7.304783e-001
1212504.394	6.637666e-001	7.277846e-001
1218754.391	6.667352e-001	7.250937e-001
1225004.388	6.696470e-001	7.224188e-001
1231254.384	6.725412e-001	7.197393e-001
1237504.381	6.753961e-001	7.169245e-001
1243754.378	6.782143e-001	7.142825e-001
1250004.375	6.810298e-001	7.116018e-001
1256254.372	6.838022e-001	7.090033e-001
1262504.369	6.865392e-001	7.063596e-001
1268754.366	6.892343e-001	7.036012e-001
1275004.363	6.918810e-001	7.010079e-001
1281254.359	6.944971e-001	6.984316e-001
1287504.356	6.971134e-001	6.958563e-001
1293754.353	6.996797e-001	6.932665e-001
1300004.350	7.022312e-001	6.907307e-001
1306254.347	7.047313e-001	6.880033e-001
1312504.344	7.072324e-001	6.855007e-001
1318754.341	7.096955e-001	6.829521e-001
1325004.337	7.121120e-001	6.804562e-001
1331254.334	7.145470e-001	6.779462e-001
1337504.331	7.169019e-001	6.754715e-001
1343754.328	7.192432e-001	6.728043e-001
1350004.325	7.215686e-001	6.703468e-001
1356254.322	7.238635e-001	6.678954e-001
1362504.319	7.261487e-001	6.654422e-001
1368754.316	7.284042e-001	6.629932e-001
1375004.313	7.306306e-001	6.605713e-001
1381254.309	7.327849e-001	6.579993e-001
1387504.306	7.349805e-001	6.556068e-001
1393754.303	7.371583e-001	6.532039e-001
1400004.300	7.392696e-001	6.508325e-001
1406254.297	7.413767e-001	6.484533e-001
1412504.294	7.434350e-001	6.459289e-001
1418754.291	7.455213e-001	6.435909e-001
1425004.287	7.475508e-001	6.412571e-001
1431254.284	7.495781e-001	6.389357e-001
1437504.281	7.515830e-001	6.366072e-001
1443754.278	7.535438e-001	6.343047e-001
1450004.275	7.554510e-001	6.318368e-001
1456254.272	7.573968e-001	6.295577e-001
1462504.269	7.593162e-001	6.272740e-001
1468754.266	7.613138e-001	6.251185e-001
1475004.263	7.631828e-001	6.228823e-001
1481254.259	7.650508e-001	6.206125e-001
1487504.256	7.668968e-001	6.183697e-001
1493754.253	7.686668e-001	6.159794e-001
1500004.250	7.704652e-001	6.137550e-001
1506254.247	7.722521e-001	6.115380e-001
1512504.244	7.740026e-001	6.093261e-001
1518754.241	7.757407e-001	6.071434e-001
1525004.238	7.774978e-001	6.049481e-001
1531254.234	7.791985e-001	6.027755e-001
1537504.231	7.808875e-001	6.006117e-001
1543754.228	7.825187e-001	5.982744e-001
1550004.225	7.841650e-001	5.961223e-001
1556254.222	7.857996e-001	5.939913e-001
1562504.219	7.873422e-001	5.918434e-001
1568754.216	7.889735e-001	5.897591e-001
1575004.212	7.905801e-001	5.876664e-001
1581254.209	7.921636e-001	5.855838e-001
1587504.206	7.936710e-001	5.833506e-001
1593754.203	7.952247e-001	5.812813e-001
1600004.200	7.967492e-001	5.792177e-001
1606254.197	7.982563e-001	5.771584e-001
1612504.194	7.997687e-001	5.751231e-001
1618754.191	8.012634e-001	5.730796e-001
1625004.188	8.027353e-001	5.710595e-001
1631254.184	8.041974e-001	5.690456e-001
1637504.181	8.055619e-001	5.668369e-001
1643754.178	8.069883e-001	5.648361e-001
1650004.175	8.084178e-001	5.628402e-001
1656254.172	8.098007e-001	5.608775e-001
1662504.169	8.111991e-001	5.588929e-001
1668754.166	8.125670e-001	5.569169e-001
1675004.162	8.139319e-001	5.549609e-001
1681254.159	8.152984e-001	5.530139e-001
1687504.156	8.165382e-001	5.509215e-001
1693754.153	8.178691e-001	5.489797e-001
1700004.150	8.191667e-001	5.470623e-001
1706254.147	8.204674e-001	5.451377e-001
1712504.144	8.215911e-001	5.429480e-001
1718754.141	8.228692e-001	5.410678e-001
1725004.138	8.241252e-001	5.391678e-001
1731254.134	8.253825e-001	5.373076e-001
1737504.131	8.265479e-001	5.352889e-001
1743754.128	8.277612e-001	5.334206e-001
1750004.125	8.289840e-001	5.315685e-001
1756254.122	8.301919e-001	5.297356e-001
1762504.119	8.313918e-001	5.278845e-001
1768754.116	8.325381e-001	5.260695e-001
1775004.113	8.336328e-001	5.241149e-001
1781254.109	8.348010e-001	5.223012e-001
1787504.106	8.359368e-001	5.204983e-001
1793754.103	8.370891e-001	5.187019e-001
1800004.100	8.382186e-001	5.169256e-001
1806254.097	8.393272e-001	5.151332e-001
1812504.094	8.404284e-001	5.133770e-001
1818754.091	8.414576e-001	5.114871e-001
1825004.087	8.425325e-001	5.097091e-001
1831254.084	8.436256e-001	5.079863e-001
1837504.081	8.446795e-001	5.062546e-001
1843754.078	8.457485e-001	5.045168e-001
1850004.075	8.467785e-001	5.027891e-001
1856254.072	8.477351e-001	5.009220e-001
1862504.069	8.487723e-001	4.992206e-001
1868754.066	8.497893e-001	4.975158e-001
1875004.063	8.507950e-001	4.958010e-001
1881254.059	8.517895e-001	4.941229e-001
1887504.056	8.527803e-001	4.924415e-001
1893754.053	8.537742e-001	4.907694e-001
1900004.050	8.546622e-001	4.889577e-001
1906254.047	8.556300e-001	4.873002e-001
1912504.044	8.566161e-001	4.856468e-001
1918754.041	8.575502e-001	4.840109e-001
1925004.037	8.584927e-001	4.823793e-001
1931254.034	8.594291e-001	4.807663e-001
1937504.031	8.603519e-001	4.791329e-001
1943754.028	8.612835e-001	4.775289e-001
1950004.025	8.620941e-001	4.757844e-001
1956254.022	8.629902e-001	4.741767e-001
1962504.019	8.639002e-001	4.725861e-001
1968754.016	8.647810e-001	4.710127e-001
1975004.013	8.655173e-001	4.692293e-001
1981254.009	8.664066e-001	4.676975e-001
1987504.006	8.672832e-001	4.661294e-001
1993754.003	8.680397e-001	4.644215e-001
2000004.000	8.688890e-001	4.628843e-001
2006253.997	8.697328e-001	4.613397e-001
2012503.994	8.705728e-001	4.597987e-001
2018753.991	8.714045e-001	4.582796e-001
2025003.988	8.722481e-001	4.567470e-001
2031253.984	8.729459e-001	4.550839e-001
2037503.981	8.737735e-001	4.535780e-001
2043753.978	8.745811e-001	4.520819e-001
2050003.975	8.753590e-001	4.505860e-001
2056253.972	8.761804e-001	4.490843e-001
2062503.969	8.769607e-001	4.475993e-001
2068753.966	8.776201e-001	4.459714e-001
2075003.962	8.783894e-001	4.444807e-001
2081253.959	8.791633e-001	4.430455e-001
2087503.956	8.798776e-001	4.415059e-001
2093753.953	8.806443e-001	4.400611e-001
2100003.950	8.813891e-001	4.385953e-001
2106253.947	8.820313e-001	4.370446e-001
2112503.944	8.827733e-001	4.356040e-001
2118753.941	8.834904e-001	4.341720e-001
2125003.938	8.842155e-001	4.327401e-001
2131253.934	8.849386e-001	4.313245e-001
2137503.931	8.856401e-001	4.299092e-001
2143753.928	8.863526e-001	4.285011e-001
2150003.925	8.869307e-001	4.269646e-001
2156253.922	8.876136e-001	4.255622e-001
2162503.919	8.883171e-001	4.241711e-001
2168753.916	8.890046e-001	4.227835e-001
2175003.913	8.896659e-001	4.213810e-001
2181253.909	8.903507e-001	4.200156e-001
2187503.906	8.908919e-001	4.185231e-001
2193753.903	8.915605e-001	4.171411e-001
2200003.900	8.922298e-001	4.157878e-001
2206253.897	8.928910e-001	4.144281e-001
2212503.894	8.936000e-001	4.131779e-001
2218753.891	8.942548e-001	4.118501e-001
2225003.887	8.948842e-001	4.105106e-001
2231253.884	8.953974e-001	4.090546e-001
2237503.881	8.960326e-001	4.077245e-001
2243753.878	8.966614e-001	4.063953e-001
2250003.875	8.972886e-001	4.050937e-001
2256253.872	8.978896e-001	4.037788e-001
2262503.869	8.983721e-001	4.023320e-001
2268753.866	8.989923e-001	4.010148e-001
2275003.862	8.995890e-001	3.997276e-001
2281253.859	9.001961e-001	3.984214e-001
2287503.856	9.007804e-001	3.971399e-001
2293753.853	9.012399e-001	3.957468e-001
2300003.850	9.018215e-001	3.944430e-001
2306253.847	9.023860e-001	3.931745e-001
2312503.844	9.029681e-001	3.919019e-001
2318753.841	9.035452e-001	3.906337e-001
2325003.837	9.041110e-001	3.893743e-001
2331253.834	9.045345e-001	3.880026e-001
2337503.831	9.050902e-001	3.867556e-001
2343753.828	9.056383e-001	3.854960e-001
2350003.825	9.062606e-001	3.843242e-001
2356253.822	9.068065e-001	3.830858e-001
2362503.819	9.073511e-001	3.818590e-001
2368753.816	9.077641e-001	3.805177e-001
2375003.813	9.083031e-001	3.792995e-001
2381253.809	9.088260e-001	3.780782e-001
2387503.806	9.093649e-001	3.768306e-001
2393753.803	9.098772e-001	3.756252e-001
2400003.800	9.103814e-001	3.744130e-001
2406253.797	9.108961e-001	3.732122e-001
2412503.794	9.112927e-001	3.718938e-001
2418753.791	9.117825e-001	3.707076e-001
2425003.788	9.122815e-001	3.695104e-001
2431253.784	9.127850e-001	3.683461e-001
2437503.781	9.132693e-001	3.671518e-001
2443753.778	9.137595e-001	3.659620e-001
2450003.775	9.141179e-001	3.646837e-001
2456253.772	9.145985e-001	3.635095e-001
2462503.769	9.150877e-001	3.623470e-001
2468753.766	9.155543e-001	3.611774e-001
2475003.762	9.158608e-001	3.599012e-001
2481253.759	9.163425e-001	3.587592e-001
2487503.756	9.168139e-001	3.576238e-001
2493753.753	9.172794e-001	3.564768e-001
2500003.750	9.177497e-001	3.553250e-001
2506253.747	9.181766e-001	3.541857e-001
2512503.744	9.186318e-001	3.530688e-001
2518753.741	9.190787e-001	3.519252e-001
2525003.737	9.195238e-001	3.508056e-001
2531253.734	9.199158e-001	3.496251e-001
2537503.731	9.203630e-001	3.485345e-001
2543753.728	9.208115e-001	3.474221e-001
2550003.725	9.212375e-001	3.463234e-001
2556253.722	9.216781e-001	3.452179e-001
2562503.719	9.219460e-001	3.440112e-001
2568753.716	9.223816e-001	3.429070e-001
2575003.712	9.228180e-001	3.418336e-001
2581253.709	9.232239e-001	3.407264e-001
2587503.706	9.236406e-001	3.396361e-001
2593753.703	9.240437e-001	3.385455e-001
2600003.700	9.244478e-001	3.374704e-001
2606253.697	9.248651e-001	3.364016e-001
2612503.694	9.251533e-001	3.352194e-001
2618753.691	9.255648e-001	3.341684e-001
2625003.688	9.259345e-001	3.330946e-001
2631253.684	9.263171e-001	3.320293e-001
2637503.681	9.267273e-001	3.309698e-001
2643753.678	9.271044e-001	3.299108e-001
2650003.675	9.274937e-001	3.288661e-001
2656253.672	9.278732e-001	3.278190e-001
2662503.669	9.282469e-001	3.267664e-001
2668753.666	9.285006e-001	3.256401e-001
2675003.663	9.288785e-001	3.246147e-001
2681253.659	9.292596e-001	3.235640e-001
2687503.656	9.296184e-001	3.225355e-001
2693753.653	9.299805e-001	3.215181e-001
2700003.650	9.303553e-001	3.204897e-001
2706253.647	9.307033e-001	3.194518e-001
2712503.644	9.310607e-001	3.184278e-001
2718753.641	9.314090e-001	3.174033e-001
2725003.637	9.316509e-001	3.163093e-001
2731253.634	9.319984e-001	3.153104e-001
2737503.631	9.323546e-001	3.142935e-001
2743753.628	9.326959e-001	3.133094e-001
2750003.625	9.330388e-001	3.123132e-001
2756253.622	9.333640e-001	3.112799e-001
2762503.619	9.337243e-001	3.102921e-001
2768753.616	9.340587e-001	3.093143e-001
2775003.612	9.343838e-001	3.083117e-001
2781253.609	9.345949e-001	3.072374e-001
2787503.606	9.349252e-001	3.062577e-001
2793753.603	9.352603e-001	3.052867e-001
2800003.600	9.355740e-001	3.042991e-001
2806253.597	9.359074e-001	3.033469e-001
2812503.594	9.362233e-001	3.023673e-001
2818753.591	9.365375e-001	3.014093e-001
2825003.587	9.368563e-001	3.004358e-001
2831253.584	9.371611e-001	2.994598e-001
2837503.581	9.373514e-001	2.984343e-001
2843753.578	9.376600e-001	2.974660e-001
2850003.575	9.379696e-001	2.965190e-001
2856253.572	9.382824e-001	2.955584e-001
2862503.569	9.382877e-001	2.944198e-001
2868753.566	9.383804e-001	2.933119e-001
2875003.563	9.385603e-001	2.922582e-001
2881253.559	9.387670e-001	2.912973e-001
2887503.556	9.390053e-001	2.903601e-001
2893753.553	9.391724e-001	2.893205e-001
2900003.550	9.394720e-001	2.883752e-001
2906253.547	9.397604e-001	2.874543e-001
2912503.544	9.400574e-001	2.865352e-001
2918753.541	9.403452e-001	2.855920e-001
2925003.538	9.406485e-001	2.845950e-001
2931253.534	9.408862e-001	2.838036e-001
2937503.531	9.411755e-001	2.828950e-001
2943753.528	9.414358e-001	2.819637e-001
2950003.525	9.417332e-001	2.810181e-001
2956253.522	9.420152e-001	2.800439e-001
2962503.519	9.421665e-001	2.791126e-001
2968753.516	9.424259e-001	2.782508e-001
2975003.512	9.426922e-001	2.773615e-001
2981253.509	9.429635e-001	2.764950e-001
2987503.506	9.432193e-001	2.756106e-001
2993753.503	9.434705e-001	2.747122e-001
3000003.500	9.437452e-001	2.737285e-001
3006253.497	9.440221e-001	2.728392e-001
3012503.494	9.442583e-001	2.719615e-001
3018753.491	9.445137e-001	2.710851e-001
3025003.487	9.447551e-001	2.702170e-001
3031253.484	9.448811e-001	2.693888e-001
3037503.481	9.451178e-001	2.685500e-001
3043753.478	9.453636e-001	2.676752e-001
3050003.475	9.456027e-001	2.668046e-001
3056253.472	9.458498e-001	2.659346e-001
3062503.469	9.460883e-001	2.650989e-001
3068753.466	9.463145e-001	2.642280e-001
3075003.462	9.465693e-001	2.633558e-001
3081253.459	9.468110e-001	2.625174e-001
3087503.456	9.470294e-001	2.616589e-001
3093753.453	9.471679e-001	2.607705e-001
3100003.450	9.474109e-001	2.599099e-001
3106253.447	9.476317e-001	2.590477e-001
