!Keysight Technologies,E5061B,MY49912438,B.06.30
!Date: Thu Nov 06 18:24:01 2025
!Data & Calibration Information:
!Freq	S11:SOLT2(ON)
# Hz S dB R 50
5.000	-8.764808e-002	-1.799509e+002
6254.997	-1.062343e-001	1.768101e+002
12504.994	-1.037581e-001	1.735555e+002
18754.991	-1.032781e-001	1.703124e+002
25004.987	-1.052176e-001	1.670982e+002
31254.984	-1.030294e-001	1.639078e+002
37504.981	-1.057722e-001	1.607521e+002
43754.978	-1.042359e-001	1.575869e+002
50004.975	-1.009527e-001	1.544981e+002
56254.972	-1.020438e-001	1.514530e+002
62504.969	-9.910495e-002	1.484213e+002
68754.966	-9.711316e-002	1.454471e+002
75004.962	-9.218255e-002	1.424935e+002
81254.959	-9.370962e-002	1.396223e+002
87504.956	-8.619188e-002	1.367885e+002
93754.953	-8.307790e-002	1.339425e+002
100004.950	-8.050594e-002	1.311712e+002
106254.947	-7.456049e-002	1.285179e+002
112504.944	-7.569678e-002	1.259271e+002
118754.941	-6.919260e-002	1.233578e+002
125004.938	-6.982733e-002	1.208265e+002
131254.934	-5.978432e-002	1.183969e+002
137504.931	-5.941285e-002	1.160254e+002
143754.928	-6.441903e-002	1.136989e+002
150004.925	-5.355881e-002	1.114350e+002
156254.922	-4.956562e-002	1.092225e+002
162504.919	-4.669867e-002	1.070644e+002
168754.916	-4.706892e-002	1.049351e+002
175004.913	-4.485817e-002	1.028943e+002
181254.909	-4.264897e-002	1.009734e+002
187504.906	-3.968513e-002	9.898601e+001
193754.903	-4.072538e-002	9.713606e+001
200004.900	-3.602278e-002	9.524684e+001
206254.897	-3.143943e-002	9.350466e+001
212504.894	-3.360961e-002	9.177513e+001
218754.891	-3.410164e-002	9.009698e+001
225004.887	-2.087949e-002	8.847508e+001
231254.884	-2.505609e-002	8.686796e+001
237504.881	-3.119061e-002	8.533154e+001
243754.878	-2.323824e-002	8.380241e+001
250004.875	-2.586740e-002	8.236355e+001
256254.872	-2.396619e-002	8.098080e+001
262504.869	-2.038223e-002	7.956606e+001
268754.866	-2.059192e-002	7.818671e+001
275004.862	-2.006801e-002	7.692561e+001
281254.859	-1.889826e-002	7.564716e+001
287504.856	-1.658799e-002	7.439828e+001
293754.853	-1.310732e-002	7.317988e+001
300004.850	-2.107848e-002	7.199539e+001
306254.847	-1.634296e-002	7.087640e+001
312504.844	-1.571441e-002	6.973269e+001
318754.841	-1.080757e-002	6.860961e+001
325004.837	-1.427808e-002	6.757037e+001
331254.834	-1.629951e-002	6.655911e+001
337504.831	-1.475740e-002	6.558842e+001
343754.828	-8.417729e-003	6.457637e+001
350004.825	-1.100113e-002	6.360314e+001
356254.822	-5.426511e-003	6.271363e+001
362504.819	-7.930613e-003	6.182285e+001
368754.816	-9.504165e-003	6.088849e+001
375004.813	-9.375769e-003	6.001342e+001
381254.809	-6.033735e-003	5.919701e+001
387504.806	-4.304872e-003	5.836585e+001
393754.803	-1.001656e-002	5.761337e+001
400004.800	2.042718e-003	5.677653e+001
406254.797	-8.385586e-003	5.600101e+001
412504.794	-4.154450e-003	5.528184e+001
418754.791	-4.951815e-003	5.453961e+001
425004.787	-1.084620e-002	5.381497e+001
431254.784	-4.355235e-003	5.312198e+001
437504.781	-7.820815e-004	5.242436e+001
443754.778	-1.203817e-004	5.174304e+001
450004.775	-2.077215e-003	5.109692e+001
456254.772	-2.220865e-003	5.046580e+001
462504.769	-4.883981e-003	4.986456e+001
468754.766	-2.488675e-003	4.922704e+001
475004.763	-1.838583e-003	4.861452e+001
481254.759	-2.525853e-004	4.807228e+001
487504.756	-2.527074e-003	4.744954e+001
493754.753	-8.384584e-004	4.694969e+001
500004.750	4.310504e-003	4.636830e+001
506254.747	1.469728e-003	4.580861e+001
512504.744	-4.315034e-003	4.529110e+001
518754.741	2.964548e-003	4.475800e+001
525004.737	-3.561505e-003	4.426468e+001
531254.734	-2.333296e-003	4.374643e+001
537504.731	-3.380021e-004	4.326250e+001
543754.728	6.596353e-003	4.277987e+001
550004.725	8.882304e-003	4.231823e+001
556254.722	3.455864e-003	4.184311e+001
562504.719	6.827863e-003	4.144180e+001
568754.716	7.309834e-003	4.098110e+001
575004.713	3.970002e-003	4.052028e+001
581254.709	2.563987e-003	4.008025e+001
587504.706	5.475728e-003	3.968111e+001
593754.703	1.667382e-003	3.926806e+001
600004.700	6.293512e-003	3.884035e+001
606254.697	4.045190e-003	3.845113e+001
612504.694	2.496598e-003	3.807008e+001
618754.691	8.039322e-003	3.766453e+001
625004.688	7.338335e-003	3.729588e+001
631254.684	8.120719e-003	3.693144e+001
637504.681	2.486485e-003	3.657381e+001
643754.678	7.744747e-003	3.620124e+001
650004.675	5.894078e-003	3.583480e+001
656254.672	3.433993e-003	3.548140e+001
662504.669	8.387959e-003	3.513279e+001
668754.666	8.492505e-003	3.482023e+001
675004.662	4.189491e-003	3.449833e+001
681254.659	1.109600e-002	3.416653e+001
687504.656	9.193116e-003	3.385284e+001
693754.653	8.596188e-003	3.352581e+001
700004.650	9.720890e-003	3.321512e+001
706254.647	1.291395e-002	3.290063e+001
712504.644	1.004988e-002	3.260104e+001
718754.641	7.247778e-003	3.231810e+001
725004.637	8.581530e-003	3.200670e+001
731254.634	7.160522e-003	3.171967e+001
737504.631	2.213835e-002	3.147629e+001
743754.628	2.086067e-002	3.121965e+001
750004.625	2.120651e-002	3.094937e+001
756254.622	1.756974e-002	3.063729e+001
762504.619	2.118134e-002	3.035465e+001
768754.616	1.965673e-002	3.012193e+001
775004.612	2.309781e-002	2.985874e+001
781254.609	1.910243e-002	2.959282e+001
787504.606	1.586262e-002	2.934918e+001
793754.603	2.075457e-002	2.906591e+001
800004.600	1.506702e-002	2.885117e+001
806254.597	1.754616e-002	2.854183e+001
812504.594	1.529343e-002	2.835629e+001
818754.591	1.567398e-002	2.810292e+001
825004.588	1.604797e-002	2.785281e+001
831254.584	1.885162e-002	2.762464e+001
837504.581	1.692540e-002	2.738853e+001
843754.578	1.955594e-002	2.716463e+001
850004.575	2.028508e-002	2.694934e+001
856254.572	1.403446e-002	2.676173e+001
862504.569	1.917338e-002	2.652332e+001
868754.566	1.656964e-002	2.632794e+001
875004.563	1.384531e-002	2.608092e+001
881254.559	1.826987e-002	2.589444e+001
887504.556	1.677325e-002	2.566743e+001
893754.553	1.495627e-002	2.548392e+001
900004.550	1.686170e-002	2.525979e+001
906254.547	1.226777e-002	2.506466e+001
912504.544	1.221192e-002	2.489516e+001
918754.541	1.765959e-002	2.467045e+001
925004.537	1.731810e-002	2.447004e+001
931254.534	1.749304e-002	2.430415e+001
937504.531	1.600820e-002	2.409224e+001
943754.528	1.567551e-002	2.389582e+001
950004.525	1.572860e-002	2.374096e+001
956254.522	1.723933e-002	2.349872e+001
962504.519	1.778540e-002	2.341142e+001
968754.516	1.816562e-002	2.319211e+001
975004.512	1.726396e-002	2.300710e+001
981254.509	1.748219e-002	2.283444e+001
987504.506	1.520677e-002	2.267912e+001
993754.503	2.102394e-002	2.251670e+001
1000004.500	2.041850e-002	2.230780e+001
1006254.497	1.856765e-002	2.218491e+001
1012504.494	1.660057e-002	2.200006e+001
1018754.491	2.210856e-002	2.183300e+001
1025004.487	1.445143e-002	2.166926e+001
1031254.484	1.830530e-002	2.150110e+001
1037504.481	1.612568e-002	2.134190e+001
1043754.478	1.363749e-002	2.120755e+001
1050004.475	2.133761e-002	2.105324e+001
1056254.472	1.700885e-002	2.089789e+001
1062504.469	1.626032e-002	2.074371e+001
1068754.466	2.011019e-002	2.057885e+001
1075004.462	1.749690e-002	2.044895e+001
1081254.459	1.761719e-002	2.028803e+001
1087504.456	1.834513e-002	2.014818e+001
1093754.453	2.033673e-002	1.998468e+001
1100004.450	1.889521e-002	1.987535e+001
1106254.447	1.622446e-002	1.973020e+001
1112504.444	1.835988e-002	1.956383e+001
1118754.441	1.763935e-002	1.944411e+001
1125004.438	1.585196e-002	1.932317e+001
1131254.434	1.378562e-002	1.914013e+001
1137504.431	1.412600e-002	1.902911e+001
1143754.428	1.774107e-002	1.891562e+001
1150004.425	2.005014e-002	1.878946e+001
1156254.422	1.551166e-002	1.866986e+001
1162504.419	1.322745e-002	1.852354e+001
1168754.416	1.993435e-002	1.837877e+001
1175004.412	2.039068e-002	1.824315e+001
1181254.409	1.952626e-002	1.814010e+001
1187504.406	1.964876e-002	1.801903e+001
1193754.403	1.464006e-002	1.786797e+001
1200004.400	1.320273e-002	1.775476e+001
1206254.397	1.685793e-002	1.760861e+001
1212504.394	2.055223e-002	1.752578e+001
1218754.391	1.819587e-002	1.736253e+001
1225004.388	1.664678e-002	1.728538e+001
1231254.384	2.144901e-002	1.714743e+001
1237504.381	1.573271e-002	1.704644e+001
1243754.378	1.467551e-002	1.691685e+001
1250004.375	1.805540e-002	1.679177e+001
1256254.372	2.363824e-002	1.669227e+001
1262504.369	1.575294e-002	1.658676e+001
1268754.366	1.399225e-002	1.646873e+001
1275004.363	1.299807e-002	1.635932e+001
1281254.359	1.257380e-002	1.624343e+001
1287504.356	1.497932e-002	1.611549e+001
1293754.353	1.753871e-002	1.600769e+001
1300004.350	1.798618e-002	1.593637e+001
1306254.347	1.470437e-002	1.578633e+001
1312504.344	1.297949e-002	1.572945e+001
1318754.341	1.719679e-002	1.560834e+001
1325004.337	1.357376e-002	1.549242e+001
1331254.334	2.284942e-002	1.538772e+001
1337504.331	1.761403e-002	1.529653e+001
1343754.328	1.910720e-002	1.517145e+001
1350004.325	1.840331e-002	1.508917e+001
1356254.322	1.811532e-002	1.498482e+001
1362504.319	2.007238e-002	1.486443e+001
1368754.316	1.698275e-002	1.477877e+001
1375004.313	2.006292e-002	1.465937e+001
1381254.309	1.635013e-002	1.458719e+001
1387504.306	1.679984e-002	1.447521e+001
1393754.303	1.751822e-002	1.439174e+001
1400004.300	1.518478e-002	1.426707e+001
1406254.297	1.693531e-002	1.419432e+001
1412504.294	1.675920e-002	1.412004e+001
1418754.291	1.248020e-002	1.400730e+001
1425004.287	1.854660e-002	1.389407e+001
1431254.284	2.124471e-002	1.383352e+001
1437504.281	2.192746e-002	1.376446e+001
1443754.278	2.191933e-002	1.361687e+001
1450004.275	1.680113e-002	1.352956e+001
1456254.272	1.363479e-002	1.345393e+001
1462504.269	1.706606e-002	1.335461e+001
1468754.266	1.631280e-002	1.328537e+001
1475004.263	1.532714e-002	1.321614e+001
1481254.259	1.454543e-002	1.311038e+001
1487504.256	1.736536e-002	1.302559e+001
1493754.253	1.695938e-002	1.296433e+001
1500004.250	1.654673e-002	1.287520e+001
1506254.247	1.416278e-002	1.273106e+001
1512504.244	1.643827e-002	1.266214e+001
1518754.241	1.555630e-002	1.259470e+001
1525004.238	1.587987e-002	1.253865e+001
1531254.234	1.596552e-002	1.244245e+001
1537504.231	2.257782e-002	1.235879e+001
1543754.228	1.795917e-002	1.222737e+001
1550004.225	1.784055e-002	1.215951e+001
1556254.222	1.911225e-002	1.208026e+001
1562504.219	1.342964e-002	1.204664e+001
1568754.216	8.474307e-003	1.191952e+001
1575004.212	2.175541e-002	1.185863e+001
1581254.209	1.740059e-002	1.177728e+001
1587504.206	1.658696e-002	1.168816e+001
1593754.203	1.621074e-002	1.164183e+001
1600004.200	1.445319e-002	1.154271e+001
1606254.197	1.551008e-002	1.148634e+001
1612504.194	1.532184e-002	1.141003e+001
1618754.191	1.866136e-002	1.130459e+001
1625004.188	1.344180e-002	1.123224e+001
1631254.184	1.778216e-002	1.116135e+001
1637504.181	1.524747e-002	1.106958e+001
1643754.178	1.321812e-002	1.099149e+001
1650004.175	1.712574e-002	1.092172e+001
1656254.172	1.567192e-002	1.087899e+001
1662504.169	1.526111e-002	1.077573e+001
1668754.166	1.669388e-002	1.073322e+001
1675004.162	1.534607e-002	1.062717e+001
1681254.159	1.643989e-002	1.055944e+001
1687504.156	9.700108e-003	1.047942e+001
1693754.153	1.839345e-002	1.042274e+001
1700004.150	1.462568e-002	1.035478e+001
1706254.147	1.530184e-002	1.027845e+001
1712504.144	1.311037e-002	1.019262e+001
1718754.141	1.732414e-002	1.013741e+001
1725004.138	1.565465e-002	1.006307e+001
1731254.134	9.166574e-003	9.979173e+000
1737504.131	1.318341e-002	9.969454e+000
1743754.128	1.172129e-002	9.847349e+000
1750004.125	1.753304e-002	9.825493e+000
1756254.122	1.452953e-002	9.716363e+000
1762504.119	1.161164e-002	9.651721e+000
1768754.116	1.251958e-002	9.607988e+000
1775004.113	1.539595e-002	9.517655e+000
1781254.109	1.427267e-002	9.441154e+000
1787504.106	1.409396e-002	9.392322e+000
1793754.103	1.337458e-002	9.309657e+000
1800004.100	1.601630e-002	9.248702e+000
1806254.097	6.597803e-003	9.192712e+000
1812504.094	1.555419e-002	9.137010e+000
1818754.091	1.317736e-002	9.034361e+000
1825004.087	1.226054e-002	8.996943e+000
1831254.084	1.181266e-002	8.918290e+000
1837504.081	1.358143e-002	8.876301e+000
1843754.078	1.556468e-002	8.815266e+000
1850004.075	1.154019e-002	8.722619e+000
1856254.072	8.062925e-003	8.685965e+000
1862504.069	1.310424e-002	8.619545e+000
1868754.066	1.330064e-002	8.539863e+000
1875004.063	8.778885e-003	8.505380e+000
1881254.059	8.677416e-003	8.429981e+000
1887504.056	1.422536e-002	8.391757e+000
1893754.053	1.650605e-002	8.320730e+000
1900004.050	1.249845e-002	8.268100e+000
1906254.047	8.765223e-003	8.179719e+000
1912504.044	1.185333e-002	8.147060e+000
1918754.041	1.141184e-002	8.062704e+000
1925004.037	1.190509e-002	8.015098e+000
1931254.034	1.258710e-002	7.983983e+000
1937504.031	1.137752e-002	7.885461e+000
1943754.028	1.326981e-002	7.852177e+000
1950004.025	1.165912e-002	7.777617e+000
1956254.022	1.087049e-002	7.702205e+000
1962504.019	9.845746e-003	7.651612e+000
1968754.016	1.323923e-002	7.596041e+000
1975004.013	7.974678e-003	7.547239e+000
1981254.009	1.267059e-002	7.471715e+000
1987504.006	6.594499e-003	7.420249e+000
1993754.003	9.616660e-003	7.373295e+000
2000004.000	7.801521e-003	7.287447e+000
2006253.997	1.246596e-002	7.243598e+000
2012503.994	1.043562e-002	7.206245e+000
2018753.991	8.726891e-003	7.145503e+000
2025003.988	1.124664e-002	7.064157e+000
2031253.984	9.592617e-003	7.014351e+000
2037503.981	1.172360e-002	6.936537e+000
2043753.978	8.716336e-003	6.930979e+000
2050003.975	8.134778e-003	6.857142e+000
2056253.972	3.874634e-003	6.811937e+000
2062503.969	4.439252e-003	6.733999e+000
2068753.966	5.002767e-003	6.698681e+000
2075003.962	6.148587e-003	6.664584e+000
2081253.959	6.305366e-003	6.558808e+000
2087503.956	4.639141e-003	6.524046e+000
2093753.953	6.691162e-003	6.479604e+000
2100003.950	1.001227e-002	6.413333e+000
2106253.947	4.067283e-003	6.357345e+000
2112503.944	3.769662e-003	6.326326e+000
2118753.941	5.666130e-003	6.272883e+000
2125003.938	5.997210e-003	6.215257e+000
2131253.934	5.668756e-003	6.138111e+000
2137503.931	7.169125e-003	6.113256e+000
2143753.928	2.950401e-003	6.052096e+000
2150003.925	1.664986e-003	5.990466e+000
2156253.922	2.864564e-003	5.949035e+000
2162503.919	7.449125e-003	5.882610e+000
2168753.916	1.137774e-002	5.854933e+000
2175003.913	6.970059e-003	5.784636e+000
2181253.909	8.367553e-004	5.727474e+000
2187503.906	1.283255e-003	5.698338e+000
2193753.903	3.009062e-003	5.632360e+000
2200003.900	5.419119e-003	5.579988e+000
2206253.897	1.989408e-003	5.523615e+000
2212503.894	6.562239e-003	5.487131e+000
2218753.891	8.075435e-003	5.426318e+000
2225003.887	5.263744e-003	5.386317e+000
2231253.884	7.737761e-003	5.358954e+000
2237503.881	3.145382e-003	5.292724e+000
2243753.878	6.994199e-003	5.248020e+000
2250003.875	6.916053e-003	5.178194e+000
2256253.872	4.206199e-003	5.140929e+000
2262503.869	3.690959e-003	5.077057e+000
2268753.866	3.400925e-003	5.026131e+000
2275003.862	2.006887e-003	5.005142e+000
2281253.859	2.057059e-003	4.948524e+000
2287503.856	1.416885e-003	4.888472e+000
2293753.853	7.746997e-004	4.840669e+000
2300003.850	3.497154e-003	4.792000e+000
2306253.847	3.144088e-003	4.765555e+000
2312503.844	2.754903e-003	4.730393e+000
2318753.841	4.423311e-004	4.660736e+000
2325003.837	1.568068e-003	4.635155e+000
2331253.834	-1.149072e-003	4.544760e+000
2337503.831	1.758546e-003	4.515153e+000
2343753.828	1.399478e-004	4.453696e+000
2350003.825	-1.984524e-004	4.432605e+000
2356253.822	-1.032866e-003	4.369157e+000
2362503.819	4.704672e-003	4.318061e+000
2368753.816	-1.021894e-003	4.271571e+000
2375003.813	1.330964e-003	4.207794e+000
2381253.809	-1.312303e-003	4.175365e+000
2387503.806	-5.187986e-005	4.118462e+000
2393753.803	-3.779119e-004	4.131126e+000
2400003.800	1.013008e-003	4.043215e+000
2406253.797	-2.634438e-003	4.003562e+000
2412503.794	1.951749e-003	3.943186e+000
2418753.791	-2.998223e-003	3.883534e+000
2425003.788	5.862007e-004	3.895259e+000
2431253.784	2.739231e-003	3.811420e+000
2437503.781	1.439568e-004	3.804076e+000
2443753.778	1.690996e-003	3.768004e+000
2450003.775	-3.308700e-003	3.671692e+000
2456253.772	-3.520259e-003	3.635893e+000
2462503.769	1.506977e-003	3.597245e+000
2468753.766	-2.405399e-003	3.546764e+000
2475003.762	-5.105991e-003	3.509789e+000
2481253.759	-1.502994e-003	3.488407e+000
2487503.756	-5.672676e-003	3.421634e+000
2493753.753	-6.518660e-003	3.379297e+000
2500003.750	-1.349621e-003	3.329627e+000
2506253.747	-3.789157e-003	3.296955e+000
2512503.744	-2.058984e-003	3.267714e+000
2518753.741	-6.296336e-004	3.182317e+000
2525003.737	-3.973248e-003	3.175125e+000
2531253.734	-9.978370e-003	3.109682e+000
2537503.731	-7.165245e-003	3.032130e+000
2543753.728	-6.919144e-003	3.033307e+000
2550003.725	-2.042143e-003	2.970822e+000
2556253.722	-3.842586e-003	2.932126e+000
2562503.719	-3.909973e-003	2.863550e+000
2568753.716	-7.653237e-003	2.862726e+000
2575003.712	-3.856402e-003	2.814318e+000
2581253.709	1.247481e-003	2.744502e+000
2587503.706	-2.670808e-003	2.751594e+000
2593753.703	-2.610512e-003	2.691839e+000
2600003.700	-7.498360e-003	2.611866e+000
2606253.697	-7.488794e-003	2.585673e+000
2612503.694	-5.683203e-003	2.529078e+000
2618753.691	-7.255734e-003	2.498739e+000
2625003.688	-2.103413e-003	2.457696e+000
2631253.684	-3.355013e-003	2.436545e+000
2637503.681	-4.576999e-003	2.377625e+000
2643753.678	-7.488359e-003	2.299447e+000
2650003.675	-6.117580e-003	2.288786e+000
2656253.672	-4.161935e-003	2.284620e+000
2662503.669	-8.412085e-003	2.201807e+000
2668753.666	-4.073133e-003	2.172522e+000
2675003.663	-1.025459e-002	2.118092e+000
2681253.659	-4.543899e-003	2.091852e+000
2687503.656	-6.197510e-003	2.017142e+000
2693753.653	-7.199571e-003	2.024676e+000
2700003.650	-7.726662e-003	1.973163e+000
2706253.647	-5.919788e-003	1.919971e+000
2712503.644	-8.823894e-003	1.885987e+000
2718753.641	-1.077983e-002	1.840956e+000
2725003.637	-1.093196e-002	1.793654e+000
2731253.634	-8.043446e-003	1.761086e+000
2737503.631	-1.170979e-002	1.710988e+000
2743753.628	-1.220356e-002	1.656153e+000
2750003.625	-1.418256e-002	1.641670e+000
2756253.622	-9.691874e-003	1.578426e+000
2762503.619	-9.393807e-003	1.563570e+000
2768753.616	-1.311032e-002	1.499487e+000
2775003.612	-1.071770e-002	1.496067e+000
2781253.609	-1.134876e-002	1.412130e+000
2787503.606	-1.143365e-002	1.379450e+000
2793753.603	-1.189281e-002	1.362272e+000
2800003.600	-9.688280e-003	1.302990e+000
2806253.597	-1.099382e-002	1.278199e+000
2812503.594	-1.231891e-002	1.243386e+000
2818753.591	-1.388327e-002	1.195902e+000
2825003.587	-1.581921e-002	1.140734e+000
2831253.584	-9.621007e-003	1.110614e+000
2837503.581	-1.127426e-002	1.071974e+000
2843753.578	-1.699407e-002	1.039386e+000
2850003.575	-1.440606e-002	9.735415e-001
2856253.572	-1.291196e-002	9.361367e-001
2862503.569	-1.936886e-002	9.414000e-001
2868753.566	-2.243622e-002	8.717220e-001
2875003.563	-2.232005e-002	8.339945e-001
2881253.559	-1.342251e-002	8.052462e-001
2887503.556	-1.669812e-002	7.705028e-001
2893753.553	-2.049980e-002	7.313212e-001
2900003.550	-2.197588e-002	6.972867e-001
2906253.547	-1.908209e-002	6.536418e-001
2912503.544	-2.145872e-002	6.048131e-001
2918753.541	-1.750769e-002	5.810117e-001
2925003.538	-2.260687e-002	4.921634e-001
2931253.534	-1.658842e-002	4.847370e-001
2937503.531	-1.803668e-002	4.584484e-001
2943753.528	-1.779468e-002	4.034241e-001
2950003.525	-2.215082e-002	3.727693e-001
2956253.522	-1.923093e-002	3.254224e-001
2962503.519	-2.304586e-002	2.735849e-001
2968753.516	-1.944769e-002	2.477544e-001
2975003.512	-2.009047e-002	2.205360e-001
2981253.509	-2.383337e-002	1.480590e-001
2987503.506	-2.193309e-002	1.317043e-001
2993753.503	-2.213444e-002	1.313302e-001
3000003.500	-1.814162e-002	7.241293e-002
3006253.497	-2.694058e-002	1.953916e-002
3012503.494	-2.131558e-002	-1.473996e-002
3018753.491	-2.532093e-002	-6.501783e-002
3025003.487	-2.138099e-002	-9.371017e-002
3031253.484	-2.457735e-002	-1.431147e-001
3037503.481	-2.275771e-002	-1.726646e-001
3043753.478	-2.380521e-002	-2.073782e-001
3050003.475	-2.437580e-002	-2.453880e-001
3056253.472	-2.305354e-002	-2.760487e-001
3062503.469	-2.816553e-002	-3.264153e-001
3068753.466	-2.359624e-002	-3.507506e-001
3075003.462	-2.617545e-002	-3.900071e-001
3081253.459	-2.449829e-002	-4.353513e-001
3087503.456	-2.490092e-002	-4.479038e-001
