!Keysight Technologies,E5063A,MY54100949,A.07.00
!Date: Fri Oct 31 21:12:57 2025
!Data & Calibration Information:
!Freq	S11:SOLT2(ON)	S21:SOLT2(ON)	S12:SOLT2(ON)	S22:SOLT2(ON)
# Hz S dB R 50
50000.000	-2.164390e-001	1.573858e+002	-1.277027e+001	8.801613e+001	-1.447576e+001	7.179372e+001	-9.884101e-001	1.502620e+002
50095.000	-1.085162e+000	1.592495e+002	-1.248071e+001	9.656553e+001	-1.527084e+001	8.955671e+001	-1.829626e+000	1.522888e+002
50190.000	-1.869263e+000	1.628304e+002	-1.115369e+001	9.791087e+001	-1.410879e+001	1.039785e+002	-2.657729e+000	1.558753e+002
50285.000	-2.396898e+000	1.666248e+002	-9.440612e+000	9.311822e+001	-1.164702e+001	1.064211e+002	-3.157348e+000	1.617487e+002
50380.000	-2.037883e+000	1.707488e+002	-8.871592e+000	7.700395e+001	-1.022342e+001	9.676863e+001	-2.634845e+000	1.674893e+002
50475.000	-9.094188e-001	1.718007e+002	-9.842862e+000	5.342154e+001	-1.012280e+001	7.562807e+001	-1.252886e+000	1.703532e+002
50570.000	1.386358e-001	1.669726e+002	-1.131546e+001	2.925061e+001	-1.094210e+001	4.611957e+001	1.568025e-001	1.674056e+002
50665.000	8.981141e-002	1.570471e+002	-1.421087e+001	1.779219e+001	-1.342750e+001	2.928214e+001	7.225232e-001	1.586173e+002
50760.000	-1.386443e+000	1.514426e+002	-1.794398e+001	2.841594e+001	-1.600141e+001	3.554530e+001	9.033084e-002	1.498103e+002
50855.000	-3.126270e+000	1.553116e+002	-1.686115e+001	7.312891e+001	-1.523041e+001	6.157708e+001	-1.753171e+000	1.458858e+002
50950.000	-2.854393e+000	1.662347e+002	-1.072027e+001	7.250191e+001	-1.031540e+001	5.850419e+001	-2.539948e+000	1.555425e+002
51045.000	-2.797060e-002	1.651826e+002	-9.559761e+000	3.494455e+001	-8.901817e+000	1.792943e+001	-1.730279e-001	1.572328e+002
51140.000	1.097784e+000	1.553236e+002	-1.183052e+001	7.427790e+000	-1.177076e+001	-1.247979e+001	8.046252e-001	1.499514e+002
51235.000	3.473984e-002	1.481587e+002	-1.367265e+001	1.619724e+001	-1.597876e+001	-2.030148e+000	1.385531e-002	1.440119e+002
51330.000	-2.251456e+000	1.530910e+002	-1.111842e+001	4.904173e+001	-1.446533e+001	5.880352e+001	-2.423396e+000	1.492832e+002
51425.000	-9.773863e-001	1.644545e+002	-7.631123e+000	2.905842e+001	-8.994196e+000	5.393916e+001	-9.705984e-001	1.637964e+002
51520.000	1.283496e+000	1.550090e+002	-1.005983e+001	-1.208790e+001	-9.732381e+000	1.184291e+001	1.677389e+000	1.573609e+002
51615.000	-2.990511e-001	1.435428e+002	-1.526694e+001	-5.045749e-002	-1.355050e+001	1.854371e+001	1.402503e+000	1.448537e+002
51710.000	-3.326459e+000	1.553833e+002	-1.160819e+001	6.682668e+001	-1.040100e+001	7.092018e+001	-1.908433e+000	1.453940e+002
51805.000	1.011639e-001	1.675180e+002	-7.072349e+000	3.092608e+001	-5.932653e+000	3.640397e+001	2.030003e-001	1.601412e+002
51900.000	-1.565057e+000	1.483310e+002	-1.077536e+001	3.748437e+001	-1.379396e+001	5.366200e+001	-1.236304e+000	1.451585e+002
51995.000	-1.021941e+000	1.660679e+002	-5.896800e+000	2.761062e+001	-6.865514e+000	6.637200e+001	-8.950795e-001	1.660510e+002
52090.000	1.846763e+000	1.515097e+002	-9.083780e+000	-9.625428e+000	-8.288225e+000	2.143468e+001	2.668940e+000	1.570430e+002
52185.000	-1.625078e+000	1.417089e+002	-1.394817e+001	4.795395e+001	-1.205789e+001	5.782345e+001	7.035493e-001	1.404370e+002
52280.000	-2.269475e+000	1.660545e+002	-5.308857e+000	6.280322e+001	-4.963442e+000	6.670371e+001	-1.275275e+000	1.599279e+002
52375.000	2.151646e+000	1.546230e+002	-7.083107e+000	2.742972e+001	-7.885637e+000	1.820992e+001	2.412095e+000	1.537632e+002
52470.000	-1.380197e+000	1.437528e+002	-7.796351e+000	7.033504e+001	-1.155654e+001	8.049297e+001	-9.767919e-001	1.445611e+002
52565.000	-2.284748e-001	1.655303e+002	-4.367087e+000	4.714272e+001	-5.221387e+000	6.723203e+001	4.183237e-001	1.704816e+002
52660.000	1.294665e+000	1.445575e+002	-1.045271e+001	4.701404e+001	-9.549149e+000	5.205371e+001	3.038162e+000	1.526541e+002
52755.000	-2.504851e+000	1.517340e+002	-5.408131e+000	1.046624e+002	-5.530107e+000	9.469934e+001	-1.343905e+000	1.501607e+002
52850.000	1.269644e+000	1.648386e+002	-6.496773e+000	6.685707e+001	-7.248305e+000	4.386457e+001	1.874016e+000	1.630504e+002
52945.000	-1.514118e+000	1.484031e+002	-6.557574e+000	1.041465e+002	-1.011336e+001	1.022711e+002	-1.205724e+000	1.495551e+002
53040.000	-2.267309e-001	1.670119e+002	-6.143184e+000	6.798271e+001	-6.222182e+000	7.425552e+001	6.038542e-001	1.727250e+002
53135.000	-8.006241e-001	1.458464e+002	-1.194261e+001	1.045063e+002	-1.068516e+001	9.259021e+001	1.214960e+000	1.491522e+002
53230.000	-1.442108e+000	1.679522e+002	-5.342568e+000	8.795359e+001	-5.242647e+000	7.234247e+001	-6.492350e-001	1.671318e+002
53325.000	4.017768e-001	1.507727e+002	-8.841823e+000	8.905653e+001	-1.245775e+001	7.495356e+001	7.990175e-001	1.521963e+002
53420.000	-1.365447e+000	1.646819e+002	-5.488189e+000	7.625689e+001	-6.655894e+000	9.147130e+001	-1.196568e+000	1.706911e+002
53515.000	4.238636e-001	1.490655e+002	-1.275773e+001	7.908279e+001	-1.194262e+001	7.930208e+001	1.810315e+000	1.564825e+002
53610.000	-1.676758e+000	1.670459e+002	-5.754678e+000	8.732061e+001	-5.945206e+000	7.958956e+001	-1.330009e+000	1.666363e+002
53705.000	3.660369e-001	1.507680e+002	-9.606364e+000	8.686613e+001	-1.359897e+001	7.856939e+001	4.094381e-001	1.527601e+002
53800.000	-6.366893e-001	1.662852e+002	-6.831769e+000	6.353530e+001	-7.991549e+000	8.176263e+001	-7.807181e-001	1.720669e+002
53895.000	-1.140618e+000	1.467442e+002	-1.256584e+001	1.004600e+002	-1.255968e+001	9.795321e+001	1.331846e-001	1.500342e+002
53990.000	5.898926e-002	1.672165e+002	-8.003693e+000	6.625071e+001	-8.783170e+000	5.819400e+001	-1.424643e-001	1.670156e+002
54085.000	-1.680145e+000	1.512594e+002	-8.447620e+000	1.000156e+002	-1.238772e+001	1.119341e+002	-2.302385e+000	1.539836e+002
54180.000	9.803394e-001	1.609525e+002	-1.225051e+001	5.173642e+001	-1.268765e+001	6.165216e+001	8.704545e-001	1.686547e+002
54275.000	-2.595356e+000	1.590016e+002	-7.899379e+000	1.012310e+002	-8.934651e+000	9.677324e+001	-2.608131e+000	1.610130e+002
54370.000	-1.590006e+000	1.614937e+002	-8.481681e+000	6.991503e+001	-1.040245e+001	8.547647e+001	-1.976925e+000	1.691632e+002
54465.000	-1.386536e+000	1.429739e+002	-1.588212e+001	1.042588e+002	-1.626623e+001	9.683757e+001	-4.952722e-001	1.482639e+002
54560.000	-2.657431e-001	1.609049e+002	-1.229311e+001	5.979484e+001	-1.371284e+001	4.470233e+001	-3.004415e-001	1.621953e+002
54655.000	-2.636315e+000	1.533130e+002	-9.764462e+000	8.494656e+001	-1.276872e+001	9.886147e+001	-2.840629e+000	1.587238e+002
54750.000	-5.229425e-001	1.421615e+002	-1.853441e+001	7.897252e+001	-1.829566e+001	7.600307e+001	6.826071e-001	1.482139e+002
54845.000	-4.089395e-001	1.597346e+002	-1.288086e+001	5.359542e+001	-1.409290e+001	4.132549e+001	-1.202484e-001	1.574768e+002
54940.000	-2.462374e+000	1.526440e+002	-1.102536e+001	8.241926e+001	-1.419542e+001	9.659723e+001	-2.307737e+000	1.521758e+002
55035.000	-2.606382e-001	1.407546e+002	-1.857347e+001	7.481005e+001	-1.850114e+001	7.249047e+001	1.349837e+000	1.431423e+002
55130.000	3.001518e-001	1.588021e+002	-1.295760e+001	5.018384e+001	-1.415289e+001	3.756152e+001	5.077672e-001	1.544278e+002
55225.000	-2.125547e+000	1.576838e+002	-9.054762e+000	6.943824e+001	-1.107690e+001	8.510046e+001	-1.904352e+000	1.563800e+002
55320.000	-1.987377e+000	1.403775e+002	-1.465826e+001	1.001547e+002	-1.503682e+001	9.302546e+001	-2.092702e-001	1.370732e+002
55415.000	6.837419e-001	1.536595e+002	-1.273237e+001	5.959602e+001	-1.450544e+001	4.494716e+001	8.758672e-001	1.500459e+002
55510.000	-7.220414e-001	1.614137e+002	-9.342492e+000	4.808127e+001	-9.681026e+000	5.992489e+001	-4.482347e-001	1.601033e+002
55605.000	-3.288174e+000	1.532354e+002	-7.751832e+000	9.695316e+001	-8.029978e+000	9.386577e+001	-2.418513e+000	1.449720e+002
55700.000	-1.123414e+000	1.428316e+002	-1.034759e+001	9.001787e+001	-1.370393e+001	9.122502e+001	-6.773916e-001	1.378769e+002
55795.000	5.900918e-001	1.514343e+002	-1.284500e+001	5.911706e+001	-1.171176e+001	6.125668e+001	1.277945e+000	1.517359e+002
55890.000	-6.750271e-001	1.639878e+002	-7.945783e+000	6.122726e+001	-7.927644e+000	5.078640e+001	-5.112683e-001	1.560468e+002
55985.000	-2.712598e+000	1.574945e+002	-5.856174e+000	6.993197e+001	-6.272189e+000	8.576834e+001	-2.652892e+000	1.541260e+002
56080.000	-2.946285e+000	1.438161e+002	-6.872962e+000	1.063922e+002	-7.180785e+000	1.043363e+002	-1.928190e+000	1.367996e+002
56175.000	-7.754844e-001	1.409376e+002	-8.829574e+000	8.829052e+001	-1.205200e+001	8.907037e+001	-4.146203e-001	1.375367e+002
56270.000	4.861938e-001	1.467958e+002	-1.157988e+001	6.723317e+001	-1.025759e+001	6.640734e+001	1.261924e+000	1.499349e+002
56365.000	2.188137e-001	1.581421e+002	-8.121684e+000	6.017940e+001	-8.588264e+000	4.929967e+001	1.960349e-001	1.552707e+002
56460.000	-2.858992e+000	1.414164e+002	-6.009913e+000	9.803920e+001	-6.403892e+000	9.750596e+001	-2.152440e+000	1.379872e+002
56555.000	-1.378534e+000	1.374957e+002	-6.909942e+000	8.943970e+001	-9.805766e+000	9.592291e+001	-1.332624e+000	1.374576e+002
56650.000	1.612400e-001	1.370297e+002	-1.061762e+001	8.640246e+001	-1.010820e+001	7.987874e+001	1.151390e+000	1.424972e+002
56745.000	1.066455e+000	1.471814e+002	-8.337001e+000	6.999537e+001	-1.027331e+001	6.108775e+001	8.006760e-001	1.504492e+002
56840.000	1.173974e+000	1.529557e+002	-9.026037e+000	5.300058e+001	-8.155093e+000	5.715842e+001	1.088653e+000	1.614490e+002
56935.000	5.501926e-001	1.585903e+002	-6.587906e+000	5.870028e+001	-7.151294e+000	4.895542e+001	-1.139813e-001	1.610698e+002
57030.000	1.366905e-002	1.595683e+002	-6.894943e+000	4.811088e+001	-6.466985e+000	5.865452e+001	-5.291084e-001	1.667571e+002
57125.000	-7.598680e-001	1.618794e+002	-6.657525e+000	5.591551e+001	-6.414274e+000	5.129313e+001	-1.207542e+000	1.620646e+002
57220.000	-1.266645e+000	1.610870e+002	-6.781920e+000	4.982676e+001	-6.528493e+000	6.334920e+001	-1.787787e+000	1.658677e+002
57315.000	-1.819089e+000	1.614332e+002	-7.334034e+000	6.177883e+001	-6.583155e+000	5.983050e+001	-2.059218e+000	1.598817e+002
57410.000	-1.814687e+000	1.592108e+002	-8.087007e+000	5.648989e+001	-7.653289e+000	7.175473e+001	-2.358889e+000	1.625739e+002
57505.000	-2.061513e+000	1.607954e+002	-8.956587e+000	6.599700e+001	-7.710698e+000	6.485907e+001	-2.187921e+000	1.584524e+002
57600.000	-1.893988e+000	1.584944e+002	-9.701908e+000	6.066739e+001	-9.088887e+000	7.388545e+001	-2.453682e+000	1.611499e+002
57695.000	-1.927767e+000	1.598800e+002	-1.091115e+001	7.093629e+001	-9.177026e+000	6.532114e+001	-2.034031e+000	1.579096e+002
57790.000	-1.474496e+000	1.580830e+002	-1.222729e+001	6.134110e+001	-1.106637e+001	6.996828e+001	-1.963681e+000	1.613747e+002
57885.000	-1.472995e+000	1.601047e+002	-1.324596e+001	6.976451e+001	-1.122276e+001	5.748309e+001	-1.545522e+000	1.594681e+002
57980.000	-1.013873e+000	1.585191e+002	-1.464641e+001	5.992418e+001	-1.307305e+001	6.132212e+001	-1.325275e+000	1.630246e+002
58075.000	-9.131391e-001	1.617197e+002	-1.540709e+001	6.294966e+001	-1.316251e+001	4.599398e+001	-9.266566e-001	1.614677e+002
58170.000	-4.074384e-001	1.625323e+002	-1.662551e+001	4.602791e+001	-1.415897e+001	4.601203e+001	-4.767606e-001	1.661934e+002
58265.000	-1.410326e-001	1.639070e+002	-1.701359e+001	5.486124e+001	-1.485959e+001	3.629083e+001	-1.962039e-001	1.632151e+002
58360.000	5.255885e-001	1.624837e+002	-1.925487e+001	4.762164e+001	-1.570226e+001	4.299382e+001	6.210105e-001	1.661175e+002
58455.000	8.793387e-001	1.604204e+002	-1.877857e+001	5.936671e+001	-1.735596e+001	4.259285e+001	7.854028e-001	1.599925e+002
58550.000	6.117306e-001	1.529906e+002	-2.037356e+001	7.019780e+001	-1.697879e+001	5.793819e+001	1.293442e+000	1.566860e+002
58645.000	-2.157485e-001	1.501433e+002	-1.697153e+001	7.628796e+001	-1.631693e+001	7.089677e+001	-1.510413e-001	1.480716e+002
58740.000	-1.859281e+000	1.543265e+002	-1.498731e+001	8.165883e+001	-1.213656e+001	7.368375e+001	-1.291942e+000	1.498755e+002
58835.000	-1.033080e+000	1.601790e+002	-1.335845e+001	4.543115e+001	-1.114873e+001	5.144523e+001	-1.532415e+000	1.601665e+002
58930.000	-6.459761e-001	1.625583e+002	-1.463141e+001	3.333230e+001	-1.117891e+001	2.282981e+001	-6.547172e-001	1.609143e+002
59025.000	3.921476e-001	1.625366e+002	-1.655750e+001	2.052117e+001	-1.301941e+001	2.443968e+001	3.042626e-001	1.661520e+002
59120.000	1.117505e+000	1.586270e+002	-1.660090e+001	3.728770e+001	-1.535765e+001	3.015178e+001	9.245163e-001	1.603839e+002
59215.000	-8.723877e-002	1.462286e+002	-1.640426e+001	5.980004e+001	-1.456161e+001	5.767292e+001	6.944966e-001	1.523846e+002
59310.000	-1.791466e+000	1.521899e+002	-1.167252e+001	5.139091e+001	-1.101866e+001	6.469895e+001	-2.085244e+000	1.547764e+002
59405.000	-1.397671e+000	1.604395e+002	-1.153472e+001	3.121915e+001	-9.506006e+000	3.223176e+001	-1.234187e+000	1.625011e+002
59500.000	-2.898231e-001	1.603691e+002	-1.425682e+001	1.627942e+001	-1.228488e+001	2.811875e+001	-1.661025e-001	1.663371e+002
59595.000	2.074680e-001	1.529819e+002	-1.380870e+001	3.954809e+001	-1.445509e+001	4.185292e+001	3.168502e-001	1.566731e+002
59690.000	-2.516223e+000	1.446387e+002	-1.154738e+001	5.848553e+001	-1.103903e+001	6.919789e+001	-1.349957e+000	1.461903e+002
59785.000	-1.588473e+000	1.594204e+002	-9.498170e+000	2.206694e+001	-8.625604e+000	4.319684e+001	-1.712521e+000	1.607781e+002
59880.000	-7.693529e-002	1.599864e+002	-1.133717e+001	1.779256e+001	-1.106693e+001	2.162868e+001	-1.148641e-001	1.586118e+002
59975.000	2.020515e-001	1.445886e+002	-1.338425e+001	4.212091e+001	-1.263663e+001	4.913048e+001	9.127222e-001	1.479632e+002
60070.000	-2.026554e+000	1.547906e+002	-8.928751e+000	3.442106e+001	-8.693918e+000	6.029788e+001	-2.076527e+000	1.484338e+002
60165.000	1.602723e-002	1.606581e+002	-1.107048e+001	1.107262e+001	-9.603122e+000	1.979465e+001	-3.900016e-001	1.538207e+002
60260.000	1.318008e+000	1.515174e+002	-1.478006e+001	2.407008e+001	-1.257049e+001	3.495792e+001	1.374971e+000	1.513246e+002
60355.000	-9.648554e-001	1.517433e+002	-1.128485e+001	3.694306e+001	-1.001804e+001	6.129136e+001	-1.257642e+000	1.410217e+002
60450.000	5.165865e-001	1.619590e+002	-1.260622e+001	1.530744e+001	-9.756239e+000	2.194308e+001	-2.762440e-001	1.526198e+002
60545.000	2.051965e+000	1.534410e+002	-1.642995e+001	2.788986e+001	-1.322107e+001	3.811040e+001	1.853768e+000	1.521417e+002
60640.000	-4.666329e-001	1.552382e+002	-1.267765e+001	4.147828e+001	-9.879667e+000	5.880690e+001	-1.314253e+000	1.451543e+002
60735.000	8.927767e-001	1.634567e+002	-1.539427e+001	2.647961e+001	-1.196060e+001	2.554947e+001	1.060472e-001	1.568816e+002
60830.000	1.160148e+000	1.482630e+002	-1.872707e+001	5.748922e+001	-1.463861e+001	6.180853e+001	1.493087e+000	1.475731e+002
60925.000	-5.998777e-001	1.595392e+002	-1.468073e+001	3.871632e+001	-1.104988e+001	4.678361e+001	-1.385225e+000	1.573900e+002
61020.000	1.202761e+000	1.605989e+002	-1.810532e+001	4.818480e+001	-1.558588e+001	4.417468e+001	7.284943e-001	1.585863e+002
61115.000	-8.873846e-001	1.556979e+002	-1.395269e+001	5.664913e+001	-1.151348e+001	6.508396e+001	-1.561248e+000	1.518006e+002
61210.000	6.522432e-001	1.634662e+002	-1.677805e+001	4.822602e+001	-1.487696e+001	4.160296e+001	1.352257e-001	1.608530e+002
61305.000	-1.033812e+000	1.496525e+002	-1.442521e+001	8.163096e+001	-1.228219e+001	8.165408e+001	-5.999161e-001	1.453045e+002
61400.000	1.231402e-001	1.631325e+002	-1.610022e+001	4.512210e+001	-1.380291e+001	4.958030e+001	-5.192166e-001	1.629325e+002
61495.000	1.302423e-001	1.499113e+002	-1.442749e+001	7.999504e+001	-1.479176e+001	8.606532e+001	-6.119101e-002	1.469869e+002
61590.000	-3.936145e-001	1.632865e+002	-1.417795e+001	5.510249e+001	-1.329867e+001	4.887876e+001	-9.335391e-001	1.591285e+002
61685.000	7.768988e-002	1.478291e+002	-1.479139e+001	9.375488e+001	-1.462621e+001	9.265340e+001	4.194341e-001	1.479189e+002
61780.000	-3.849394e-001	1.621900e+002	-1.409554e+001	5.304788e+001	-1.338633e+001	5.931629e+001	-1.148396e+000	1.603879e+002
61875.000	4.069922e-002	1.496908e+002	-1.278604e+001	8.903604e+001	-1.482229e+001	9.518302e+001	-2.121877e-001	1.471743e+002
61970.000	-4.549452e-001	1.624731e+002	-1.336926e+001	6.215367e+001	-1.377554e+001	5.722277e+001	-1.046450e+000	1.577687e+002
62065.000	-9.605794e-001	1.476015e+002	-1.221806e+001	9.156594e+001	-1.250965e+001	9.389905e+001	-5.667161e-001	1.454110e+002
62160.000	4.816344e-002	1.620817e+002	-1.490581e+001	4.924642e+001	-1.408328e+001	5.533866e+001	-5.035483e-001	1.617438e+002
62255.000	-1.469026e+000	1.524613e+002	-1.056208e+001	6.526282e+001	-1.092740e+001	7.871183e+001	-1.737021e+000	1.490911e+002
62350.000	4.748677e-001	1.599101e+002	-1.399262e+001	5.610298e+001	-1.461110e+001	5.512847e+001	8.621271e-002	1.586325e+002
62445.000	-1.474406e+000	1.585591e+002	-1.089794e+001	4.795749e+001	-9.957895e+000	5.230479e+001	-1.559540e+000	1.549315e+002
62540.000	3.428946e-001	1.502330e+002	-1.332137e+001	6.683686e+001	-1.329756e+001	7.034857e+001	6.546834e-001	1.537171e+002
62635.000	-5.789694e-001	1.602924e+002	-1.228821e+001	3.425064e+001	-1.112923e+001	4.510840e+001	-9.552867e-001	1.617829e+002
62730.000	-1.405913e+000	1.499532e+002	-9.502967e+000	5.236374e+001	-9.547917e+000	7.013671e+001	-1.355436e+000	1.491495e+002
62825.000	4.775147e-001	1.573961e+002	-1.219123e+001	4.685601e+001	-1.278277e+001	5.043614e+001	2.594410e-001	1.591520e+002
62920.000	-1.212347e+000	1.595206e+002	-9.794217e+000	3.504656e+001	-8.860849e+000	4.020338e+001	-1.274379e+000	1.589401e+002
63015.000	-1.072650e+000	1.447576e+002	-9.650729e+000	6.037768e+001	-9.571922e+000	7.042501e+001	-3.372143e-001	1.472982e+002
63110.000	2.965637e-001	1.574043e+002	-1.319455e+001	4.698245e+001	-1.182558e+001	5.184690e+001	9.683575e-002	1.614430e+002
63205.000	-1.121349e+000	1.583231e+002	-1.013117e+001	3.495040e+001	-9.183432e+000	4.631411e+001	-1.465586e+000	1.586845e+002
63300.000	-9.895879e-001	1.462698e+002	-9.450647e+000	6.055967e+001	-9.965300e+000	7.288066e+001	-9.116297e-001	1.460074e+002
63395.000	3.223373e-001	1.568900e+002	-1.204714e+001	5.774837e+001	-1.255622e+001	5.645912e+001	1.057763e-001	1.568516e+002
63490.000	-9.786645e-001	1.593770e+002	-1.115609e+001	4.603294e+001	-1.059297e+001	4.364346e+001	-1.132867e+000	1.564260e+002
63585.000	-1.966649e+000	1.516956e+002	-9.136479e+000	6.045086e+001	-8.451318e+000	6.185750e+001	-1.579133e+000	1.479801e+002
63680.000	1.744025e-001	1.476722e+002	-1.185150e+001	7.831825e+001	-1.189200e+001	7.427769e+001	4.701639e-001	1.487988e+002
63775.000	-8.470772e-002	1.582998e+002	-1.354990e+001	6.026509e+001	-1.228894e+001	5.680084e+001	-2.969166e-001	1.579148e+002
63870.000	-1.221120e+000	1.578585e+002	-1.106527e+001	5.090081e+001	-1.025609e+001	5.279176e+001	-1.456198e+000	1.549658e+002
63965.000	-1.642890e+000	1.492420e+002	-9.282595e+000	6.644682e+001	-9.324500e+000	7.049494e+001	-1.732057e+000	1.452638e+002
64060.000	-1.303042e-002	1.479831e+002	-1.070245e+001	7.858125e+001	-1.194804e+001	7.827867e+001	1.836936e-002	1.462511e+002
64155.000	2.164604e-001	1.563661e+002	-1.265967e+001	6.842599e+001	-1.353298e+001	6.133548e+001	-3.224705e-002	1.544786e+002
64250.000	-7.509344e-001	1.590764e+002	-1.196074e+001	5.725840e+001	-1.199015e+001	4.862878e+001	-9.388575e-001	1.563366e+002
64345.000	-1.432417e+000	1.555958e+002	-1.084685e+001	5.552528e+001	-1.055726e+001	4.966176e+001	-1.457136e+000	1.523913e+002
64440.000	-1.679579e+000	1.496571e+002	-1.006642e+001	6.402516e+001	-9.845852e+000	6.233831e+001	-1.346847e+000	1.476777e+002
64535.000	-5.290480e-001	1.455304e+002	-1.097440e+001	7.243055e+001	-1.151812e+001	7.167002e+001	-1.014556e-001	1.471018e+002
64630.000	3.344489e-001	1.496574e+002	-1.298782e+001	7.391313e+001	-1.335139e+001	6.818255e+001	3.739164e-001	1.536892e+002
64725.000	2.730906e-001	1.556440e+002	-1.399915e+001	6.170778e+001	-1.371905e+001	5.653177e+001	3.262604e-002	1.593333e+002
64820.000	-2.553541e-001	1.569967e+002	-1.393615e+001	5.023366e+001	-1.345631e+001	4.906012e+001	-6.260815e-001	1.598983e+002
64915.000	-7.794682e-001	1.566054e+002	-1.271686e+001	4.478466e+001	-1.248110e+001	4.559494e+001	-1.149921e+000	1.590931e+002
