"# Channel 1"
"# Trace 1"
Frequency, Formatted Data, Formatted Data
+5.00000000000E+000, -9.95758485294E-001, -8.45759763945E-004
+6.25499687500E+003, -9.88091954691E-001, +2.13804729681E-002
+1.25049937500E+004, -9.87289706891E-001, +4.36707880227E-002
+1.87549906250E+004, -9.85565415755E-001, +6.58589077721E-002
+2.50049875000E+004, -9.83364798361E-001, +8.79177697422E-002
+3.12549843750E+004, -9.80708670149E-001, +1.09885885516E-001
+3.75049812500E+004, -9.77640245134E-001, +1.31705074069E-001
+4.37549781250E+004, -9.74195355090E-001, +1.53391731321E-001
+5.00049750000E+004, -9.70450793627E-001, +1.75026101445E-001
+5.62549718750E+004, -9.66190478468E-001, +1.96490157065E-001
+6.25049687500E+004, -9.61501310279E-001, +2.17795649632E-001
+6.87549656250E+004, -9.56388769629E-001, +2.38976352417E-001
+7.50049625000E+004, -9.50909112336E-001, +2.60048121904E-001
+8.12549593750E+004, -9.44950636031E-001, +2.80869887062E-001
+8.75049562500E+004, -9.38576388175E-001, +3.01568836799E-001
+9.37549531250E+004, -9.31890060549E-001, +3.22584890966E-001
+1.00004950000E+005, -9.24663453305E-001, +3.42846765209E-001
+1.06254946875E+005, -9.17050018226E-001, +3.62953973131E-001
+1.12504943750E+005, -9.08956997659E-001, +3.82711529966E-001
+1.18754940625E+005, -9.00508378014E-001, +4.02272711142E-001
+1.25004937500E+005, -8.91702778706E-001, +4.21576585867E-001
+1.31254934375E+005, -8.82509885025E-001, +4.40581746968E-001
+1.37504931250E+005, -8.72950964308E-001, +4.59383502533E-001
+1.43754928125E+005, -8.63007284217E-001, +4.77760331595E-001
+1.50004925000E+005, -8.52774118641E-001, +4.95897660383E-001
+1.56254921875E+005, -8.42168891390E-001, +5.13686670929E-001
+1.62504918750E+005, -8.31276312076E-001, +5.31147457923E-001
+1.68754915625E+005, -8.20064325369E-001, +5.48404259476E-001
+1.75004912500E+005, -8.08606448557E-001, +5.65130946339E-001
+1.81254909375E+005, -7.96847791127E-001, +5.81634336794E-001
+1.87504906250E+005, -7.84812751303E-001, +5.97662325884E-001
+1.93754903125E+005, -7.72548290998E-001, +6.13411631219E-001
+2.00004900000E+005, -7.60065183789E-001, +6.28806151005E-001
+2.06254896875E+005, -7.47362281884E-001, +6.43791964015E-001
+2.12504893750E+005, -7.34451943102E-001, +6.58450647592E-001
+2.18754890625E+005, -7.21317710874E-001, +6.72828110984E-001
+2.25004887500E+005, -7.08050287519E-001, +6.86680575353E-001
+2.31254884375E+005, -6.94571511761E-001, +7.00308227906E-001
+2.37504881250E+005, -6.81029539837E-001, +7.13442081455E-001
+2.43754878125E+005, -6.67248226006E-001, +7.26324282744E-001
+2.50004875000E+005, -6.53358587099E-001, +7.38818798354E-001
+2.56254871875E+005, -6.39348566335E-001, +7.50936629500E-001
+2.62504868750E+005, -6.25318194722E-001, +7.62582617336E-001
+2.68754865625E+005, -6.11138228170E-001, +7.73981466239E-001
+2.75004862500E+005, -5.96856732151E-001, +7.84982088238E-001
+2.81254859375E+005, -5.82434044444E-001, +7.95748079738E-001
+2.87504856250E+005, -5.68016050995E-001, +8.06056393941E-001
+2.93754853125E+005, -5.53451725777E-001, +8.16089178391E-001
+3.00004850000E+005, -5.38851885058E-001, +8.25798141053E-001
+3.06254846875E+005, -5.24345413991E-001, +8.35033092087E-001
+3.12504843750E+005, -5.09803728362E-001, +8.43962306882E-001
+3.18754840625E+005, -4.95118439000E-001, +8.52586346717E-001
+3.25004837500E+005, -4.80587692971E-001, +8.60834323066E-001
+3.31254834375E+005, -4.66041860335E-001, +8.68728121415E-001
+3.37504831250E+005, -4.51511495570E-001, +8.76328945540E-001
+3.43754828125E+005, -4.36871393132E-001, +8.83704358098E-001
+3.50004825000E+005, -4.22389588771E-001, +8.90630000911E-001
+3.56254821875E+005, -4.07954059692E-001, +8.97291609795E-001
+3.62504818750E+005, -3.93536871905E-001, +9.03669437692E-001
+3.68754815625E+005, -3.79018617461E-001, +9.09801133004E-001
+3.75004812500E+005, -3.64712183259E-001, +9.15589875658E-001
+3.81254809375E+005, -3.50507181815E-001, +9.21132780831E-001
+3.87504806250E+005, -3.36325742793E-001, +9.26357169959E-001
+3.93754803125E+005, -3.22096458211E-001, +9.31344350245E-001
+4.00004800000E+005, -3.08069880884E-001, +9.36050485046E-001
+4.06254796875E+005, -2.94132122746E-001, +9.40490386242E-001
+4.12504793750E+005, -2.80128936009E-001, +9.44701938284E-001
+4.18754790625E+005, -2.66355411341E-001, +9.48629539559E-001
+4.25004787500E+005, -2.52662070380E-001, +9.52340994841E-001
+4.31254784375E+005, -2.38931791184E-001, +9.55807493788E-001
+4.37504781250E+005, -2.25447687993E-001, +9.59052581894E-001
+4.43754778125E+005, -2.12082811371E-001, +9.62093274601E-001
+4.50004775000E+005, -1.98589192936E-001, +9.64889444936E-001
+4.56254771875E+005, -1.85465119509E-001, +9.67495503734E-001
+4.62504768750E+005, -1.72396295208E-001, +9.69878326838E-001
+4.68754765625E+005, -1.59432752467E-001, +9.72062085049E-001
+4.75004762500E+005, -1.46454325967E-001, +9.74049951173E-001
+4.81254759375E+005, -1.33748629249E-001, +9.75863348120E-001
+4.87504756250E+005, -1.21126146261E-001, +9.77450570968E-001
+4.93754753125E+005, -1.08659619016E-001, +9.78904677628E-001
+5.00004750000E+005, -9.61410464925E-002, +9.80167888631E-001
+5.06254746875E+005, -8.39301824077E-002, +9.81284514761E-001
+5.12504743750E+005, -7.16314297328E-002, +9.82205846000E-001
+5.18754740625E+005, -5.96621598810E-002, +9.82979962971E-001
+5.25004737500E+005, -4.77162856884E-002, +9.83616330350E-001
+5.31254734375E+005, -3.58172443797E-002, +9.84063376459E-001
+5.37504731250E+005, -2.41970982930E-002, +9.84422158617E-001
+5.43754728125E+005, -1.27138148081E-002, +9.84633619990E-001
+5.50004725000E+005, -1.32155435877E-003, +9.84696162734E-001
+5.56254721875E+005, +9.89057322902E-003, +9.84640665092E-001
+5.62504718750E+005, +2.10526147266E-002, +9.84477848073E-001
+5.68754715625E+005, +3.20523357001E-002, +9.84148417602E-001
+5.75004712500E+005, +4.31120248450E-002, +9.83656292629E-001
+5.81254709375E+005, +5.40062199988E-002, +9.83066106112E-001
+5.87504706250E+005, +6.46217839078E-002, +9.82427103091E-001
+5.93754703125E+005, +7.51086843043E-002, +9.81680390618E-001
+6.00004700000E+005, +8.54949751428E-002, +9.80828355160E-001
+6.06254696875E+005, +9.57293429586E-002, +9.79868936085E-001
+6.12504693750E+005, +1.06016563175E-001, +9.78756288990E-001
+6.18754690625E+005, +1.16046782598E-001, +9.77609619432E-001
+6.25004687500E+005, +1.25994818189E-001, +9.76371844894E-001
+6.31254684375E+005, +1.35737429550E-001, +9.75069729338E-001
+6.37504681250E+005, +1.45390075550E-001, +9.73676115892E-001
+6.43754678125E+005, +1.55082000044E-001, +9.72119121249E-001
+6.50004675000E+005, +1.64497319677E-001, +9.70561653245E-001
+6.56254671875E+005, +1.73781803233E-001, +9.68965471498E-001
+6.62504668750E+005, +1.82974995562E-001, +9.67271682850E-001
+6.68754665625E+005, +1.92051462612E-001, +9.65519339026E-001
+6.75004662500E+005, +2.00988139945E-001, +9.63690829626E-001
+6.81254659375E+005, +2.09966258783E-001, +9.61697636696E-001
+6.87504656250E+005, +2.18699611115E-001, +9.59761492243E-001
+6.93754653125E+005, +2.27300165673E-001, +9.57771217835E-001
+7.00004650000E+005, +2.35824786938E-001, +9.55709912264E-001
+7.06254646875E+005, +2.44207591706E-001, +9.53610227438E-001
+7.12504643750E+005, +2.52650659880E-001, +9.51328276801E-001
+7.18754640625E+005, +2.60816920257E-001, +9.49125801443E-001
+7.25004637500E+005, +2.68918720352E-001, +9.46884622562E-001
+7.31254634375E+005, +2.76882954703E-001, +9.44587885322E-001
+7.37504631250E+005, +2.83813839059E-001, +9.44808268333E-001
+7.43754628125E+005, +2.91666592088E-001, +9.42401760354E-001
+7.50004625000E+005, +2.99540408709E-001, +9.39826714493E-001
+7.56254621875E+005, +3.07179159413E-001, +9.37316042103E-001
+7.62504618750E+005, +3.14707726976E-001, +9.34799052327E-001
+7.68754615625E+005, +3.22176103885E-001, +9.32209716473E-001
+7.75004612500E+005, +3.29645728668E-001, +9.29494728320E-001
+7.81254609375E+005, +3.36912231789E-001, +9.26869519324E-001
+7.87504606250E+005, +3.43961432357E-001, +9.24228414737E-001
+7.93754603125E+005, +3.51001331795E-001, +9.21552572895E-001
+8.00004600000E+005, +3.57977144739E-001, +9.18863240204E-001
+8.06254596875E+005, +3.64836104441E-001, +9.16133173618E-001
+8.12504593750E+005, +3.71614604854E-001, +9.13397655652E-001
+8.18754590625E+005, +3.78393169133E-001, +9.10431705441E-001
+8.25004587500E+005, +3.85006779560E-001, +9.07657100284E-001
+8.31254584375E+005, +3.91480560568E-001, +9.04862185215E-001
+8.37504581250E+005, +3.97909720341E-001, +9.02018013626E-001
+8.43754578125E+005, +4.04226178578E-001, +8.99148884872E-001
+8.50004575000E+005, +4.10494050499E-001, +8.96306305743E-001
+8.56254571875E+005, +4.16659407631E-001, +8.93440547119E-001
+8.62504568750E+005, +4.22759433495E-001, +8.90558113506E-001
+8.68754565625E+005, +4.28781202561E-001, +8.87672290457E-001
+8.75004562500E+005, +4.34687999513E-001, +8.84753411126E-001
+8.81254559375E+005, +4.40631628717E-001, +8.81715182180E-001
+8.87504556250E+005, +4.46416769297E-001, +8.78774651541E-001
+8.93754553125E+005, +4.52129785026E-001, +8.75844351822E-001
+9.00004550000E+005, +4.57724614222E-001, +8.72896901832E-001
+9.06254546875E+005, +4.63304325005E-001, +8.69938183974E-001
+9.12504543750E+005, +4.68808925638E-001, +8.66952989565E-001
+9.18754540625E+005, +4.74216452176E-001, +8.64003218332E-001
+9.25004537500E+005, +4.79518824445E-001, +8.61047056791E-001
+9.31254534375E+005, +4.84788032351E-001, +8.58077702300E-001
+9.37504531250E+005, +4.89964770687E-001, +8.55113946577E-001
+9.43754528125E+005, +4.95088053256E-001, +8.52127643047E-001
+9.50004525000E+005, +5.00137759997E-001, +8.49160489601E-001
+9.56254521875E+005, +5.05149819399E-001, +8.46169666576E-001
+9.62504518750E+005, +5.10066076537E-001, +8.43212180343E-001
+9.68754515625E+005, +5.14965510394E-001, +8.40241904054E-001
+9.75004512500E+005, +5.19803693107E-001, +8.37097714114E-001
+9.81254509375E+005, +5.24514231460E-001, +8.34124997325E-001
+9.87504506250E+005, +5.29221172857E-001, +8.31136776261E-001
+9.93754503125E+005, +5.33850190454E-001, +8.28180676631E-001
+1.00000450000E+006, +5.38390152345E-001, +8.25223513873E-001
+1.00625449688E+006, +5.42868162170E-001, +8.22236344221E-001
+1.01250449375E+006, +5.47304565321E-001, +8.19295091382E-001
+1.01875449063E+006, +5.51696459765E-001, +8.16332126134E-001
+1.02500448750E+006, +5.56044080142E-001, +8.13383692609E-001
+1.03125448438E+006, +5.60307649099E-001, +8.10446975260E-001
+1.03750448125E+006, +5.64526730131E-001, +8.07512694515E-001
+1.04375447813E+006, +5.68712858227E-001, +8.04460605774E-001
+1.05000447500E+006, +5.72822838626E-001, +8.01563357490E-001
+1.05625447188E+006, +5.76905937489E-001, +7.98633897273E-001
+1.06250446875E+006, +5.80902566855E-001, +7.95728762323E-001
+1.06875446563E+006, +5.84893002576E-001, +7.92637121445E-001
+1.07500446250E+006, +5.88811605200E-001, +7.89754978197E-001
+1.08125445937E+006, +5.92688033413E-001, +7.86865718338E-001
+1.08750445625E+006, +5.96496453347E-001, +7.83964748453E-001
+1.09375445313E+006, +6.00274384177E-001, +7.81099525696E-001
+1.10000445000E+006, +6.03997115850E-001, +7.78226012747E-001
+1.10625444687E+006, +6.07671041223E-001, +7.75350263687E-001
+1.11250444375E+006, +6.11306304406E-001, +7.72500817889E-001
+1.11875444063E+006, +6.14901337951E-001, +7.69473135855E-001
+1.12500443750E+006, +6.18450511963E-001, +7.66639657473E-001
+1.13125443438E+006, +6.21936802257E-001, +7.63794148242E-001
+1.13750443125E+006, +6.25401094588E-001, +7.60987941823E-001
+1.14375442812E+006, +6.28782459682E-001, +7.58380955734E-001
+1.15000442500E+006, +6.32159924078E-001, +7.55594225978E-001
+1.15625442188E+006, +6.35501060327E-001, +7.52812712047E-001
+1.16250441875E+006, +6.38777021895E-001, +7.49850935026E-001
+1.16875441562E+006, +6.42016951387E-001, +7.47080934471E-001
+1.17500441250E+006, +6.45258875759E-001, +7.44320558608E-001
+1.18125440938E+006, +6.48433545142E-001, +7.41577236472E-001
+1.18750440625E+006, +6.51574868589E-001, +7.38834471249E-001
+1.19375440313E+006, +6.54682954391E-001, +7.36103462077E-001
+1.20000440000E+006, +6.57729010348E-001, +7.33185141896E-001
+1.20625439687E+006, +6.60770448455E-001, +7.30478276443E-001
+1.21250439375E+006, +6.63766614459E-001, +7.27784623928E-001
+1.21875439063E+006, +6.66735152752E-001, +7.25093699582E-001
+1.22500438750E+006, +6.69647039028E-001, +7.22418761023E-001
+1.23125438437E+006, +6.72541208691E-001, +7.19739286693E-001
+1.23750438125E+006, +6.75396084138E-001, +7.16924465796E-001
+1.24375437813E+006, +6.78214276938E-001, +7.14282469918E-001
+1.25000437500E+006, +6.81029804579E-001, +7.11601756820E-001
+1.25625437188E+006, +6.83802213760E-001, +7.09003283934E-001
+1.26250436875E+006, +6.86539208211E-001, +7.06359640916E-001
+1.26875436562E+006, +6.89234330191E-001, +7.03601249084E-001
+1.27500436250E+006, +6.91880994412E-001, +7.01007898633E-001
+1.28125435938E+006, +6.94497107634E-001, +6.98431556735E-001
+1.28750435625E+006, +6.97113367644E-001, +6.95856315112E-001
+1.29375435312E+006, +6.99679665901E-001, +6.93266531963E-001
+1.30000435000E+006, +7.02231246595E-001, +6.90730710032E-001
+1.30625434688E+006, +7.04731279034E-001, +6.88003317979E-001
+1.31250434375E+006, +7.07232427037E-001, +6.85500728743E-001
+1.31875434063E+006, +7.09695511661E-001, +6.82952113421E-001
+1.32500433750E+006, +7.12111961256E-001, +6.80456174885E-001
+1.33125433437E+006, +7.14546956151E-001, +6.77946214215E-001
+1.33750433125E+006, +7.16901940525E-001, +6.75471510334E-001
+1.34375432813E+006, +7.19243187463E-001, +6.72804268983E-001
+1.35000432500E+006, +7.21568609252E-001, +6.70346826407E-001
+1.35625432187E+006, +7.23863500117E-001, +6.67895378080E-001
+1.36250431875E+006, +7.26148691868E-001, +6.65442204569E-001
+1.36875431563E+006, +7.28404164443E-001, +6.62993155652E-001
+1.37500431250E+006, +7.30630577821E-001, +6.60571303244E-001
+1.38125430938E+006, +7.32784878325E-001, +6.57999316627E-001
+1.38750430625E+006, +7.34980536258E-001, +6.55606775484E-001
+1.39375430312E+006, +7.37158250333E-001, +6.53203907860E-001
+1.40000430000E+006, +7.39269646972E-001, +6.50832469599E-001
+1.40625429688E+006, +7.41376735565E-001, +6.48453312992E-001
+1.41250429375E+006, +7.43434978545E-001, +6.45928910472E-001
+1.41875429062E+006, +7.45521251495E-001, +6.43590926023E-001
+1.42500428750E+006, +7.47550832004E-001, +6.41257139173E-001
+1.43125428438E+006, +7.49578108103E-001, +6.38935683075E-001
+1.43750428125E+006, +7.51583009019E-001, +6.36607191371E-001
+1.44375427813E+006, +7.53543827949E-001, +6.34304665403E-001
+1.45000427500E+006, +7.55451043363E-001, +6.31836841589E-001
+1.45625427187E+006, +7.57396756667E-001, +6.29557699315E-001
+1.46250426875E+006, +7.59316164669E-001, +6.27274035982E-001
+1.46875426563E+006, +7.61313771492E-001, +6.25118461644E-001
+1.47500426250E+006, +7.63182830331E-001, +6.22882327747E-001
+1.48125425937E+006, +7.65050839660E-001, +6.20612491785E-001
+1.48750425625E+006, +7.66896825743E-001, +6.18369720549E-001
+1.49375425313E+006, +7.68666815409E-001, +6.15979440171E-001
+1.50000425000E+006, +7.70465244967E-001, +6.13755042716E-001
+1.50625424688E+006, +7.72252128310E-001, +6.11538008835E-001
+1.51250424375E+006, +7.74002630556E-001, +6.09326132718E-001
+1.51875424062E+006, +7.75740727691E-001, +6.07143377087E-001
+1.52500423750E+006, +7.77497825829E-001, +6.04948135081E-001
+1.53125423438E+006, +7.79198532661E-001, +6.02775549248E-001
+1.53750423125E+006, +7.80887506377E-001, +6.00611716120E-001
+1.54375422812E+006, +7.82518704307E-001, +5.98274385630E-001
+1.55000422500E+006, +7.84165029455E-001, +5.96122277754E-001
+1.55625422188E+006, +7.85799580277E-001, +5.93991253031E-001
+1.56250421875E+006, +7.87342194348E-001, +5.91843375717E-001
+1.56875421563E+006, +7.88973466221E-001, +5.89759060030E-001
+1.57500421250E+006, +7.90580068145E-001, +5.87666416463E-001
+1.58125420937E+006, +7.92163642907E-001, +5.85583807416E-001
+1.58750420625E+006, +7.93670967992E-001, +5.83350609573E-001
+1.59375420313E+006, +7.95224667429E-001, +5.81281291554E-001
+1.60000420000E+006, +7.96749199507E-001, +5.79217749464E-001
+1.60625419687E+006, +7.98256303707E-001, +5.77158383968E-001
+1.61250419375E+006, +7.99768673582E-001, +5.75123089984E-001
+1.61875419063E+006, +8.01263396112E-001, +5.73079615017E-001
+1.62500418750E+006, +8.02735317178E-001, +5.71059467967E-001
+1.63125418438E+006, +8.04197354054E-001, +5.69045582636E-001
+1.63750418125E+006, +8.05561947053E-001, +5.66836913769E-001
+1.64375417812E+006, +8.06988288921E-001, +5.64836115872E-001
+1.65000417500E+006, +8.08417756925E-001, +5.62840218122E-001
+1.65625417188E+006, +8.09800747853E-001, +5.60877496309E-001
+1.66250416875E+006, +8.11199149000E-001, +5.58892942159E-001
+1.66875416562E+006, +8.12567048590E-001, +5.56916892323E-001
+1.67500416250E+006, +8.13931893996E-001, +5.54960890342E-001
+1.68125415938E+006, +8.15298373310E-001, +5.53013940712E-001
+1.68750415625E+006, +8.16538230125E-001, +5.50921451040E-001
+1.69375415313E+006, +8.17869094468E-001, +5.48979734026E-001
+1.70000415000E+006, +8.19166690647E-001, +5.47062271040E-001
+1.70625414687E+006, +8.20467417431E-001, +5.45137682264E-001
+1.71250414375E+006, +8.21591136494E-001, +5.42947996604E-001
+1.71875414063E+006, +8.22869249229E-001, +5.41067817482E-001
+1.72500413750E+006, +8.24125226254E-001, +5.39167757343E-001
+1.73125413437E+006, +8.25382494913E-001, +5.37307585899E-001
+1.73750413125E+006, +8.26547860521E-001, +5.35288863578E-001
+1.74375412813E+006, +8.27761211405E-001, +5.33420557389E-001
+1.75000412500E+006, +8.28983956002E-001, +5.31568496581E-001
+1.75625412188E+006, +8.30191891434E-001, +5.29735604953E-001
+1.76250411875E+006, +8.31391791612E-001, +5.27884452692E-001
+1.76875411562E+006, +8.32538057095E-001, +5.26069549174E-001
+1.77500411250E+006, +8.33632815925E-001, +5.24114895666E-001
+1.78125410938E+006, +8.34801018426E-001, +5.22301196514E-001
+1.78750410625E+006, +8.35936827395E-001, +5.20498305833E-001
+1.79375410312E+006, +8.37089072762E-001, +5.18701924263E-001
+1.80000410000E+006, +8.38218611768E-001, +5.16925641371E-001
+1.80625409688E+006, +8.39327227197E-001, +5.15133215076E-001
+1.81250409375E+006, +8.40428401035E-001, +5.13376993076E-001
+1.81875409063E+006, +8.41457581447E-001, +5.11487078864E-001
+1.82500408750E+006, +8.42532536509E-001, +5.09709064740E-001
+1.83125408437E+006, +8.43625592634E-001, +5.07986261490E-001
+1.83750408125E+006, +8.44679500241E-001, +5.06254562791E-001
+1.84375407813E+006, +8.45748455759E-001, +5.04516829257E-001
+1.85000407500E+006, +8.46778497245E-001, +5.02789088420E-001
+1.85625407187E+006, +8.47735107855E-001, +5.00922041979E-001
+1.86250406875E+006, +8.48772303978E-001, +4.99220604911E-001
+1.86875406563E+006, +8.49789349643E-001, +4.97515774785E-001
+1.87500406250E+006, +8.50794984977E-001, +4.95801048652E-001
+1.88125405938E+006, +8.51789467724E-001, +4.94122885124E-001
+1.88750405625E+006, +8.52780306150E-001, +4.92441540942E-001
+1.89375405312E+006, +8.53774179723E-001, +4.90769381351E-001
+1.90000405000E+006, +8.54662177012E-001, +4.88957700805E-001
+1.90625404688E+006, +8.55630037586E-001, +4.87300204088E-001
+1.91250404375E+006, +8.56616105548E-001, +4.85646800339E-001
+1.91875404062E+006, +8.57550225104E-001, +4.84010941365E-001
+1.92500403750E+006, +8.58492713228E-001, +4.82379283995E-001
+1.93125403438E+006, +8.59429126797E-001, +4.80766328814E-001
+1.93750403125E+006, +8.60351865535E-001, +4.79132874830E-001
+1.94375402813E+006, +8.61283510616E-001, +4.77528913945E-001
+1.95000402500E+006, +8.62094085449E-001, +4.75784370584E-001
+1.95625402187E+006, +8.62990207988E-001, +4.74176743777E-001
+1.96250401875E+006, +8.63900165977E-001, +4.72586118643E-001
+1.96875401563E+006, +8.64781029479E-001, +4.71012698373E-001
+1.97500401250E+006, +8.65517255160E-001, +4.69229333224E-001
+1.98125400937E+006, +8.66406590866E-001, +4.67697486810E-001
+1.98750400625E+006, +8.67283156965E-001, +4.66129447742E-001
+1.99375400313E+006, +8.68039704043E-001, +4.64421450031E-001
+2.00000400000E+006, +8.68888967167E-001, +4.62884256787E-001
