!Keysight Technologies,E5061B,MY49912438,B.06.30
!Date: Thu Nov 06 18:47:54 2025
!Data & Calibration Information:
!Freq	S11:SOLT1(ON)
# Hz S dB R 50
5.000	-3.691655e-002	-1.799513e+002
6254.997	-1.020198e-001	1.787604e+002
12504.994	-1.026189e-001	1.774673e+002
18754.991	-1.069412e-001	1.761770e+002
25004.987	-1.111306e-001	1.748911e+002
31254.984	-1.150151e-001	1.736068e+002
37504.981	-1.183062e-001	1.723275e+002
43754.978	-1.207216e-001	1.710520e+002
50004.975	-1.215108e-001	1.697763e+002
56254.972	-1.227457e-001	1.685048e+002
62504.969	-1.236961e-001	1.672370e+002
68754.966	-1.242794e-001	1.659706e+002
75004.962	-1.239935e-001	1.647051e+002
81254.959	-1.241435e-001	1.634463e+002
87504.956	-1.239209e-001	1.621876e+002
93754.953	-1.211928e-001	1.609061e+002
100004.950	-1.208967e-001	1.596562e+002
106254.947	-1.201380e-001	1.584071e+002
112504.944	-1.203406e-001	1.571667e+002
118754.941	-1.200382e-001	1.559289e+002
125004.938	-1.194936e-001	1.546963e+002
131254.934	-1.191574e-001	1.534699e+002
137504.931	-1.185298e-001	1.522448e+002
143754.928	-1.187087e-001	1.510311e+002
150004.925	-1.182548e-001	1.498215e+002
156254.922	-1.183251e-001	1.486186e+002
162504.919	-1.182560e-001	1.474233e+002
168754.916	-1.177437e-001	1.462280e+002
175004.913	-1.179015e-001	1.450505e+002
181254.909	-1.176894e-001	1.438736e+002
187504.906	-1.182855e-001	1.427095e+002
193754.903	-1.184043e-001	1.415500e+002
200004.900	-1.184420e-001	1.403989e+002
206254.897	-1.187891e-001	1.392578e+002
212504.894	-1.189747e-001	1.381231e+002
218754.891	-1.188854e-001	1.369920e+002
225004.887	-1.194723e-001	1.358778e+002
231254.884	-1.194912e-001	1.347644e+002
237504.881	-1.197606e-001	1.336685e+002
243754.878	-1.199110e-001	1.325726e+002
250004.875	-1.200740e-001	1.314872e+002
256254.872	-1.203340e-001	1.304111e+002
262504.869	-1.208579e-001	1.293518e+002
268754.866	-1.209376e-001	1.282947e+002
275004.862	-1.213949e-001	1.272473e+002
281254.859	-1.213521e-001	1.262016e+002
287504.856	-1.216883e-001	1.251718e+002
293754.853	-1.219509e-001	1.241442e+002
300004.850	-1.219796e-001	1.231254e+002
306254.847	-1.223617e-001	1.221261e+002
312504.844	-1.225679e-001	1.211345e+002
318754.841	-1.231330e-001	1.201448e+002
325004.837	-1.233362e-001	1.191738e+002
331254.834	-1.238576e-001	1.182120e+002
337504.831	-1.241638e-001	1.172589e+002
343754.828	-1.242757e-001	1.163061e+002
350004.825	-1.249696e-001	1.153731e+002
356254.822	-1.253093e-001	1.144489e+002
362504.819	-1.256179e-001	1.135325e+002
368754.816	-1.260493e-001	1.126164e+002
375004.813	-1.263776e-001	1.117192e+002
381254.809	-1.262833e-001	1.108327e+002
387504.806	-1.266780e-001	1.099541e+002
393754.803	-1.271439e-001	1.090775e+002
400004.800	-1.273714e-001	1.082172e+002
406254.797	-1.276473e-001	1.073667e+002
412504.794	-1.281030e-001	1.065165e+002
418754.791	-1.285090e-001	1.056836e+002
425004.787	-1.287404e-001	1.048586e+002
431254.784	-1.293449e-001	1.040351e+002
437504.781	-1.295590e-001	1.032285e+002
443754.778	-1.295856e-001	1.024314e+002
450004.775	-1.302715e-001	1.016300e+002
456254.772	-1.302914e-001	1.008517e+002
462504.769	-1.305617e-001	1.000791e+002
468754.766	-1.308345e-001	9.931444e+001
475004.763	-1.312880e-001	9.855072e+001
481254.759	-1.313964e-001	9.780415e+001
487504.756	-1.319193e-001	9.706411e+001
493754.753	-1.320083e-001	9.633397e+001
500004.750	-1.324072e-001	9.560201e+001
506254.747	-1.324457e-001	9.488866e+001
512504.744	-1.329123e-001	9.417115e+001
518754.741	-1.331371e-001	9.347332e+001
525004.737	-1.332770e-001	9.277730e+001
531254.734	-1.337891e-001	9.208449e+001
537504.731	-1.337493e-001	9.140805e+001
543754.728	-1.337828e-001	9.073978e+001
550004.725	-1.339473e-001	9.007690e+001
556254.722	-1.340065e-001	8.942449e+001
562504.719	-1.338955e-001	8.877494e+001
568754.716	-1.341839e-001	8.813462e+001
575004.713	-1.347980e-001	8.749043e+001
581254.709	-1.352582e-001	8.685553e+001
587504.706	-1.352432e-001	8.623664e+001
593754.703	-1.352489e-001	8.562481e+001
600004.700	-1.352671e-001	8.501834e+001
606254.697	-1.353854e-001	8.442014e+001
612504.694	-1.358508e-001	8.381796e+001
618754.691	-1.359223e-001	8.323040e+001
625004.688	-1.359705e-001	8.264697e+001
631254.684	-1.359304e-001	8.207490e+001
637504.681	-1.359401e-001	8.150730e+001
643754.678	-1.364664e-001	8.093599e+001
650004.675	-1.365413e-001	8.038054e+001
656254.672	-1.363401e-001	7.983223e+001
662504.669	-1.363394e-001	7.928816e+001
668754.666	-1.362632e-001	7.875013e+001
675004.662	-1.363309e-001	7.821922e+001
681254.659	-1.369945e-001	7.768395e+001
687504.656	-1.368893e-001	7.716327e+001
693754.653	-1.368022e-001	7.664944e+001
700004.650	-1.367857e-001	7.613896e+001
706254.647	-1.367182e-001	7.563596e+001
712504.644	-1.373994e-001	7.512690e+001
718754.641	-1.373662e-001	7.463456e+001
725004.637	-1.371756e-001	7.414526e+001
731254.634	-1.371636e-001	7.366278e+001
737504.631	-1.179212e-001	7.328010e+001
743754.628	-1.180215e-001	7.280308e+001
750004.625	-1.188774e-001	7.232194e+001
756254.622	-1.192269e-001	7.185489e+001
762504.619	-1.193616e-001	7.139377e+001
768754.616	-1.197090e-001	7.093461e+001
775004.612	-1.205379e-001	7.047293e+001
781254.609	-1.206709e-001	7.002406e+001
787504.606	-1.210698e-001	6.958671e+001
793754.603	-1.212777e-001	6.914914e+001
800004.600	-1.212946e-001	6.871476e+001
806254.597	-1.215265e-001	6.828583e+001
812504.594	-1.215831e-001	6.786112e+001
818754.591	-1.230367e-001	6.743128e+001
825004.588	-1.230173e-001	6.701449e+001
831254.584	-1.231917e-001	6.660471e+001
837504.581	-1.234775e-001	6.619615e+001
843754.578	-1.239293e-001	6.579297e+001
850004.575	-1.239166e-001	6.539297e+001
856254.572	-1.240475e-001	6.499783e+001
862504.569	-1.241448e-001	6.460570e+001
868754.566	-1.241622e-001	6.421760e+001
875004.563	-1.244891e-001	6.383466e+001
881254.559	-1.252237e-001	6.344670e+001
887504.556	-1.254252e-001	6.306947e+001
893754.553	-1.254617e-001	6.269624e+001
900004.550	-1.257471e-001	6.232864e+001
906254.547	-1.258252e-001	6.196151e+001
912504.544	-1.260669e-001	6.159748e+001
918754.541	-1.260959e-001	6.123940e+001
925004.537	-1.262858e-001	6.088648e+001
931254.534	-1.263911e-001	6.053486e+001
937504.531	-1.265317e-001	6.018807e+001
943754.528	-1.267626e-001	5.984332e+001
950004.525	-1.268627e-001	5.950280e+001
956254.522	-1.270052e-001	5.916347e+001
962504.519	-1.270287e-001	5.882991e+001
968754.516	-1.269314e-001	5.849680e+001
975004.512	-1.281277e-001	5.816140e+001
981254.509	-1.283458e-001	5.783751e+001
987504.506	-1.284187e-001	5.751331e+001
993754.503	-1.283478e-001	5.719393e+001
1000004.500	-1.284437e-001	5.687887e+001
1006254.497	-1.287987e-001	5.656586e+001
1012504.494	-1.287617e-001	5.625633e+001
1018754.491	-1.288494e-001	5.594825e+001
1025004.487	-1.288005e-001	5.564277e+001
1031254.484	-1.288412e-001	5.534171e+001
1037504.481	-1.288491e-001	5.504286e+001
1043754.478	-1.296366e-001	5.474163e+001
1050004.475	-1.294637e-001	5.444919e+001
1056254.472	-1.294335e-001	5.415694e+001
1062504.469	-1.294537e-001	5.386959e+001
1068754.466	-1.306110e-001	5.357610e+001
1075004.462	-1.304383e-001	5.329317e+001
1081254.459	-1.303276e-001	5.301198e+001
1087504.456	-1.304530e-001	5.273353e+001
1093754.453	-1.302871e-001	5.245775e+001
1100004.450	-1.302762e-001	5.218423e+001
1106254.447	-1.303483e-001	5.191287e+001
1112504.444	-1.302553e-001	5.164423e+001
1118754.441	-1.314206e-001	5.137095e+001
1125004.438	-1.313094e-001	5.110678e+001
1131254.434	-1.314460e-001	5.084501e+001
1137504.431	-1.312567e-001	5.058568e+001
1143754.428	-1.300041e-001	5.033748e+001
1150004.425	-1.298262e-001	5.008282e+001
1156254.422	-1.296482e-001	4.982998e+001
1162504.419	-1.308837e-001	4.957325e+001
1168754.416	-1.308695e-001	4.932531e+001
1175004.412	-1.306169e-001	4.907766e+001
1181254.409	-1.304793e-001	4.883362e+001
1187504.406	-1.303749e-001	4.859107e+001
1193754.403	-1.302322e-001	4.835043e+001
1200004.400	-1.315310e-001	4.810521e+001
1206254.397	-1.313152e-001	4.786838e+001
1212504.394	-1.311340e-001	4.763402e+001
1218754.391	-1.309547e-001	4.740097e+001
1225004.388	-1.308680e-001	4.717098e+001
1231254.384	-1.307771e-001	4.694157e+001
1237504.381	-1.316534e-001	4.670844e+001
1243754.378	-1.315034e-001	4.648373e+001
1250004.375	-1.314828e-001	4.625759e+001
1256254.372	-1.310689e-001	4.603658e+001
1262504.369	-1.310291e-001	4.581524e+001
1268754.366	-1.318409e-001	4.559098e+001
1275004.363	-1.317840e-001	4.537543e+001
1281254.359	-1.316878e-001	4.516184e+001
1287504.356	-1.314631e-001	4.494829e+001
1293754.353	-1.315211e-001	4.473621e+001
1300004.350	-1.312188e-001	4.452697e+001
1306254.347	-1.323062e-001	4.431186e+001
1312504.344	-1.318844e-001	4.410605e+001
1318754.341	-1.318739e-001	4.389987e+001
1325004.337	-1.317273e-001	4.369778e+001
1331254.334	-1.314391e-001	4.349437e+001
1337504.331	-1.313418e-001	4.329565e+001
1343754.328	-1.323886e-001	4.308931e+001
1350004.325	-1.321657e-001	4.289250e+001
1356254.322	-1.320024e-001	4.269715e+001
1362504.319	-1.318114e-001	4.250212e+001
1368754.316	-1.316892e-001	4.230845e+001
1375004.313	-1.314970e-001	4.211709e+001
1381254.309	-1.325657e-001	4.192204e+001
1387504.306	-1.322082e-001	4.173314e+001
1393754.303	-1.319351e-001	4.154450e+001
1400004.300	-1.318237e-001	4.135979e+001
1406254.297	-1.316954e-001	4.117492e+001
1412504.294	-1.326421e-001	4.098554e+001
1418754.291	-1.322324e-001	4.080327e+001
1425004.287	-1.320903e-001	4.062335e+001
1431254.284	-1.318074e-001	4.044407e+001
1437504.281	-1.316302e-001	4.026533e+001
1443754.278	-1.315184e-001	4.008940e+001
1450004.275	-1.326226e-001	3.990811e+001
1456254.272	-1.323151e-001	3.973378e+001
1462504.269	-1.321315e-001	3.956024e+001
1468754.266	-1.306186e-001	3.938959e+001
1475004.263	-1.303560e-001	3.922008e+001
1481254.259	-1.302117e-001	3.904911e+001
1487504.256	-1.299916e-001	3.888017e+001
1493754.253	-1.310321e-001	3.870732e+001
1500004.250	-1.308862e-001	3.854094e+001
1506254.247	-1.307066e-001	3.837532e+001
1512504.244	-1.306783e-001	3.821125e+001
1518754.241	-1.305066e-001	3.804896e+001
1525004.238	-1.302007e-001	3.788543e+001
1531254.234	-1.300951e-001	3.772496e+001
1537504.231	-1.299563e-001	3.756532e+001
1543754.228	-1.310840e-001	3.739971e+001
1550004.225	-1.310446e-001	3.724210e+001
1556254.222	-1.309102e-001	3.708588e+001
1562504.219	-1.314486e-001	3.693210e+001
1568754.216	-1.309626e-001	3.677818e+001
1575004.212	-1.306324e-001	3.662474e+001
1581254.209	-1.303506e-001	3.647258e+001
1587504.206	-1.313356e-001	3.631600e+001
1593754.203	-1.310730e-001	3.616549e+001
1600004.200	-1.309285e-001	3.601626e+001
1606254.197	-1.308281e-001	3.586783e+001
1612504.194	-1.305078e-001	3.572036e+001
1618754.191	-1.302985e-001	3.557311e+001
1625004.188	-1.300764e-001	3.542774e+001
1631254.184	-1.298376e-001	3.528301e+001
1637504.181	-1.312345e-001	3.513229e+001
1643754.178	-1.310742e-001	3.498937e+001
1650004.175	-1.308127e-001	3.484658e+001
1656254.172	-1.306675e-001	3.470693e+001
1662504.169	-1.304680e-001	3.456573e+001
1668754.166	-1.303953e-001	3.442594e+001
1675004.162	-1.301935e-001	3.428723e+001
1681254.159	-1.298842e-001	3.414890e+001
1687504.156	-1.311674e-001	3.400769e+001
1693754.153	-1.309907e-001	3.387077e+001
1700004.150	-1.308896e-001	3.373610e+001
1706254.147	-1.307523e-001	3.360099e+001
1712504.144	-1.331579e-001	3.345870e+001
1718754.141	-1.328729e-001	3.332644e+001
1725004.138	-1.328009e-001	3.319393e+001
1731254.134	-1.324810e-001	3.306333e+001
1737504.131	-1.335565e-001	3.292790e+001
1743754.128	-1.335091e-001	3.279828e+001
1750004.125	-1.332702e-001	3.266917e+001
1756254.122	-1.330063e-001	3.254146e+001
1762504.119	-1.328455e-001	3.241312e+001
1768754.116	-1.328702e-001	3.228824e+001
1775004.113	-1.338943e-001	3.215807e+001
1781254.109	-1.336651e-001	3.203255e+001
1787504.106	-1.335863e-001	3.190857e+001
1793754.103	-1.333134e-001	3.178441e+001
1800004.100	-1.330772e-001	3.166195e+001
1806254.097	-1.330330e-001	3.153933e+001
1812504.094	-1.328386e-001	3.141874e+001
1818754.091	-1.337609e-001	3.129368e+001
1825004.087	-1.337855e-001	3.117279e+001
1831254.084	-1.333834e-001	3.105410e+001
1837504.081	-1.332806e-001	3.093616e+001
1843754.078	-1.330542e-001	3.081747e+001
1850004.075	-1.330408e-001	3.070044e+001
1856254.072	-1.341738e-001	3.057861e+001
1862504.069	-1.339143e-001	3.046268e+001
1868754.066	-1.337878e-001	3.034717e+001
1875004.063	-1.337569e-001	3.023151e+001
1881254.059	-1.336138e-001	3.011801e+001
1887504.056	-1.334786e-001	3.000446e+001
1893754.053	-1.332457e-001	2.989130e+001
1900004.050	-1.344006e-001	2.977415e+001
1906254.047	-1.342341e-001	2.966247e+001
1912504.044	-1.338770e-001	2.955048e+001
1918754.041	-1.338098e-001	2.944087e+001
1925004.037	-1.336282e-001	2.933124e+001
1931254.034	-1.333811e-001	2.922273e+001
1937504.031	-1.332962e-001	2.911358e+001
1943754.028	-1.329850e-001	2.900568e+001
1950004.025	-1.341770e-001	2.889403e+001
1956254.022	-1.340933e-001	2.878694e+001
1962504.019	-1.338001e-001	2.868033e+001
1968754.016	-1.336297e-001	2.857542e+001
1975004.013	-1.354345e-001	2.846378e+001
1981254.009	-1.349639e-001	2.836075e+001
1987504.006	-1.347157e-001	2.825622e+001
1993754.003	-1.359546e-001	2.814782e+001
2000004.000	-1.357321e-001	2.804562e+001
2006253.997	-1.355546e-001	2.794320e+001
2012503.994	-1.353646e-001	2.784107e+001
2018753.991	-1.351220e-001	2.774029e+001
2025003.988	-1.348154e-001	2.763851e+001
2031253.984	-1.361534e-001	2.753392e+001
2037503.981	-1.358070e-001	2.743394e+001
2043753.978	-1.355512e-001	2.733501e+001
2050003.975	-1.355020e-001	2.723688e+001
2056253.972	-1.351094e-001	2.713731e+001
2062503.969	-1.349468e-001	2.703969e+001
2068753.966	-1.362809e-001	2.693785e+001
2075003.962	-1.361750e-001	2.684022e+001
2081253.959	-1.357876e-001	2.674536e+001
2087503.956	-1.362602e-001	2.664663e+001
2093753.953	-1.359192e-001	2.655146e+001
2100003.950	-1.358092e-001	2.645578e+001
2106253.947	-1.368198e-001	2.635832e+001
2112503.944	-1.365854e-001	2.626401e+001
2118753.941	-1.364905e-001	2.617080e+001
2125003.938	-1.363096e-001	2.607739e+001
2131253.934	-1.360584e-001	2.598489e+001
2137503.931	-1.359543e-001	2.589296e+001
2143753.928	-1.357134e-001	2.580113e+001
2150003.925	-1.370096e-001	2.570596e+001
2156253.922	-1.369367e-001	2.561517e+001
2162503.919	-1.366349e-001	2.552446e+001
2168753.916	-1.364260e-001	2.543434e+001
2175003.913	-1.364605e-001	2.534409e+001
2181253.909	-1.361463e-001	2.525521e+001
2187503.906	-1.374345e-001	2.516320e+001
2193753.903	-1.372696e-001	2.507384e+001
2200003.900	-1.369709e-001	2.498598e+001
2206253.897	-1.367401e-001	2.489799e+001
2212503.894	-1.357002e-001	2.481462e+001
2218753.891	-1.353634e-001	2.472849e+001
2225003.887	-1.352537e-001	2.464236e+001
2231253.884	-1.364837e-001	2.455289e+001
2237503.881	-1.362527e-001	2.446711e+001
2243753.878	-1.360507e-001	2.438154e+001
2250003.875	-1.357414e-001	2.429747e+001
2256253.872	-1.356731e-001	2.421334e+001
2262503.869	-1.370152e-001	2.412501e+001
2268753.866	-1.367620e-001	2.404029e+001
2275003.862	-1.365712e-001	2.395772e+001
2281253.859	-1.363469e-001	2.387390e+001
2287503.856	-1.361997e-001	2.379193e+001
2293753.853	-1.374395e-001	2.370694e+001
2300003.850	-1.373567e-001	2.362384e+001
2306253.847	-1.372700e-001	2.354302e+001
2312503.844	-1.370376e-001	2.346158e+001
2318753.841	-1.368135e-001	2.338049e+001
2325003.837	-1.366318e-001	2.330014e+001
2331253.834	-1.379781e-001	2.321705e+001
2337503.831	-1.378012e-001	2.313758e+001
2343753.828	-1.377124e-001	2.305762e+001
2350003.825	-1.367020e-001	2.298068e+001
2356253.822	-1.365255e-001	2.290192e+001
2362503.819	-1.363037e-001	2.282381e+001
2368753.816	-1.375273e-001	2.274252e+001
2375003.813	-1.372877e-001	2.266499e+001
2381253.809	-1.371751e-001	2.258766e+001
2387503.806	-1.370048e-001	2.250857e+001
2393753.803	-1.368930e-001	2.243234e+001
2400003.800	-1.368544e-001	2.235592e+001
2406253.797	-1.366769e-001	2.227988e+001
2412503.794	-1.378405e-001	2.220011e+001
2418753.791	-1.377866e-001	2.212541e+001
2425003.788	-1.376790e-001	2.204991e+001
2431253.784	-1.374107e-001	2.197609e+001
2437503.781	-1.373838e-001	2.190108e+001
2443753.778	-1.372795e-001	2.182617e+001
2450003.775	-1.385296e-001	2.174933e+001
2456253.772	-1.384225e-001	2.167547e+001
2462503.769	-1.381934e-001	2.160206e+001
2468753.766	-1.381569e-001	2.152876e+001
2475003.762	-1.397664e-001	2.145309e+001
2481253.759	-1.394892e-001	2.138095e+001
2487503.756	-1.392614e-001	2.130938e+001
2493753.753	-1.391057e-001	2.123732e+001
2500003.750	-1.389122e-001	2.116490e+001
2506253.747	-1.390224e-001	2.109407e+001
2512503.744	-1.388151e-001	2.102387e+001
2518753.741	-1.387484e-001	2.095238e+001
2525003.737	-1.386069e-001	2.088225e+001
2531253.734	-1.390805e-001	2.080990e+001
2537503.731	-1.388052e-001	2.074130e+001
2543753.728	-1.385739e-001	2.067149e+001
2550003.725	-1.384728e-001	2.060289e+001
2556253.722	-1.382594e-001	2.053362e+001
2562503.719	-1.397742e-001	2.046235e+001
2568753.716	-1.395730e-001	2.039325e+001
2575003.712	-1.392582e-001	2.032582e+001
2581253.709	-1.392867e-001	2.025716e+001
2587503.706	-1.391625e-001	2.018921e+001
2593753.703	-1.391392e-001	2.012152e+001
2600003.700	-1.390489e-001	2.005465e+001
2606253.697	-1.388176e-001	1.998787e+001
2612503.694	-1.399873e-001	1.991744e+001
2618753.691	-1.397270e-001	1.985175e+001
2625003.688	-1.398704e-001	1.978563e+001
2631253.684	-1.398701e-001	1.971972e+001
2637503.681	-1.396113e-001	1.965359e+001
2643753.678	-1.396149e-001	1.958814e+001
2650003.675	-1.394631e-001	1.952324e+001
2656253.672	-1.393898e-001	1.945839e+001
2662503.669	-1.393689e-001	1.939336e+001
2668753.666	-1.405517e-001	1.932659e+001
2675003.663	-1.403942e-001	1.926296e+001
2681253.659	-1.402727e-001	1.919789e+001
2687503.656	-1.402616e-001	1.913446e+001
2693753.653	-1.401800e-001	1.907158e+001
2700003.650	-1.400147e-001	1.900786e+001
2706253.647	-1.400885e-001	1.894412e+001
2712503.644	-1.400342e-001	1.888096e+001
2718753.641	-1.400458e-001	1.881796e+001
2725003.637	-1.411346e-001	1.875311e+001
2731253.634	-1.410596e-001	1.869153e+001
2737503.631	-1.409521e-001	1.862878e+001
2743753.628	-1.408681e-001	1.856813e+001
2750003.625	-1.407939e-001	1.850678e+001
2756253.622	-1.409616e-001	1.844371e+001
2762503.619	-1.406976e-001	1.838250e+001
2768753.616	-1.406136e-001	1.832233e+001
2775003.612	-1.406668e-001	1.826096e+001
2781253.609	-1.418637e-001	1.819769e+001
2787503.606	-1.417902e-001	1.813748e+001
2793753.603	-1.416422e-001	1.807767e+001
2800003.600	-1.417102e-001	1.801732e+001
2806253.597	-1.415064e-001	1.795858e+001
2812503.594	-1.415155e-001	1.789864e+001
2818753.591	-1.414707e-001	1.783992e+001
2825003.587	-1.414196e-001	1.778027e+001
2831253.584	-1.414836e-001	1.772072e+001
2837503.581	-1.426349e-001	1.766045e+001
2843753.578	-1.426270e-001	1.760126e+001
2850003.575	-1.425455e-001	1.754323e+001
2856253.572	-1.424641e-001	1.748440e+001
2862503.569	-1.454349e-001	1.742103e+001
2868753.566	-1.475790e-001	1.735781e+001
2875003.563	-1.488336e-001	1.729606e+001
2881253.559	-1.496101e-001	1.723900e+001
2887503.556	-1.500492e-001	1.718270e+001
2893753.553	-1.513475e-001	1.712192e+001
2900003.550	-1.512721e-001	1.706411e+001
2906253.547	-1.512198e-001	1.700785e+001
2912503.544	-1.510817e-001	1.695154e+001
2918753.541	-1.510741e-001	1.689405e+001
2925003.538	-1.510655e-001	1.683329e+001
2931253.534	-1.510767e-001	1.678512e+001
2937503.531	-1.509442e-001	1.672953e+001
2943753.528	-1.511063e-001	1.667317e+001
2950003.525	-1.509814e-001	1.661538e+001
2956253.522	-1.510506e-001	1.655625e+001
2962503.519	-1.521105e-001	1.650169e+001
2968753.516	-1.520721e-001	1.644921e+001
2975003.512	-1.520363e-001	1.639508e+001
2981253.509	-1.518939e-001	1.634215e+001
2987503.506	-1.519203e-001	1.628847e+001
2993753.503	-1.520125e-001	1.623408e+001
3000003.500	-1.521069e-001	1.617453e+001
3006253.497	-1.519425e-001	1.612023e+001
3012503.494	-1.520863e-001	1.606725e+001
3018753.491	-1.520575e-001	1.601402e+001
3025003.487	-1.521204e-001	1.596148e+001
3031253.484	-1.530595e-001	1.591303e+001
3037503.481	-1.530768e-001	1.586221e+001
3043753.478	-1.530965e-001	1.580922e+001
