!Keysight Technologies,E5061B,MY49912438,B.06.30
!Date: Fri Nov 07 00:14:42 2025
!Data & Calibration Information:
!Freq	S11:SOLT2(ON)	S21:SOLT2(ON)	S12:SOLT2(ON)	S22:SOLT2(ON)
# Hz S RI R 50
10.000	-9.883575e-001	-1.469023e-003	2.929768e-005	6.186574e-005	1.660318e-005	-1.055896e-004	-9.903289e-001	-1.279831e-003
6259.994	-9.840367e-001	4.546481e-002	1.338343e-003	2.811202e-002	1.339003e-003	2.826549e-002	-9.865339e-001	4.562164e-002
12509.987	-9.791688e-001	9.164644e-002	5.295658e-003	5.585130e-002	5.311878e-003	5.614806e-002	-9.816395e-001	9.178113e-002
18759.981	-9.716220e-001	1.371036e-001	1.179464e-002	8.294414e-002	1.184678e-002	8.339490e-002	-9.739367e-001	1.372923e-001
25009.975	-9.613329e-001	1.816335e-001	2.072043e-002	1.091114e-001	2.082090e-002	1.097002e-001	-9.634806e-001	1.818076e-001
31259.969	-9.485144e-001	2.248826e-001	3.190992e-002	1.341024e-001	3.206658e-002	1.347947e-001	-9.504341e-001	2.250199e-001
37509.962	-9.331596e-001	2.666199e-001	4.515977e-002	1.576707e-001	4.538776e-002	1.584684e-001	-9.350404e-001	2.667207e-001
43759.956	-9.157003e-001	3.066400e-001	6.025436e-002	1.796453e-001	6.059458e-002	1.805876e-001	-9.176624e-001	3.068925e-001
50009.950	-8.964326e-001	3.450153e-001	7.702808e-002	1.999528e-001	7.744218e-002	2.009718e-001	-8.983951e-001	3.452755e-001
56259.944	-8.754256e-001	3.813987e-001	9.517798e-002	2.183922e-001	9.568793e-002	2.194620e-001	-8.773970e-001	3.817006e-001
62509.938	-8.529810e-001	4.158251e-001	1.145027e-001	2.349163e-001	1.150745e-001	2.360135e-001	-8.549424e-001	4.160716e-001
68759.931	-8.293125e-001	4.482098e-001	1.347619e-001	2.494904e-001	1.354033e-001	2.505979e-001	-8.312752e-001	4.484620e-001
75009.925	-8.046937e-001	4.786572e-001	1.557735e-001	2.621293e-001	1.564311e-001	2.632180e-001	-8.066410e-001	4.788319e-001
81259.919	-7.792601e-001	5.069322e-001	1.772009e-001	2.727370e-001	1.778738e-001	2.738141e-001	-7.811997e-001	5.070235e-001
87509.912	-7.532153e-001	5.332829e-001	1.989519e-001	2.814553e-001	1.996323e-001	2.825104e-001	-7.551922e-001	5.333123e-001
93759.906	-7.265338e-001	5.580452e-001	2.208760e-001	2.882975e-001	2.216219e-001	2.893823e-001	-7.285756e-001	5.581057e-001
100009.900	-6.998785e-001	5.804526e-001	2.425865e-001	2.933504e-001	2.433494e-001	2.944082e-001	-7.019459e-001	5.804489e-001
106259.894	-6.730504e-001	6.011569e-001	2.641215e-001	2.966954e-001	2.648992e-001	2.977549e-001	-6.752098e-001	6.010914e-001
112509.888	-6.463748e-001	6.199614e-001	2.851956e-001	2.984155e-001	2.860460e-001	2.995100e-001	-6.485591e-001	6.199873e-001
118759.881	-6.198017e-001	6.372572e-001	3.058238e-001	2.986623e-001	3.067963e-001	2.997534e-001	-6.220114e-001	6.373310e-001
125009.875	-5.936045e-001	6.530600e-001	3.259250e-001	2.975536e-001	3.268751e-001	2.986412e-001	-5.958108e-001	6.530344e-001
131259.869	-5.677329e-001	6.673848e-001	3.453731e-001	2.951791e-001	3.463743e-001	2.962365e-001	-5.698816e-001	6.673971e-001
137509.862	-5.422272e-001	6.804696e-001	3.641849e-001	2.916702e-001	3.651271e-001	2.926751e-001	-5.443833e-001	6.804129e-001
143759.856	-5.172498e-001	6.921729e-001	3.821510e-001	2.870908e-001	3.830862e-001	2.881006e-001	-5.193995e-001	6.921859e-001
150009.850	-4.927132e-001	7.028048e-001	3.993461e-001	2.815786e-001	4.003173e-001	2.825848e-001	-4.949115e-001	7.028400e-001
156259.844	-4.687343e-001	7.124512e-001	4.157439e-001	2.752153e-001	4.166915e-001	2.762287e-001	-4.710068e-001	7.124264e-001
162509.837	-4.453544e-001	7.211363e-001	4.312917e-001	2.681341e-001	4.322921e-001	2.691025e-001	-4.475737e-001	7.211489e-001
168759.831	-4.224416e-001	7.290158e-001	4.460767e-001	2.603741e-001	4.469695e-001	2.613758e-001	-4.248208e-001	7.289139e-001
175009.825	-4.002021e-001	7.359945e-001	4.599116e-001	2.520506e-001	4.608959e-001	2.530501e-001	-4.025688e-001	7.359744e-001
181259.819	-3.784610e-001	7.423095e-001	4.730159e-001	2.432453e-001	4.739987e-001	2.442442e-001	-3.808931e-001	7.423092e-001
187509.813	-3.574028e-001	7.479164e-001	4.852153e-001	2.340442e-001	4.863272e-001	2.349933e-001	-3.597725e-001	7.480329e-001
193759.806	-3.368513e-001	7.530265e-001	4.967171e-001	2.244499e-001	4.978104e-001	2.254108e-001	-3.392852e-001	7.531161e-001
200009.800	-3.168808e-001	7.576201e-001	5.074272e-001	2.145591e-001	5.085566e-001	2.155367e-001	-3.193447e-001	7.576925e-001
206259.794	-2.974652e-001	7.617132e-001	5.174034e-001	2.044689e-001	5.185021e-001	2.054274e-001	-2.999566e-001	7.617809e-001
212509.787	-2.785768e-001	7.653795e-001	5.266361e-001	1.941727e-001	5.278162e-001	1.951044e-001	-2.809810e-001	7.654596e-001
218759.781	-2.600794e-001	7.686474e-001	5.352304e-001	1.836920e-001	5.363391e-001	1.846643e-001	-2.626518e-001	7.687231e-001
225009.775	-2.421776e-001	7.715529e-001	5.431049e-001	1.731411e-001	5.442593e-001	1.740890e-001	-2.446967e-001	7.716507e-001
231259.769	-2.246603e-001	7.741137e-001	5.503498e-001	1.625161e-001	5.515596e-001	1.634256e-001	-2.272200e-001	7.742749e-001
237509.762	-2.077102e-001	7.763743e-001	5.569005e-001	1.518868e-001	5.582192e-001	1.527263e-001	-2.101927e-001	7.765733e-001
243759.756	-1.910612e-001	7.784490e-001	5.629652e-001	1.411882e-001	5.642640e-001	1.420484e-001	-1.936035e-001	7.786292e-001
250009.750	-1.748741e-001	7.802349e-001	5.684549e-001	1.304764e-001	5.697425e-001	1.313704e-001	-1.774501e-001	7.804294e-001
256259.744	-1.590862e-001	7.818230e-001	5.733892e-001	1.198388e-001	5.746883e-001	1.207250e-001	-1.617024e-001	7.820314e-001
262509.737	-1.438187e-001	7.832523e-001	5.777935e-001	1.093243e-001	5.791235e-001	1.101527e-001	-1.463351e-001	7.834194e-001
268759.731	-1.287850e-001	7.844208e-001	5.817146e-001	9.883762e-002	5.830687e-001	9.965921e-002	-1.313418e-001	7.846370e-001
275009.725	-1.141119e-001	7.854616e-001	5.852051e-001	8.841301e-002	5.865567e-001	8.924151e-002	-1.166947e-001	7.856869e-001
281259.719	-9.965163e-002	7.863242e-001	5.882717e-001	7.805227e-002	5.895907e-001	7.891998e-002	-1.023816e-001	7.866069e-001
287509.712	-8.561545e-002	7.870601e-001	5.908753e-001	6.785854e-002	5.922167e-001	6.867640e-002	-8.827913e-002	7.873260e-001
293759.706	-7.179010e-002	7.876070e-001	5.930839e-001	5.776592e-002	5.944118e-001	5.864559e-002	-7.461515e-002	7.879552e-001
300009.700	-5.825965e-002	7.880859e-001	5.949316e-001	4.779212e-002	5.962625e-001	4.867582e-002	-6.111185e-002	7.884439e-001
306259.694	-4.511726e-002	7.884401e-001	5.963575e-001	3.802718e-002	5.977501e-001	3.882711e-002	-4.788623e-002	7.888126e-001
312509.688	-3.222414e-002	7.886932e-001	5.974294e-001	2.843879e-002	5.988761e-001	2.921095e-002	-3.506461e-002	7.891126e-001
318759.681	-1.948493e-002	7.888278e-001	5.982402e-001	1.891794e-002	5.996932e-001	1.969995e-002	-2.237867e-002	7.892827e-001
325009.675	-7.124821e-003	7.889008e-001	5.987062e-001	9.623374e-003	6.001845e-001	1.039953e-002	-1.004237e-002	7.893973e-001
331259.669	5.000316e-003	7.888946e-001	5.988972e-001	4.929239e-004	6.004056e-001	1.189262e-003	2.161094e-003	7.893983e-001
337509.662	1.689478e-002	7.888626e-001	5.988478e-001	-8.471925e-003	6.003536e-001	-7.809915e-003	1.412169e-002	7.893049e-001
343759.656	2.866880e-002	7.886722e-001	5.985163e-001	-1.732388e-002	5.999978e-001	-1.660841e-002	2.578703e-002	7.891709e-001
350009.650	4.014514e-002	7.884734e-001	5.979436e-001	-2.593388e-002	5.994333e-001	-2.527312e-002	3.732152e-002	7.889224e-001
356259.644	5.141097e-002	7.881807e-001	5.971193e-001	-3.436277e-002	5.986130e-001	-3.370528e-002	4.855041e-002	7.886545e-001
362509.637	6.250797e-002	7.877897e-001	5.960641e-001	-4.260000e-002	5.975892e-001	-4.197168e-002	5.960007e-002	7.883230e-001
368759.631	7.353643e-002	7.872543e-001	5.948131e-001	-5.075242e-002	5.963858e-001	-5.016088e-002	7.061185e-002	7.878720e-001
375009.625	8.425478e-002	7.868003e-001	5.933761e-001	-5.864913e-002	5.949461e-001	-5.806983e-002	8.128157e-002	7.874506e-001
381259.619	9.479803e-002	7.862439e-001	5.917461e-001	-6.636920e-002	5.933409e-001	-6.579846e-002	9.179030e-002	7.869217e-001
387509.612	1.051696e-001	7.856762e-001	5.899757e-001	-7.393714e-002	5.915668e-001	-7.333433e-002	1.021150e-001	7.863664e-001
393759.606	1.154685e-001	7.849745e-001	5.880326e-001	-8.137070e-002	5.896276e-001	-8.079000e-002	1.123945e-001	7.856998e-001
400009.600	1.255277e-001	7.842556e-001	5.859253e-001	-8.856439e-002	5.875431e-001	-8.799957e-002	1.224154e-001	7.850434e-001
406259.594	1.354450e-001	7.835243e-001	5.836876e-001	-9.562250e-002	5.853066e-001	-9.506534e-002	1.322807e-001	7.843274e-001
412509.587	1.453143e-001	7.826312e-001	5.813017e-001	-1.025306e-001	5.829496e-001	-1.019706e-001	1.420956e-001	7.835038e-001
418759.581	1.549272e-001	7.817435e-001	5.787995e-001	-1.092082e-001	5.804564e-001	-1.086802e-001	1.516846e-001	7.827040e-001
425009.575	1.644014e-001	7.808809e-001	5.761818e-001	-1.157339e-001	5.778643e-001	-1.153005e-001	1.612305e-001	7.817883e-001
431259.569	1.738462e-001	7.798635e-001	5.734381e-001	-1.221530e-001	5.751525e-001	-1.216546e-001	1.705283e-001	7.808740e-001
437509.563	1.830592e-001	7.788689e-001	5.706133e-001	-1.283287e-001	5.723229e-001	-1.279327e-001	1.798161e-001	7.798613e-001
443759.556	1.921546e-001	7.778706e-001	5.677217e-001	-1.344014e-001	5.694090e-001	-1.339556e-001	1.888393e-001	7.788771e-001
450009.550	2.012317e-001	7.766787e-001	5.646949e-001	-1.403403e-001	5.664088e-001	-1.399614e-001	1.979099e-001	7.777520e-001
456259.544	2.100375e-001	7.756083e-001	5.616178e-001	-1.460906e-001	5.633319e-001	-1.457043e-001	2.067126e-001	7.766991e-001
462509.537	2.187429e-001	7.744938e-001	5.584912e-001	-1.517022e-001	5.601612e-001	-1.513437e-001	2.154873e-001	7.755104e-001
468759.531	2.273374e-001	7.733188e-001	5.552698e-001	-1.571375e-001	5.569561e-001	-1.567828e-001	2.240356e-001	7.743682e-001
475009.525	2.359132e-001	7.720070e-001	5.519595e-001	-1.624697e-001	5.536620e-001	-1.621408e-001	2.325849e-001	7.731040e-001
481259.519	2.442929e-001	7.707684e-001	5.486192e-001	-1.676299e-001	5.503189e-001	-1.672779e-001	2.409239e-001	7.719014e-001
487509.512	2.525884e-001	7.694142e-001	5.451899e-001	-1.726224e-001	5.469030e-001	-1.723053e-001	2.491843e-001	7.706180e-001
493759.506	2.607407e-001	7.680725e-001	5.417527e-001	-1.774545e-001	5.434507e-001	-1.772293e-001	2.573927e-001	7.692505e-001
500009.500	2.688975e-001	7.665938e-001	5.382339e-001	-1.822299e-001	5.399731e-001	-1.819286e-001	2.653888e-001	7.679403e-001
506259.494	2.768346e-001	7.652100e-001	5.346894e-001	-1.868157e-001	5.364208e-001	-1.866194e-001	2.734282e-001	7.665017e-001
512509.487	2.847670e-001	7.636701e-001	5.310903e-001	-1.913294e-001	5.328372e-001	-1.910757e-001	2.812427e-001	7.651036e-001
518759.481	2.925367e-001	7.622018e-001	5.274778e-001	-1.956352e-001	5.292260e-001	-1.954047e-001	2.889746e-001	7.636803e-001
525009.475	3.001870e-001	7.606763e-001	5.238596e-001	-1.998577e-001	5.255849e-001	-1.996688e-001	2.966770e-001	7.620935e-001
531259.469	3.078143e-001	7.590656e-001	5.201767e-001	-2.039874e-001	5.219210e-001	-2.037611e-001	3.042101e-001	7.606198e-001
537509.463	3.152597e-001	7.575378e-001	5.164986e-001	-2.079336e-001	5.182561e-001	-2.077031e-001	3.116229e-001	7.591154e-001
543759.456	3.226477e-001	7.559239e-001	5.127729e-001	-2.117752e-001	5.145287e-001	-2.116005e-001	3.190453e-001	7.574720e-001
550009.450	3.299317e-001	7.543322e-001	5.090588e-001	-2.155136e-001	5.108151e-001	-2.153360e-001	3.262874e-001	7.559036e-001
556259.444	3.371231e-001	7.526768e-001	5.053320e-001	-2.191244e-001	5.070946e-001	-2.189358e-001	3.334447e-001	7.543175e-001
562509.438	3.442202e-001	7.510019e-001	5.015857e-001	-2.226125e-001	5.033143e-001	-2.224891e-001	3.406025e-001	7.525682e-001
568759.431	3.512424e-001	7.492951e-001	4.978296e-001	-2.259962e-001	4.995669e-001	-2.258914e-001	3.475916e-001	7.509321e-001
575009.425	3.582499e-001	7.474044e-001	4.940253e-001	-2.293147e-001	4.957717e-001	-2.292634e-001	3.545859e-001	7.491253e-001
581259.419	3.651396e-001	7.455090e-001	4.902259e-001	-2.325023e-001	4.920065e-001	-2.324312e-001	3.613990e-001	7.474273e-001
587509.412	3.719007e-001	7.437508e-001	4.864591e-001	-2.355832e-001	4.882599e-001	-2.355004e-001	3.681062e-001	7.457203e-001
593759.406	3.785872e-001	7.419787e-001	4.826968e-001	-2.385817e-001	4.844659e-001	-2.385226e-001	3.748277e-001	7.438595e-001
600009.400	3.851728e-001	7.401512e-001	4.789302e-001	-2.414368e-001	4.806920e-001	-2.414014e-001	3.814054e-001	7.420851e-001
606259.394	3.916971e-001	7.383025e-001	4.751754e-001	-2.442323e-001	4.769087e-001	-2.442589e-001	3.879722e-001	7.401716e-001
612509.387	3.981676e-001	7.363081e-001	4.713714e-001	-2.469483e-001	4.731518e-001	-2.469554e-001	3.943733e-001	7.383682e-001
618759.381	4.045399e-001	7.343811e-001	4.676295e-001	-2.495437e-001	4.693653e-001	-2.495919e-001	4.007558e-001	7.363979e-001
625009.375	4.108195e-001	7.323630e-001	4.638697e-001	-2.520029e-001	4.656235e-001	-2.521192e-001	4.070499e-001	7.344889e-001
631259.369	4.170136e-001	7.302477e-001	4.600907e-001	-2.542675e-001	4.618997e-001	-2.545457e-001	4.132076e-001	7.326248e-001
637509.362	4.232016e-001	7.284829e-001	4.563887e-001	-2.566731e-001	4.581320e-001	-2.569366e-001	4.193815e-001	7.306032e-001
643759.356	4.292907e-001	7.264929e-001	4.526636e-001	-2.590506e-001	4.544298e-001	-2.591932e-001	4.254154e-001	7.287037e-001
650009.350	4.352677e-001	7.245933e-001	4.489908e-001	-2.613011e-001	4.506967e-001	-2.614303e-001	4.314379e-001	7.266378e-001
656259.344	4.411729e-001	7.226011e-001	4.453056e-001	-2.634313e-001	4.470074e-001	-2.635241e-001	4.373084e-001	7.246983e-001
662509.337	4.470045e-001	7.205994e-001	4.416345e-001	-2.654744e-001	4.433042e-001	-2.655956e-001	4.431705e-001	7.226132e-001
668759.331	4.527958e-001	7.185720e-001	4.379926e-001	-2.674297e-001	4.396637e-001	-2.675531e-001	4.489142e-001	7.206315e-001
675009.325	4.584732e-001	7.165106e-001	4.343509e-001	-2.693080e-001	4.360125e-001	-2.694458e-001	4.546189e-001	7.186304e-001
681259.319	4.641480e-001	7.143414e-001	4.307031e-001	-2.711567e-001	4.323672e-001	-2.712954e-001	4.602742e-001	7.164985e-001
687509.313	4.697223e-001	7.122576e-001	4.271051e-001	-2.729024e-001	4.287695e-001	-2.730263e-001	4.657973e-001	7.144679e-001
693759.306	4.752158e-001	7.101663e-001	4.235278e-001	-2.745753e-001	4.251475e-001	-2.747392e-001	4.713326e-001	7.122992e-001
700009.300	4.806402e-001	7.080792e-001	4.199718e-001	-2.761846e-001	4.216006e-001	-2.763485e-001	4.767295e-001	7.102602e-001
706259.294	4.860210e-001	7.059630e-001	4.164289e-001	-2.777125e-001	4.180711e-001	-2.778931e-001	4.820869e-001	7.082021e-001
712509.287	4.913381e-001	7.036909e-001	4.128829e-001	-2.792284e-001	4.145120e-001	-2.794118e-001	4.874054e-001	7.059846e-001
718759.281	4.965796e-001	7.015490e-001	4.093738e-001	-2.806548e-001	4.110222e-001	-2.808268e-001	4.926225e-001	7.039035e-001
725009.275	5.017522e-001	6.994123e-001	4.059092e-001	-2.820171e-001	4.075088e-001	-2.822284e-001	4.978125e-001	7.016704e-001
731259.269	5.068784e-001	6.972449e-001	4.024504e-001	-2.833159e-001	4.040789e-001	-2.835267e-001	5.028989e-001	6.995817e-001
737509.262	5.121793e-001	6.967443e-001	3.990563e-001	-2.851147e-001	4.005926e-001	-2.854688e-001	5.079616e-001	6.990259e-001
743759.256	5.171929e-001	6.945081e-001	3.956431e-001	-2.863208e-001	3.971438e-001	-2.866866e-001	5.129722e-001	6.967194e-001
750009.250	5.221753e-001	6.921192e-001	3.921971e-001	-2.874779e-001	3.937641e-001	-2.878082e-001	5.178914e-001	6.945484e-001
756259.244	5.270609e-001	6.898706e-001	3.888378e-001	-2.885549e-001	3.903938e-001	-2.889024e-001	5.227540e-001	6.923734e-001
762509.237	5.318792e-001	6.876200e-001	3.854917e-001	-2.895777e-001	3.870181e-001	-2.899671e-001	5.276112e-001	6.900720e-001
768759.231	5.366659e-001	6.853756e-001	3.821673e-001	-2.905871e-001	3.836968e-001	-2.909313e-001	5.323419e-001	6.878700e-001
775009.225	5.414030e-001	6.829603e-001	3.788402e-001	-2.915430e-001	3.803747e-001	-2.918859e-001	5.370410e-001	6.855218e-001
781259.219	5.460473e-001	6.806795e-001	3.755761e-001	-2.924226e-001	3.771096e-001	-2.927782e-001	5.416804e-001	6.833353e-001
787509.212	5.505967e-001	6.784597e-001	3.723693e-001	-2.932311e-001	3.738652e-001	-2.936141e-001	5.462216e-001	6.810573e-001
793759.206	5.551165e-001	6.761587e-001	3.691508e-001	-2.940183e-001	3.706259e-001	-2.944334e-001	5.507415e-001	6.787223e-001
800009.200	5.596207e-001	6.738702e-001	3.659630e-001	-2.947565e-001	3.674419e-001	-2.951803e-001	5.552163e-001	6.765182e-001
806259.194	5.640410e-001	6.715619e-001	3.628076e-001	-2.954705e-001	3.642389e-001	-2.958976e-001	5.596260e-001	6.741520e-001
812509.188	5.684196e-001	6.692567e-001	3.596673e-001	-2.961339e-001	3.611193e-001	-2.965768e-001	5.639968e-001	6.719444e-001
818759.181	5.727472e-001	6.668293e-001	3.565310e-001	-2.967851e-001	3.580138e-001	-2.972116e-001	5.683005e-001	6.697329e-001
825009.175	5.769948e-001	6.644711e-001	3.534333e-001	-2.973489e-001	3.549020e-001	-2.978158e-001	5.725771e-001	6.673656e-001
831259.169	5.812116e-001	6.621737e-001	3.503761e-001	-2.979036e-001	3.518448e-001	-2.983773e-001	5.767925e-001	6.651272e-001
837509.162	5.853796e-001	6.598647e-001	3.473633e-001	-2.984204e-001	3.487767e-001	-2.988961e-001	5.809204e-001	6.627757e-001
843759.156	5.894892e-001	6.575606e-001	3.443607e-001	-2.988855e-001	3.457870e-001	-2.993819e-001	5.850438e-001	6.605486e-001
850009.150	5.935644e-001	6.552500e-001	3.413794e-001	-2.993421e-001	3.428043e-001	-2.998234e-001	5.890821e-001	6.583169e-001
856259.144	5.975635e-001	6.529721e-001	3.384568e-001	-2.997543e-001	3.398191e-001	-3.002479e-001	5.930896e-001	6.559444e-001
862509.137	6.015209e-001	6.506358e-001	3.355383e-001	-3.001263e-001	3.369093e-001	-3.006471e-001	5.970737e-001	6.537162e-001
868759.131	6.054417e-001	6.483149e-001	3.326535e-001	-3.004544e-001	3.339798e-001	-3.009924e-001	6.009692e-001	6.513647e-001
875009.125	6.092919e-001	6.459734e-001	3.297919e-001	-3.007475e-001	3.311338e-001	-3.013064e-001	6.048099e-001	6.491124e-001
881259.119	6.131057e-001	6.435459e-001	3.269193e-001	-3.010460e-001	3.282945e-001	-3.015954e-001	6.086295e-001	6.469029e-001
887509.112	6.168784e-001	6.412260e-001	3.241087e-001	-3.013080e-001	3.254711e-001	-3.018658e-001	6.123903e-001	6.445615e-001
893759.106	6.206116e-001	6.389433e-001	3.213304e-001	-3.015483e-001	3.226824e-001	-3.020771e-001	6.160899e-001	6.423314e-001
900009.100	6.242948e-001	6.366438e-001	3.185660e-001	-3.017529e-001	3.199056e-001	-3.022990e-001	6.197663e-001	6.399949e-001
906259.094	6.279212e-001	6.343595e-001	3.158434e-001	-3.019161e-001	3.171816e-001	-3.024709e-001	6.233917e-001	6.377632e-001
912509.087	6.315415e-001	6.320318e-001	3.131304e-001	-3.020833e-001	3.144624e-001	-3.026489e-001	6.270068e-001	6.355345e-001
918759.081	6.350753e-001	6.297602e-001	3.104647e-001	-3.021956e-001	3.117776e-001	-3.027733e-001	6.305325e-001	6.331849e-001
925009.075	6.385754e-001	6.274691e-001	3.078211e-001	-3.022844e-001	3.091259e-001	-3.028713e-001	6.340564e-001	6.309879e-001
931259.069	6.420395e-001	6.251926e-001	3.052028e-001	-3.023555e-001	3.065018e-001	-3.029538e-001	6.375180e-001	6.287849e-001
937509.063	6.454701e-001	6.229183e-001	3.025884e-001	-3.024115e-001	3.038678e-001	-3.030257e-001	6.409484e-001	6.264503e-001
943759.056	6.488567e-001	6.206305e-001	3.000077e-001	-3.024326e-001	3.012938e-001	-3.030523e-001	6.443348e-001	6.242571e-001
950009.050	6.521867e-001	6.183915e-001	2.974865e-001	-3.024232e-001	2.987462e-001	-3.030491e-001	6.476761e-001	6.220655e-001
956259.044	6.555007e-001	6.161033e-001	2.949660e-001	-3.024105e-001	2.961733e-001	-3.030511e-001	6.509828e-001	6.197198e-001
962509.037	6.587660e-001	6.138258e-001	2.924686e-001	-3.023664e-001	2.936901e-001	-3.030085e-001	6.542353e-001	6.175281e-001
968759.031	6.619959e-001	6.115742e-001	2.899930e-001	-3.023221e-001	2.912181e-001	-3.029519e-001	6.574667e-001	6.153374e-001
975009.025	6.651621e-001	6.091689e-001	2.874982e-001	-3.022480e-001	2.887266e-001	-3.028730e-001	6.606293e-001	6.130224e-001
981259.019	6.683283e-001	6.069312e-001	2.850835e-001	-3.021613e-001	2.863288e-001	-3.027829e-001	6.637789e-001	6.108741e-001
