!Keysight Technologies,E5061B,MY49912438,B.06.30
!Date: Thu Nov 06 19:58:21 2025
!Data & Calibration Information:
!Freq	S11:SOLT1(ON)
# Hz S RI R 50
100.000	1.001509e+000	-1.249992e-002
6349.938	9.318048e-001	-3.930097e-001
12599.875	7.228045e-001	-7.024265e-001
18849.813	4.472683e-001	-8.998260e-001
25099.750	1.618367e-001	-9.884948e-001
31349.688	-9.764832e-002	-9.938484e-001
37599.625	-3.165065e-001	-9.442827e-001
43849.563	-4.931170e-001	-8.626311e-001
50099.500	-6.316578e-001	-7.646207e-001
56349.438	-7.385436e-001	-6.596891e-001
62599.375	-8.195238e-001	-5.537424e-001
68849.313	-8.797212e-001	-4.500083e-001
75099.250	-9.233667e-001	-3.502570e-001
81349.188	-9.535194e-001	-2.551550e-001
87599.125	-9.728914e-001	-1.651726e-001
93849.063	-9.837833e-001	-8.003943e-002
100099.000	-9.869604e-001	-5.104645e-005
106348.938	-9.841608e-001	7.513402e-002
112598.875	-9.762053e-001	1.457174e-001
118848.813	-9.641447e-001	2.119358e-001
125098.750	-9.485590e-001	2.740049e-001
131348.688	-9.299822e-001	3.321546e-001
137598.625	-9.089451e-001	3.866576e-001
143848.563	-8.857550e-001	4.375653e-001
150098.500	-8.609015e-001	4.851706e-001
156348.438	-8.345533e-001	5.296178e-001
162598.375	-8.070487e-001	5.710799e-001
168848.313	-7.785499e-001	6.098304e-001
175098.250	-7.493342e-001	6.457148e-001
181348.188	-7.194911e-001	6.791739e-001
187598.125	-6.892612e-001	7.101194e-001
193848.063	-6.587021e-001	7.388563e-001
200098.000	-6.279773e-001	7.654581e-001
206347.938	-5.971817e-001	7.899736e-001
212597.875	-5.664103e-001	8.126034e-001
218847.813	-5.356403e-001	8.334951e-001
225097.750	-5.051616e-001	8.525501e-001
231347.688	-4.748025e-001	8.700643e-001
237597.625	-4.448814e-001	8.860038e-001
243847.563	-4.151156e-001	9.005350e-001
250097.500	-3.857416e-001	9.137257e-001
256347.438	-3.567761e-001	9.256279e-001
262597.375	-3.283984e-001	9.362829e-001
268847.313	-3.003666e-001	9.458836e-001
275097.250	-2.727941e-001	9.543758e-001
281347.188	-2.455381e-001	9.619347e-001
287597.125	-2.189437e-001	9.685028e-001
293847.063	-1.927252e-001	9.741977e-001
300097.000	-1.670145e-001	9.790753e-001
306346.938	-1.420255e-001	9.831827e-001
312596.875	-1.175650e-001	9.865825e-001
318846.813	-9.345312e-002	9.892445e-001
325096.750	-7.005450e-002	9.913335e-001
331346.688	-4.718741e-002	9.928435e-001
337596.625	-2.482833e-002	9.937930e-001
343846.563	-2.836361e-003	9.942175e-001
350096.500	1.847456e-002	9.941570e-001
356346.438	3.927612e-002	9.937119e-001
362596.375	5.960654e-002	9.928215e-001
368846.313	7.961874e-002	9.914897e-001
375096.250	9.895318e-002	9.898879e-001
381346.188	1.178195e-001	9.879821e-001
387596.125	1.362250e-001	9.857606e-001
393846.063	1.542887e-001	9.831541e-001
400096.000	1.718050e-001	9.803781e-001
406345.938	1.888713e-001	9.773650e-001
412595.875	2.056426e-001	9.740286e-001
418845.813	2.218582e-001	9.705733e-001
425095.750	2.376739e-001	9.669578e-001
431345.688	2.532200e-001	9.630419e-001
437595.625	2.682583e-001	9.590917e-001
443845.563	2.829020e-001	9.550100e-001
450095.500	2.973545e-001	9.506153e-001
456345.438	3.112619e-001	9.462956e-001
462595.375	3.248415e-001	9.418437e-001
468845.313	3.380801e-001	9.372739e-001
475095.250	3.510845e-001	9.324958e-001
481345.188	3.636725e-001	9.277999e-001
487595.125	3.759768e-001	9.229573e-001
493845.063	3.879409e-001	9.181351e-001
500095.000	3.997153e-001	9.130808e-001
506344.938	4.110925e-001	9.081408e-001
512594.875	4.222948e-001	9.029979e-001
518844.813	4.331248e-001	8.979589e-001
525094.750	4.437407e-001	8.928545e-001
531344.688	4.541257e-001	8.876267e-001
537594.625	4.641986e-001	8.825146e-001
543844.563	4.740342e-001	8.774120e-001
550094.500	4.836100e-001	8.722621e-001
556344.438	4.929546e-001	8.671356e-001
562594.375	5.021288e-001	8.619760e-001
568844.313	5.110369e-001	8.568034e-001
575094.250	5.198338e-001	8.514588e-001
581344.188	5.283912e-001	8.461588e-001
587594.125	5.367000e-001	8.410286e-001
593844.063	5.448044e-001	8.359167e-001
600094.000	5.527231e-001	8.307993e-001
606343.938	5.604753e-001	8.257032e-001
612593.875	5.680797e-001	8.204498e-001
618843.813	5.754807e-001	8.153616e-001
625093.750	5.827227e-001	8.102821e-001
631343.688	5.897783e-001	8.052816e-001
637593.625	5.966813e-001	8.002917e-001
643843.563	6.034521e-001	7.951284e-001
650093.500	6.100499e-001	7.901617e-001
656343.438	6.165039e-001	7.852773e-001
662593.375	6.228244e-001	7.803662e-001
668843.313	6.289907e-001	7.755151e-001
675093.250	6.350341e-001	7.706689e-001
681343.188	6.409311e-001	7.656845e-001
687593.125	6.467204e-001	7.609023e-001
693843.063	6.523785e-001	7.561605e-001
700093.000	6.579117e-001	7.514407e-001
706342.938	6.633262e-001	7.467716e-001
712592.875	6.686378e-001	7.419129e-001
718842.813	6.738257e-001	7.373178e-001
725092.750	6.789076e-001	7.327380e-001
731342.688	6.837387e-001	7.282519e-001
737592.625	6.890264e-001	7.255851e-001
743842.563	6.938210e-001	7.210474e-001
750092.500	6.985102e-001	7.163557e-001
756342.438	7.030971e-001	7.118599e-001
762592.375	7.075930e-001	7.074275e-001
768842.313	7.119957e-001	7.029987e-001
775092.250	7.163212e-001	6.984372e-001
781342.188	7.205377e-001	6.944215e-001
787592.125	7.246886e-001	6.898907e-001
793842.063	7.287414e-001	6.856406e-001
800092.000	7.327409e-001	6.813983e-001
806341.938	7.366460e-001	6.772238e-001
812591.875	7.404944e-001	6.730513e-001
818841.813	7.441787e-001	6.687267e-001
825091.750	7.478503e-001	6.646502e-001
831341.688	7.514406e-001	6.606059e-001
837591.625	7.549655e-001	6.565848e-001
843841.563	7.584205e-001	6.526001e-001
850091.500	7.618229e-001	6.486485e-001
856341.438	7.651666e-001	6.447450e-001
862591.375	7.684545e-001	6.408635e-001
868841.313	7.716563e-001	6.370261e-001
875091.250	7.747873e-001	6.332235e-001
881341.188	7.778679e-001	6.292706e-001
887591.125	7.809064e-001	6.255200e-001
893841.063	7.838977e-001	6.218044e-001
900091.000	7.868228e-001	6.181339e-001
906340.938	7.896256e-001	6.140653e-001
912590.875	7.925173e-001	6.108098e-001
918840.813	7.952953e-001	6.072278e-001
925090.750	7.980070e-001	6.037000e-001
931340.688	8.006912e-001	6.001612e-001
937590.625	8.033233e-001	5.966863e-001
943840.563	8.058969e-001	5.932365e-001
950090.500	8.084117e-001	5.898239e-001
956340.438	8.109085e-001	5.864177e-001
962590.375	8.133764e-001	5.830540e-001
968840.313	8.157864e-001	5.797001e-001
975090.250	8.180812e-001	5.762229e-001
981340.188	8.203972e-001	5.729493e-001
987590.125	8.227006e-001	5.696767e-001
993840.063	8.249331e-001	5.664524e-001
1000090.000	8.271519e-001	5.632758e-001
1006339.938	8.293043e-001	5.600921e-001
1012589.875	8.314614e-001	5.569530e-001
1018839.813	8.335605e-001	5.538325e-001
1025089.750	8.356216e-001	5.507382e-001
1031339.688	8.376362e-001	5.476827e-001
1037589.625	8.396376e-001	5.446579e-001
1043839.563	8.415864e-001	5.415704e-001
1050089.500	8.435196e-001	5.386165e-001
1056339.438	8.454424e-001	5.356495e-001
1062589.375	8.473261e-001	5.327350e-001
1068839.313	8.490663e-001	5.296568e-001
1075089.250	8.508912e-001	5.268018e-001
1081339.188	8.526686e-001	5.239326e-001
1087589.125	8.544289e-001	5.210914e-001
1093839.063	8.561675e-001	5.182949e-001
1100089.000	8.578857e-001	5.154949e-001
1106338.938	8.595716e-001	5.127471e-001
1112588.875	8.612340e-001	5.100012e-001
1118838.813	8.627600e-001	5.071402e-001
1125088.750	8.643675e-001	5.044392e-001
1131338.688	8.659323e-001	5.017746e-001
1137588.625	8.675067e-001	4.991261e-001
1143838.563	8.691109e-001	4.966685e-001
1150088.500	8.706476e-001	4.940745e-001
1156338.438	8.721461e-001	4.914969e-001
1162588.375	8.735033e-001	4.887945e-001
1168838.313	8.749325e-001	4.862543e-001
1175088.250	8.763935e-001	4.837250e-001
1181338.188	8.777906e-001	4.812338e-001
1187588.125	8.791857e-001	4.787459e-001
1193838.063	8.805593e-001	4.762867e-001
1200088.000	8.817988e-001	4.737053e-001
1206337.938	8.831032e-001	4.712772e-001
1212587.875	8.844269e-001	4.688714e-001
1218837.813	8.857305e-001	4.664893e-001
1225087.750	8.869993e-001	4.641307e-001
1231337.688	8.882409e-001	4.617851e-001
1237587.625	8.893855e-001	4.593267e-001
1243837.563	8.906101e-001	4.570255e-001
1250087.500	8.918661e-001	4.547326e-001
1256337.438	8.930630e-001	4.524743e-001
1262587.375	8.942374e-001	4.502187e-001
1268837.313	8.953014e-001	4.478427e-001
1275087.250	8.964331e-001	4.456272e-001
1281337.188	8.975320e-001	4.434205e-001
1287587.125	8.986762e-001	4.412364e-001
1293837.063	8.997586e-001	4.390676e-001
1300087.000	9.008479e-001	4.369133e-001
1306336.938	9.017896e-001	4.346397e-001
1312586.875	9.028705e-001	4.325231e-001
1318836.813	9.039111e-001	4.304046e-001
1325086.750	9.049323e-001	4.283199e-001
1331336.688	9.059767e-001	4.262277e-001
1337586.625	9.069353e-001	4.241885e-001
1343836.563	9.078197e-001	4.219950e-001
1350086.500	9.087903e-001	4.199748e-001
1356336.438	9.097614e-001	4.179672e-001
1362586.375	9.107182e-001	4.159449e-001
1368836.313	9.116425e-001	4.139753e-001
1375086.250	9.125712e-001	4.119921e-001
1381336.188	9.133617e-001	4.099248e-001
1387586.125	9.142764e-001	4.079557e-001
1393836.063	9.151580e-001	4.060307e-001
1400086.000	9.160347e-001	4.041227e-001
1406335.938	9.169072e-001	4.022166e-001
1412585.875	9.176377e-001	4.001977e-001
1418835.813	9.185080e-001	3.983267e-001
1425085.750	9.193382e-001	3.964756e-001
1431335.688	9.201757e-001	3.946305e-001
1437585.625	9.209930e-001	3.927781e-001
1443835.563	9.218045e-001	3.909634e-001
1450085.500	9.224763e-001	3.890189e-001
1456335.438	9.232637e-001	3.872257e-001
1462585.375	9.240391e-001	3.854382e-001
1468835.313	9.248666e-001	3.836966e-001
1475085.250	9.256460e-001	3.819392e-001
1481335.188	9.264046e-001	3.801883e-001
1487585.125	9.271594e-001	3.784338e-001
1493835.063	9.277591e-001	3.765953e-001
1500085.000	9.284866e-001	3.748632e-001
1506334.938	9.292093e-001	3.731610e-001
1512584.875	9.299098e-001	3.714557e-001
1518834.813	9.306031e-001	3.697708e-001
1525084.750	9.313188e-001	3.680833e-001
1531334.688	9.319945e-001	3.664222e-001
1537584.625	9.326703e-001	3.647776e-001
1543834.563	9.332212e-001	3.629958e-001
1550084.500	9.338684e-001	3.613737e-001
1556334.438	9.345238e-001	3.597317e-001
1562584.375	9.350873e-001	3.581150e-001
1568834.313	9.357491e-001	3.565393e-001
1575084.250	9.364035e-001	3.549367e-001
1581334.188	9.370488e-001	3.533698e-001
1587584.125	9.375244e-001	3.516843e-001
1593834.063	9.381553e-001	3.501180e-001
1600084.000	9.387600e-001	3.485759e-001
1606333.938	9.393382e-001	3.470224e-001
1612583.875	9.399532e-001	3.455016e-001
1618833.813	9.405541e-001	3.439701e-001
1625083.750	9.411288e-001	3.424639e-001
1631333.688	9.417017e-001	3.409556e-001
1637583.625	9.421210e-001	3.393444e-001
1643833.563	9.426897e-001	3.378529e-001
1650083.500	9.432461e-001	3.363707e-001
1656333.438	9.437993e-001	3.349025e-001
1662583.375	9.443678e-001	3.334331e-001
1668833.313	9.448894e-001	3.319764e-001
1675083.250	9.454209e-001	3.305284e-001
1681333.188	9.459511e-001	3.290901e-001
1687583.125	9.463125e-001	3.275645e-001
1693833.063	9.468400e-001	3.261574e-001
1700083.000	9.473468e-001	3.247449e-001
1706332.938	9.478533e-001	3.233339e-001
1712582.875	9.481111e-001	3.217555e-001
1718832.813	9.486041e-001	3.203967e-001
1725082.750	9.490983e-001	3.190158e-001
1731332.688	9.495955e-001	3.176446e-001
1737582.625	9.499350e-001	3.161859e-001
1743832.563	9.504130e-001	3.148268e-001
1750082.500	9.508691e-001	3.134954e-001
1756332.438	9.513507e-001	3.121519e-001
1762582.375	9.518157e-001	3.108214e-001
1768832.313	9.522589e-001	3.095148e-001
1775082.250	9.525663e-001	3.080948e-001
1781332.188	9.530340e-001	3.067866e-001
1787582.125	9.534635e-001	3.054978e-001
1793832.063	9.538967e-001	3.042027e-001
1800082.000	9.543442e-001	3.029202e-001
1806331.938	9.547673e-001	3.016378e-001
1812581.875	9.551838e-001	3.003781e-001
1818831.813	9.554809e-001	2.990265e-001
1825081.750	9.558917e-001	2.977468e-001
1831331.688	9.563074e-001	2.965227e-001
1837581.625	9.567063e-001	2.952775e-001
1843831.563	9.571251e-001	2.940427e-001
1850081.500	9.575083e-001	2.928149e-001
1856331.438	9.577568e-001	2.914914e-001
1862581.375	9.581735e-001	2.902859e-001
1868831.313	9.585468e-001	2.890687e-001
1875081.250	9.588953e-001	2.878331e-001
1881331.188	9.592765e-001	2.866553e-001
1887581.125	9.596583e-001	2.854563e-001
1893831.063	9.600390e-001	2.842730e-001
1900081.000	9.602540e-001	2.830126e-001
1906330.938	9.606296e-001	2.818376e-001
1912580.875	9.610219e-001	2.806568e-001
1918830.813	9.613708e-001	2.795192e-001
1925080.750	9.617115e-001	2.783691e-001
1931330.688	9.620827e-001	2.772236e-001
1937580.625	9.624424e-001	2.760841e-001
1943830.563	9.627862e-001	2.749586e-001
1950080.500	9.629732e-001	2.737397e-001
1956330.438	9.633184e-001	2.726060e-001
1962580.375	9.636572e-001	2.714993e-001
1968830.313	9.639889e-001	2.703837e-001
1975080.250	9.641080e-001	2.691610e-001
1981330.188	9.644635e-001	2.680843e-001
1987580.125	9.647877e-001	2.669772e-001
1993830.063	9.649592e-001	2.657940e-001
2000080.000	9.652879e-001	2.647140e-001
2006329.938	9.656132e-001	2.636431e-001
2012579.875	9.659200e-001	2.625620e-001
2018829.813	9.662416e-001	2.615186e-001
2025079.750	9.665645e-001	2.604468e-001
2031329.688	9.666978e-001	2.592961e-001
2037579.625	9.670249e-001	2.582341e-001
2043829.563	9.673297e-001	2.572058e-001
2050079.500	9.676172e-001	2.561609e-001
2056329.438	9.679203e-001	2.551195e-001
2062579.375	9.682102e-001	2.540843e-001
2068829.313	9.683422e-001	2.529709e-001
2075079.250	9.686187e-001	2.519344e-001
2081329.188	9.689206e-001	2.509336e-001
2087579.125	9.691274e-001	2.498794e-001
2093829.063	9.694332e-001	2.488869e-001
2100079.000	9.696947e-001	2.478721e-001
2106328.938	9.698303e-001	2.468017e-001
2112578.875	9.701258e-001	2.457940e-001
2118828.813	9.703899e-001	2.448210e-001
2125078.750	9.706621e-001	2.438386e-001
2131328.688	9.709363e-001	2.428452e-001
2137578.625	9.711869e-001	2.418790e-001
2143828.563	9.714497e-001	2.408955e-001
2150078.500	9.715502e-001	2.398496e-001
2156328.438	9.717960e-001	2.388960e-001
2162578.375	9.720553e-001	2.379380e-001
2168828.313	9.723103e-001	2.369696e-001
2175078.250	9.725499e-001	2.360264e-001
2181328.188	9.727970e-001	2.350791e-001
2187578.125	9.728983e-001	2.340601e-001
2193828.063	9.731369e-001	2.331275e-001
2200078.000	9.733745e-001	2.322089e-001
2206327.938	9.736168e-001	2.312704e-001
2212577.875	9.739473e-001	2.304058e-001
2218827.813	9.742090e-001	2.295002e-001
2225077.750	9.744462e-001	2.285713e-001
2231327.688	9.745149e-001	2.275910e-001
2237577.625	9.747537e-001	2.266884e-001
2243827.563	9.749890e-001	2.257701e-001
2250077.500	9.752167e-001	2.248929e-001
2256327.438	9.754324e-001	2.239910e-001
2262577.375	9.755018e-001	2.230044e-001
2268827.313	9.757194e-001	2.221186e-001
2275077.250	9.759408e-001	2.212384e-001
2281327.188	9.761496e-001	2.203510e-001
2287577.125	9.763603e-001	2.194648e-001
2293827.063	9.764132e-001	2.185375e-001
2300077.000	9.766212e-001	2.176482e-001
2306326.938	9.768430e-001	2.167913e-001
2312576.875	9.770399e-001	2.159192e-001
2318826.813	9.772571e-001	2.150569e-001
2325076.750	9.774515e-001	2.142006e-001
2331326.688	9.774917e-001	2.132716e-001
2337576.625	9.776977e-001	2.124295e-001
2343826.563	9.778451e-001	2.117028e-001
2350076.500	9.781783e-001	2.107768e-001
2356326.438	9.783911e-001	2.099297e-001
2362576.375	9.785846e-001	2.090981e-001
2368826.313	9.786376e-001	2.081927e-001
2375076.250	9.788267e-001	2.073742e-001
2381326.188	9.790165e-001	2.065514e-001
2387576.125	9.791911e-001	2.057233e-001
2393826.063	9.793856e-001	2.049105e-001
2400076.000	9.795697e-001	2.040942e-001
2406325.938	9.797440e-001	2.032772e-001
2412575.875	9.797533e-001	2.023887e-001
2418825.813	9.799488e-001	2.015841e-001
2425075.750	9.801204e-001	2.007798e-001
2431325.688	9.803055e-001	1.999838e-001
2437575.625	9.804666e-001	1.991886e-001
2443825.563	9.806385e-001	1.983778e-001
2450075.500	9.806550e-001	1.975273e-001
2456325.438	9.808181e-001	1.967423e-001
2462575.375	9.810059e-001	1.959505e-001
2468825.313	9.811608e-001	1.951490e-001
2475075.250	9.811217e-001	1.943075e-001
2481325.188	9.813093e-001	1.935502e-001
2487575.125	9.814832e-001	1.927821e-001
2493825.063	9.816311e-001	1.920066e-001
2500075.000	9.818054e-001	1.912339e-001
2506324.938	9.819403e-001	1.904606e-001
2512574.875	9.821130e-001	1.897114e-001
2518824.813	9.822689e-001	1.889409e-001
2525074.750	9.824029e-001	1.882029e-001
2531324.688	9.825175e-001	1.873992e-001
2537574.625	9.826801e-001	1.866629e-001
2543824.563	9.828380e-001	1.859230e-001
2550074.500	9.829888e-001	1.851766e-001
2556324.438	9.831460e-001	1.844239e-001
2562574.375	9.831334e-001	1.836363e-001
2568824.313	9.832728e-001	1.828940e-001
2575074.250	9.834275e-001	1.821554e-001
2581324.188	9.835635e-001	1.814303e-001
2587574.125	9.837108e-001	1.807003e-001
2593824.063	9.838436e-001	1.799762e-001
2600074.000	9.839913e-001	1.792343e-001
2606323.938	9.841477e-001	1.785309e-001
2612573.875	9.841334e-001	1.777475e-001
2618823.813	9.842907e-001	1.770440e-001
2625073.750	9.844087e-001	1.763347e-001
2631323.688	9.845123e-001	1.756068e-001
2637573.625	9.846607e-001	1.748958e-001
2643823.563	9.847955e-001	1.741994e-001
2650073.500	9.849212e-001	1.734880e-001
2656323.438	9.850601e-001	1.727926e-001
2662573.375	9.851726e-001	1.720861e-001
2668823.313	9.851570e-001	1.713285e-001
2675073.250	9.852700e-001	1.706461e-001
2681323.188	9.854088e-001	1.699352e-001
2687573.125	9.855290e-001	1.692512e-001
2693823.063	9.856406e-001	1.685577e-001
2700073.000	9.857670e-001	1.678799e-001
2706322.938	9.858729e-001	1.671852e-001
2712572.875	9.859927e-001	1.664865e-001
2718822.813	9.861174e-001	1.658197e-001
2725072.750	9.860945e-001	1.650829e-001
2731322.688	9.862188e-001	1.644102e-001
2737572.625	9.863272e-001	1.637452e-001
2743822.563	9.864303e-001	1.630731e-001
2750072.500	9.865416e-001	1.624113e-001
2756322.438	9.866434e-001	1.617283e-001
2762572.375	9.867788e-001	1.610631e-001
2768822.313	9.868821e-001	1.604115e-001
2775072.250	9.869763e-001	1.597396e-001
2781322.188	9.869463e-001	1.590296e-001
2787572.125	9.870557e-001	1.583773e-001
2793822.063	9.871694e-001	1.577179e-001
2800072.000	9.872631e-001	1.570706e-001
2806321.938	9.873861e-001	1.564306e-001
2812571.875	9.874744e-001	1.557689e-001
2818821.813	9.875742e-001	1.551366e-001
2825071.750	9.876764e-001	1.544779e-001
2831321.688	9.877774e-001	1.538337e-001
2837571.625	9.877362e-001	1.531598e-001
2843821.563	9.878243e-001	1.525136e-001
2850071.500	9.879213e-001	1.518907e-001
2856321.438	9.880178e-001	1.512580e-001
2862571.375	9.877827e-001	1.505108e-001
2868821.313	9.876297e-001	1.497986e-001
2875071.250	9.875617e-001	1.491405e-001
2881321.188	9.875652e-001	1.484826e-001
2887571.125	9.875889e-001	1.478592e-001
2893821.063	9.875359e-001	1.471941e-001
2900071.000	9.876262e-001	1.465603e-001
2906320.938	9.877268e-001	1.459389e-001
2912570.875	9.878228e-001	1.453406e-001
2918820.813	9.879105e-001	1.447277e-001
2925070.750	9.880059e-001	1.441114e-001
2931320.688	9.880756e-001	1.434981e-001
2937570.625	9.881947e-001	1.428830e-001
2943820.563	9.882512e-001	1.422720e-001
2950070.500	9.883309e-001	1.416785e-001
2956320.438	9.884128e-001	1.410840e-001
2962570.375	9.883716e-001	1.404448e-001
2968820.313	9.884531e-001	1.398440e-001
2975070.250	9.885293e-001	1.392561e-001
2981320.188	9.886179e-001	1.386615e-001
2987570.125	9.886969e-001	1.380684e-001
2993820.063	9.887746e-001	1.374730e-001
3000070.000	9.888435e-001	1.368711e-001
3006319.938	9.889177e-001	1.362954e-001
3012569.875	9.889960e-001	1.356910e-001
3018819.813	9.890676e-001	1.351136e-001
3025069.750	9.891434e-001	1.345387e-001
3031319.688	9.890969e-001	1.339128e-001
3037569.625	9.891771e-001	1.333382e-001
3043819.563	9.892333e-001	1.327469e-001
3050069.500	9.893105e-001	1.321616e-001
3056319.438	9.893771e-001	1.315906e-001
3062569.375	9.894467e-001	1.310247e-001
3068819.313	9.895135e-001	1.304577e-001
3075069.250	9.895852e-001	1.298772e-001
3081319.188	9.896752e-001	1.293204e-001
3087569.125	9.897181e-001	1.287458e-001
3093819.063	9.896757e-001	1.281592e-001
3100069.000	9.897562e-001	1.275788e-001
3106318.938	9.898090e-001	1.270215e-001
3112568.875	9.898774e-001	1.264588e-001
