"# Channel 1"
"# Trace 4"
Frequency, Formatted Data, Formatted Data
+1.00000000000E+001, -3.80015412357E+003, -1.39091878682E+004
+6.25999375000E+003, -7.39486148618E+000, -2.50379794783E+002
+1.25099875000E+004, -1.42559006195E+000, -1.23700219935E+002
+1.87599812500E+004, -4.48934262514E-001, -8.05069345911E+001
+2.50099750000E+004, -1.04146121237E-001, -5.83003155207E+001
+3.12599687500E+004, +5.90574417659E-002, -4.44985804364E+001
+3.75099625000E+004, +1.53206659682E-001, -3.49045704616E+001
+4.37599562500E+004, +2.12222612869E-001, -2.77162685368E+001
+5.00099500000E+004, +2.51010618792E-001, -2.20406709530E+001
+5.62599437500E+004, +2.78760186719E-001, -1.73618451399E+001
+6.25099375000E+004, +2.98471687929E-001, -1.33856437384E+001
+6.87599312500E+004, +3.12207912234E-001, -9.91918896377E+000
+7.50099250000E+004, +3.19492070987E-001, -6.83631650236E+000
+8.12599187500E+004, +3.26097889530E-001, -4.04498552972E+000
+8.75099125000E+004, +3.28290563834E-001, -1.48426827074E+000
+9.37599062500E+004, +3.20002082469E-001, +9.01370722668E-001
+1.00009900000E+005, +3.20278538821E-001, +3.13139121571E+000
+1.06259893750E+005, +3.18291571867E-001, +5.23899465380E+000
+1.12509887500E+005, +3.17569262208E-001, +7.24390136907E+000
+1.18759881250E+005, +3.15299771325E-001, +9.16346714975E+000
+1.25009875000E+005, +3.12571414965E-001, +1.10107220688E+001
+1.31259868750E+005, +3.09567393123E-001, +1.27948999462E+001
+1.37509862500E+005, +3.05528319259E-001, +1.45278437879E+001
+1.43759856250E+005, +3.03323911857E-001, +1.62114966228E+001
+1.50009850000E+005, +2.99910748496E-001, +1.78555322219E+001
+1.56259843750E+005, +2.97227606958E-001, +1.94642625322E+001
+1.62509837500E+005, +2.94656755457E-001, +2.10400070752E+001
+1.68759831250E+005, +2.90533661623E-001, +2.25923596137E+001
+1.75009825000E+005, +2.88285805823E-001, +2.41134379279E+001
+1.81259818750E+005, +2.84640821526E-001, +2.56163271485E+001
+1.87509812500E+005, +2.83385906103E-001, +2.70950093727E+001
+1.93759806250E+005, +2.81186903033E-001, +2.85584671582E+001
+2.00009800000E+005, +2.78432793108E-001, +3.00056752136E+001
+2.06259793750E+005, +2.76261135846E-001, +3.14359938941E+001
+2.12509787500E+005, +2.73239061869E-001, +3.28537353731E+001
+2.18759781250E+005, +2.71266725312E-001, +3.42647785877E+001
+2.25009775000E+005, +2.68205200716E-001, +3.56565905464E+001
+2.31259768750E+005, +2.66564172689E-001, +3.70459302744E+001
+2.37509762500E+005, +2.62648857881E-001, +3.84175794014E+001
+2.43759756250E+005, +2.61435468348E-001, +3.97881064419E+001
+2.50009750000E+005, +2.59149938946E-001, +4.11504851853E+001
+2.56259743750E+005, +2.57338547504E-001, +4.25049546255E+001
+2.62509737500E+005, +2.54600854437E-001, +4.38452820815E+001
+2.68759731250E+005, +2.50192821569E-001, +4.51863307904E+001
+2.75009725000E+005, +2.49502453082E-001, +4.65211362988E+001
+2.81259718750E+005, +2.48545769415E-001, +4.78597668274E+001
+2.87509712500E+005, +2.46793236818E-001, +4.91853395763E+001
+2.93759706250E+005, +2.47529639969E-001, +5.05146190852E+001
+3.00009700000E+005, +2.48915743438E-001, +5.18400302573E+001
+3.06259693750E+005, +2.46896126533E-001, +5.31524988379E+001
+3.12509687500E+005, +2.43089414602E-001, +5.44614121953E+001
+3.18759681250E+005, +2.45791529919E-001, +5.57765933591E+001
+3.25009675000E+005, +2.44000573028E-001, +5.70788509824E+001
+3.31259668750E+005, +2.40701186927E-001, +5.83782347070E+001
+3.37509662500E+005, +2.37813581596E-001, +5.96748005856E+001
+3.43759656250E+005, +2.38902839074E-001, +6.09798313080E+001
+3.50009650000E+005, +2.38062431587E-001, +6.22722906816E+001
+3.56259643750E+005, +2.34523941793E-001, +6.35624229107E+001
+3.62509637500E+005, +2.31602563975E-001, +6.48517188236E+001
+3.68759631250E+005, +2.35854455220E-001, +6.61525712177E+001
+3.75009625000E+005, +2.32031491010E-001, +6.74373644772E+001
+3.81259618750E+005, +2.26067193606E-001, +6.87221616582E+001
+3.87509612500E+005, +2.21636133836E-001, +7.00057952771E+001
+3.93759606250E+005, +2.24537970737E-001, +7.12968872856E+001
+4.00009600000E+005, +2.19968547331E-001, +7.25789472341E+001
+4.06259593750E+005, +2.15458629794E-001, +7.38582712247E+001
+4.12509587500E+005, +2.19418924357E-001, +7.51496578146E+001
+4.18759581250E+005, +2.16245208184E-001, +7.64273324406E+001
+4.25009575000E+005, +2.09192807616E-001, +7.77059161159E+001
+4.31259568750E+005, +2.13148771730E-001, +7.89968062994E+001
+4.37509562500E+005, +2.08943707442E-001, +8.02740848005E+001
+4.43759556250E+005, +2.01374836420E-001, +8.15499449122E+001
+4.50009550000E+005, +2.09400608377E-001, +8.28447700640E+001
+4.56259543750E+005, +2.00905404365E-001, +8.41191840998E+001
+4.62509537500E+005, +1.95982327911E-001, +8.53953011699E+001
+4.68759531250E+005, +1.90159797472E-001, +8.66718005648E+001
+4.75009525000E+005, +1.95242959517E-001, +8.79621817544E+001
+4.81259518750E+005, +1.87412788183E-001, +8.92386209745E+001
+4.87509512500E+005, +1.84965796256E-001, +9.05202538603E+001
+4.93759506250E+005, +1.75544921674E-001, +9.17950206848E+001
+5.00009500000E+005, +1.80886305826E-001, +9.30872154802E+001
+5.06259493750E+005, +1.73552592173E-001, +9.43634132677E+001
+5.12509487500E+005, +1.80738775781E-001, +9.56581713925E+001
+5.18759481250E+005, +1.72617886045E-001, +9.69348615871E+001
+5.25009475000E+005, +1.67443871576E-001, +9.82226565498E+001
+5.31259468750E+005, +1.73278179994E-001, +9.95169712881E+001
+5.37509462500E+005, +1.65287914898E-001, +1.00797792395E+002
+5.43759456250E+005, +1.53389879219E-001, +1.02079727974E+002
+5.50009450000E+005, +1.45822253710E-001, +1.03362276523E+002
+5.56259443750E+005, +1.35652607971E-001, +1.04642734171E+002
+5.62509437500E+005, +1.26716301667E-001, +1.05931131991E+002
+5.68759431250E+005, +1.20030687027E-001, +1.07216069139E+002
+5.75009425000E+005, +1.32273243424E-001, +1.08523097912E+002
+5.81259418750E+005, +1.39575003965E-001, +1.09830077632E+002
+5.87509412500E+005, +1.28068389525E-001, +1.11117652814E+002
+5.93759406250E+005, +1.17950567943E-001, +1.12406930923E+002
+6.00009400000E+005, +1.07180095467E-001, +1.13696904732E+002
+6.06259393750E+005, +9.76290616542E-002, +1.14989564316E+002
+6.12509387500E+005, +1.07766166361E-001, +1.16301280145E+002
+6.18759381250E+005, +9.97924014676E-002, +1.17598048748E+002
+6.25009375000E+005, +9.18115871337E-002, +1.18900415766E+002
+6.31259368750E+005, +7.93011789214E-002, +1.20194228262E+002
+6.37509362500E+005, +6.47818468854E-002, +1.21494215453E+002
+6.43759356250E+005, +7.82456760919E-002, +1.22816603740E+002
+6.50009350000E+005, +6.92548824721E-002, +1.24118899774E+002
+6.56259343750E+005, +5.23202226449E-002, +1.25420248511E+002
+6.62509337500E+005, +4.60526156284E-002, +1.26726511242E+002
+6.68759331250E+005, +2.93399571752E-002, +1.28034386238E+002
+6.75009325000E+005, +1.69715587499E-002, +1.29340958927E+002
+6.81259318750E+005, +3.48586129612E-002, +1.30672914397E+002
+6.87509312500E+005, +2.25649461649E-002, +1.31988167353E+002
+6.93759306250E+005, +8.50695662851E-003, +1.33298541664E+002
+7.00009300000E+005, -5.20321841417E-003, +1.34615560998E+002
+7.06259293750E+005, -1.80148566403E-002, +1.35929397905E+002
+7.12509287500E+005, +1.91428125685E-003, +1.37279076749E+002
+7.18759281250E+005, -1.12606417080E-002, +1.38597849728E+002
+7.25009275000E+005, -2.79823912183E-002, +1.39921981664E+002
+7.31259268750E+005, -4.03198008113E-002, +1.41245412601E+002
+7.37509262500E+005, -3.56512287544E-001, +1.42351009495E+002
+7.43759256250E+005, -3.65410471626E-001, +1.43686214344E+002
+7.50009250000E+005, -3.46860822792E-001, +1.45050584403E+002
+7.56259243750E+005, -3.54691091354E-001, +1.46393282387E+002
+7.62509237500E+005, -3.62437951880E-001, +1.47739283579E+002
+7.68759231250E+005, -3.70904687836E-001, +1.49089139737E+002
+7.75009225000E+005, -3.47839592326E-001, +1.50468566340E+002
+7.81259218750E+005, -3.54830649750E-001, +1.51822123608E+002
+7.87509212500E+005, -3.81452298093E-001, +1.53151976041E+002
+7.93759206250E+005, -3.86236693255E-001, +1.54505916895E+002
+8.00009200000E+005, -3.98320761793E-001, +1.55863150779E+002
+8.06259193750E+005, -4.13240035217E-001, +1.57223732782E+002
+8.12509187500E+005, -4.23172557377E-001, +1.58582749626E+002
+8.18759181250E+005, -3.83394510423E-001, +1.59971709197E+002
+8.25009175000E+005, -3.96909891975E-001, +1.61338536311E+002
+8.31259168750E+005, -4.11708147747E-001, +1.62699833253E+002
+8.37509162500E+005, -4.21437124042E-001, +1.64074622614E+002
+8.43759156250E+005, -4.28134800131E-001, +1.65446084483E+002
+8.50009150000E+005, -4.38154415972E-001, +1.66830229188E+002
+8.56259143750E+005, -4.49936353390E-001, +1.68211253751E+002
+8.62509137500E+005, -4.53163237169E-001, +1.69592125784E+002
+8.68759131250E+005, -4.66060455975E-001, +1.70976243128E+002
+8.75009125000E+005, -4.73540426765E-001, +1.72354073067E+002
+8.81259118750E+005, -4.43404070852E-001, +1.73776215944E+002
+8.87509112500E+005, -4.52169896076E-001, +1.75169687836E+002
+8.93759106250E+005, -4.64889497542E-001, +1.76569765876E+002
+9.00009100000E+005, -4.72834970884E-001, +1.77967909227E+002
+9.06259093750E+005, -4.80464494285E-001, +1.79375908967E+002
+9.12509087500E+005, -4.69245263405E-001, +1.80784765084E+002
+9.18759081250E+005, -4.79239032750E-001, +1.82188596438E+002
+9.25009075000E+005, -4.92010371758E-001, +1.83592182966E+002
+9.31259068750E+005, -4.98201826461E-001, +1.85006093918E+002
+9.37509062500E+005, -5.13055591344E-001, +1.86408217875E+002
+9.43759056250E+005, -5.20511432361E-001, +1.87819145542E+002
+9.50009050000E+005, -5.33229133881E-001, +1.89240661117E+002
+9.56259043750E+005, -5.43898274809E-001, +1.90655489707E+002
+9.62509037500E+005, -5.61534889012E-001, +1.92074690020E+002
+9.68759031250E+005, -5.75779116717E-001, +1.93507090941E+002
+9.75009025000E+005, -5.21576287943E-001, +1.94966658183E+002
+9.81259018750E+005, -5.41245518013E-001, +1.96405114777E+002
+9.87509012500E+005, -5.56275545427E-001, +1.97852238643E+002
+9.93759006250E+005, -5.74182546292E-001, +1.99294117848E+002
+1.00000900000E+006, -5.92461045517E-001, +2.00729652641E+002
+1.00625899375E+006, -5.97303032582E-001, +2.02186104246E+002
+1.01250898750E+006, -6.22610790356E-001, +2.03637893438E+002
+1.01875898125E+006, -6.40749669715E-001, +2.05091607993E+002
+1.02500897500E+006, -6.55748326367E-001, +2.06556796811E+002
+1.03125896875E+006, -6.71049916771E-001, +2.08010786198E+002
+1.03750896250E+006, -6.89795377563E-001, +2.09473640274E+002
+1.04375895625E+006, -6.74453421909E-001, +2.10961144813E+002
+1.05000895000E+006, -6.98890478005E-001, +2.12434227127E+002
+1.05625894375E+006, -7.21006624006E-001, +2.13908824087E+002
+1.06250893750E+006, -7.48982086123E-001, +2.15383736590E+002
+1.06875893125E+006, -6.89148369222E-001, +2.16911501671E+002
+1.07500892500E+006, -7.15698585347E-001, +2.18390462891E+002
+1.08125891875E+006, -7.39114795118E-001, +2.19883707900E+002
+1.08750891250E+006, -7.58516604591E-001, +2.21382852066E+002
+1.09375890625E+006, -7.89124146285E-001, +2.22884919800E+002
+1.10000890000E+006, -8.12896306879E-001, +2.24403551733E+002
+1.10625889375E+006, -8.29570041634E-001, +2.25914833620E+002
+1.11250888750E+006, -8.63426512253E-001, +2.27432986147E+002
+1.11875888125E+006, -7.81175489712E-001, +2.28988661031E+002
+1.12500887500E+006, -8.04644779785E-001, +2.30512962478E+002
+1.13125886875E+006, -8.22106810194E-001, +2.32035232349E+002
+1.13750886250E+006, -8.57561705677E-001, +2.33567629753E+002
+1.14375885625E+006, -9.50625868775E-001, +2.35047622086E+002
+1.15000885000E+006, -9.87924830028E-001, +2.36581174121E+002
+1.15625884375E+006, -1.01310284951E+000, +2.38118494371E+002
+1.16250883750E+006, -9.37537757207E-001, +2.39693144952E+002
+1.16875883125E+006, -9.65006680197E-001, +2.41232203671E+002
+1.17500882500E+006, -1.00008977920E+000, +2.42791649677E+002
+1.18125881875E+006, -1.03305918694E+000, +2.44348404291E+002
+1.18750881250E+006, -1.06493413056E+000, +2.45917671619E+002
+1.19375880625E+006, -1.10364366795E+000, +2.47486174704E+002
+1.20000880000E+006, -1.01122736041E+000, +2.49098657376E+002
+1.20625879375E+006, -1.04114022751E+000, +2.50680994955E+002
+1.21250878750E+006, -1.08703965108E+000, +2.52259701859E+002
+1.21875878125E+006, -1.12230598396E+000, +2.53856013442E+002
+1.22500877500E+006, -1.15324300834E+000, +2.55451613930E+002
+1.23125876875E+006, -1.17578331443E+000, +2.57041006338E+002
+1.23750876250E+006, -1.09652901436E+000, +2.58701821392E+002
+1.24375875625E+006, -1.13673263247E+000, +2.60299044586E+002
+1.25000875000E+006, -1.20440345856E+000, +2.61925244283E+002
+1.25625874375E+006, -1.25680797102E+000, +2.63536842436E+002
+1.26250873750E+006, -1.28741349483E+000, +2.65158207982E+002
+1.26875873125E+006, -1.19803099034E+000, +2.66835120028E+002
+1.27500872500E+006, -1.23371454460E+000, +2.68460481332E+002
+1.28125871875E+006, -1.26484126066E+000, +2.70094102404E+002
+1.28750871250E+006, -1.30842234210E+000, +2.71745629794E+002
+1.29375870625E+006, -1.34659885965E+000, +2.73397632035E+002
+1.30000870000E+006, -1.36923340056E+000, +2.75052558219E+002
+1.30625869375E+006, -1.26576237615E+000, +2.76749837043E+002
+1.31250868750E+006, -1.31975732530E+000, +2.78423635263E+002
+1.31875868125E+006, -1.35893886191E+000, +2.80096434215E+002
+1.32500867500E+006, -1.38047003292E+000, +2.81773933988E+002
+1.33125866875E+006, -1.44241387128E+000, +2.83464819067E+002
+1.33750866250E+006, -1.47124613347E+000, +2.85121927587E+002
+1.34375865625E+006, -1.35984509833E+000, +2.86875764722E+002
+1.35000865000E+006, -1.40018522159E+000, +2.88579789704E+002
+1.35625864375E+006, -1.44773965829E+000, +2.90277618224E+002
+1.36250863750E+006, -1.49275434487E+000, +2.92003709015E+002
+1.36875863125E+006, -1.52469127297E+000, +2.93714338266E+002
+1.37500862500E+006, -1.58132387186E+000, +2.95428435025E+002
+1.38125861875E+006, -1.47979894387E+000, +2.97198501876E+002
+1.38750861250E+006, -1.51347371942E+000, +2.98940832282E+002
+1.39375860625E+006, -1.55948706115E+000, +3.00700555826E+002
+1.40000860000E+006, -1.61663595103E+000, +3.02443598161E+002
+1.40625859375E+006, -1.66043535043E+000, +3.04195872996E+002
+1.41250858750E+006, -1.54870527212E+000, +3.06018581991E+002
+1.41875858125E+006, -1.60801164439E+000, +3.07770912014E+002
+1.42500857500E+006, -1.65188201187E+000, +3.09549291692E+002
+1.43125856875E+006, -1.71140673167E+000, +3.11331705529E+002
+1.43750856250E+006, -1.75143002027E+000, +3.13138942924E+002
+1.44375855625E+006, -1.78904121386E+000, +3.14925955477E+002
+1.45000855000E+006, -1.66217660450E+000, +3.16800324599E+002
+1.45625854375E+006, -1.70479715568E+000, +3.18598474826E+002
+1.46250853750E+006, -1.75879639068E+000, +3.20425749777E+002
+1.46875853125E+006, -1.83207525359E+000, +3.22235931452E+002
+1.47500852500E+006, -1.89921743967E+000, +3.24079137443E+002
+1.48125851875E+006, -1.95035578373E+000, +3.25927531223E+002
+1.48750851250E+006, -2.02142272885E+000, +3.27780320454E+002
+1.49375850625E+006, -1.87044818427E+000, +3.29687747768E+002
+1.50000850000E+006, -1.91424303466E+000, +3.31544533611E+002
+1.50625849375E+006, -1.96497646295E+000, +3.33425947751E+002
+1.51250848750E+006, -2.01564529273E+000, +3.35299532050E+002
+1.51875848125E+006, -2.07288573360E+000, +3.37171720682E+002
+1.52500847500E+006, -2.13347869300E+000, +3.39069023006E+002
+1.53125846875E+006, -2.18089510490E+000, +3.40988351098E+002
+1.53750846250E+006, -2.24344361538E+000, +3.42867394072E+002
+1.54375845625E+006, -2.09804984659E+000, +3.44876313079E+002
+1.55000845000E+006, -2.13545869006E+000, +3.46801244478E+002
+1.55625844375E+006, -2.20412942263E+000, +3.48721210165E+002
+1.56250843750E+006, -2.16702039319E+000, +3.50666680254E+002
+1.56875843125E+006, -2.26701975021E+000, +3.52602037311E+002
+1.57500842500E+006, -2.33953320609E+000, +3.54563534619E+002
+1.58125841875E+006, -2.41243750273E+000, +3.56520280911E+002
+1.58750841250E+006, -2.26034063822E+000, +3.58568194308E+002
+1.59375840625E+006, -2.30524997160E+000, +3.60546892061E+002
+1.60000840000E+006, -2.38239228899E+000, +3.62535208329E+002
+1.60625839375E+006, -2.43182302995E+000, +3.64531594074E+002
+1.61250838750E+006, -2.50978874512E+000, +3.66547782797E+002
+1.61875838125E+006, -2.57974166934E+000, +3.68598381624E+002
+1.62500837500E+006, -2.64514663983E+000, +3.70619120260E+002
+1.63125836875E+006, -2.72111695929E+000, +3.72676295563E+002
+1.63750836250E+006, -2.50910160270E+000, +3.74812671550E+002
+1.64375835625E+006, -2.59612553975E+000, +3.76884186624E+002
+1.65000835000E+006, -2.65939882667E+000, +3.78953991102E+002
+1.65625834375E+006, -2.70319920866E+000, +3.81044745153E+002
+1.66250833750E+006, -2.78375606077E+000, +3.83148290192E+002
+1.66875833125E+006, -2.81639880451E+000, +3.85245241735E+002
+1.67500832500E+006, -2.87420436193E+000, +3.87366253813E+002
+1.68125831875E+006, -2.96599161529E+000, +3.89468594802E+002
+1.68750831250E+006, -2.72837192025E+000, +3.91666720214E+002
+1.69375830625E+006, -2.80504719484E+000, +3.93820054345E+002
+1.70000830000E+006, -2.87427025149E+000, +3.95972196044E+002
+1.70625829375E+006, -2.93774285726E+000, +3.98149444972E+002
+1.71250828750E+006, -2.56512972523E+000, +4.00438613007E+002
+1.71875828125E+006, -2.63559237774E+000, +4.02616209806E+002
+1.72500827500E+006, -2.70832317586E+000, +4.04817223841E+002
+1.73125826875E+006, -2.78825614544E+000, +4.07020928790E+002
+1.73750826250E+006, -2.58112810828E+000, +4.09309382779E+002
+1.74375825625E+006, -2.64523831559E+000, +4.11525126064E+002
+1.75000825000E+006, -2.69779028078E+000, +4.13766564879E+002
+1.75625824375E+006, -2.80928581989E+000, +4.16012508645E+002
+1.76250823750E+006, -2.87697518977E+000, +4.18308920765E+002
+1.76875823125E+006, -2.91820639818E+000, +4.20539630676E+002
+1.77500822500E+006, -2.70661729515E+000, +4.22924850805E+002
+1.78125821875E+006, -2.77845397249E+000, +4.25202036980E+002
+1.78750821250E+006, -2.86609912124E+000, +4.27486001513E+002
+1.79375820625E+006, -2.91667115772E+000, +4.29811442081E+002
+1.80000820000E+006, -3.01134749947E+000, +4.32158127586E+002
+1.80625819375E+006, -3.04908517055E+000, +4.34512143000E+002
+1.81250818750E+006, -3.15721455248E+000, +4.36820460040E+002
+1.81875818125E+006, -2.91682463823E+000, +4.39303949229E+002
+1.82500817500E+006, -2.94162758882E+000, +4.41706069598E+002
+1.83125816875E+006, -3.04802333674E+000, +4.44098235814E+002
+1.83750816250E+006, -3.10461760430E+000, +4.46499917459E+002
+1.84375815625E+006, -3.23052184474E+000, +4.48908444273E+002
+1.85000815000E+006, -3.28035900085E+000, +4.51334395031E+002
+1.85625814375E+006, -2.99951803135E+000, +4.53894131199E+002
+1.86250813750E+006, -3.08362442907E+000, +4.56347775968E+002
+1.86875813125E+006, -3.15434524185E+000, +4.58829706265E+002
+1.87500812500E+006, -3.13848206172E+000, +4.61330271115E+002
+1.88125811875E+006, -3.18520707148E+000, +4.63779766751E+002
+1.88750811250E+006, -3.25386182303E+000, +4.66313474715E+002
+1.89375810625E+006, -3.37806381586E+000, +4.68848052651E+002
+1.90000810000E+006, -3.05778828416E+000, +4.71508110519E+002
+1.90625809375E+006, -3.15224536239E+000, +4.74067915484E+002
+1.91250808750E+006, -3.25167616561E+000, +4.76654791924E+002
+1.91875808125E+006, -3.32463121460E+000, +4.79219158996E+002
+1.92500807500E+006, -3.39164499683E+000, +4.81800402369E+002
+1.93125806875E+006, -3.48717309698E+000, +4.84422575537E+002
+1.93750806250E+006, -3.58197394020E+000, +4.87060740046E+002
+1.94375805625E+006, -3.72391201029E+000, +4.89688137391E+002
+1.95000805000E+006, -3.35851022389E+000, +4.92447464812E+002
+1.95625804375E+006, -3.44703084356E+000, +4.95137769029E+002
+1.96250803750E+006, -3.51556370437E+000, +4.97795295668E+002
+1.96875803125E+006, -3.62766006280E+000, +5.00492141614E+002
+1.97500802500E+006, -3.10138225716E+000, +5.03392557759E+002
+1.98125801875E+006, -3.27421343388E+000, +5.06113604488E+002
+1.98750801250E+006, -3.40021541968E+000, +5.08898261195E+002
+1.99375800625E+006, -2.99799758179E+000, +5.11788818110E+002
+2.00000800000E+006, -3.07025990964E+000, +5.14551797244E+002
