!Keysight Technologies,E5061B,MY49912438,B.06.30
!Date: Thu Nov 06 22:04:14 2025
!Data & Calibration Information:
!Freq	S11:SOLT1(ON)
# Hz S dB R 50
10.000	1.587605e-002	-3.833140e-001
6259.994	9.845041e-002	-2.256799e+001
12509.987	6.955144e-002	-4.401287e+001
18759.981	4.341587e-002	-6.368474e+001
25009.975	1.533501e-002	-8.123454e+001
31259.969	-1.144983e-002	-9.666361e+001
37509.962	-3.578853e-002	-1.101625e+002
43759.956	-5.640253e-002	-1.219979e+002
50009.950	-7.302104e-002	-1.324220e+002
56259.944	-8.643049e-002	-1.417012e+002
62509.938	-9.676534e-002	-1.500243e+002
68759.931	-1.043659e-001	-1.575575e+002
75009.925	-1.089672e-001	-1.644283e+002
81259.919	-1.125629e-001	-1.707493e+002
87509.912	-1.139610e-001	-1.765992e+002
93759.906	-1.111455e-001	1.779343e+002
100009.900	-1.108429e-001	1.728324e+002
106259.894	-1.093863e-001	1.680363e+002
112509.888	-1.080679e-001	1.635123e+002
118759.881	-1.059877e-001	1.592286e+002
125009.875	-1.035766e-001	1.551608e+002
131259.869	-1.009454e-001	1.512913e+002
137509.862	-9.788820e-002	1.475958e+002
143759.856	-9.536138e-002	1.440704e+002
150009.850	-9.241480e-002	1.406945e+002
156259.844	-8.967789e-002	1.374584e+002
162509.837	-8.697393e-002	1.343561e+002
168759.831	-8.382735e-002	1.313674e+002
175009.825	-8.126102e-002	1.285057e+002
181259.819	-7.833361e-002	1.257443e+002
187509.813	-7.610867e-002	1.230923e+002
193759.806	-7.366296e-002	1.205315e+002
200009.800	-7.112333e-002	1.180618e+002
206259.794	-6.879068e-002	1.156821e+002
212509.787	-6.630559e-002	1.133831e+002
218759.781	-6.413011e-002	1.111536e+002
225009.775	-6.177017e-002	1.090112e+002
231259.769	-5.979084e-002	1.069281e+002
237509.762	-5.737887e-002	1.049252e+002
243759.756	-5.561452e-002	1.029762e+002
250009.750	-5.367865e-002	1.010897e+002
256259.744	-5.190102e-002	9.926347e+001
262509.737	-5.000503e-002	9.750375e+001
268759.731	-4.784749e-002	9.578929e+001
275009.725	-4.646317e-002	9.412762e+001
281259.719	-4.506433e-002	9.250503e+001
287509.712	-4.357642e-002	9.094047e+001
293759.706	-4.255983e-002	8.941262e+001
300009.700	-4.167888e-002	8.792912e+001
306259.694	-4.027094e-002	8.649834e+001
312509.688	-3.862827e-002	8.510830e+001
318759.681	-3.804844e-002	8.374761e+001
325009.675	-3.680713e-002	8.243491e+001
331259.669	-3.538742e-002	8.115847e+001
337509.662	-3.407995e-002	7.991705e+001
343759.656	-3.336917e-002	7.869910e+001
350009.650	-3.242126e-002	7.752323e+001
356259.644	-3.114655e-002	7.637871e+001
362509.637	-2.999914e-002	7.526325e+001
368759.631	-2.979274e-002	7.416561e+001
375009.625	-2.859605e-002	7.310818e+001
381259.619	-2.718620e-002	7.207644e+001
387509.612	-2.601201e-002	7.107051e+001
393759.606	-2.571860e-002	7.008305e+001
400009.600	-2.459692e-002	6.912597e+001
406259.594	-2.352524e-002	6.819351e+001
412509.587	-2.339182e-002	6.727443e+001
418759.581	-2.251822e-002	6.638643e+001
425009.575	-2.128104e-002	6.551838e+001
431259.569	-2.118165e-002	6.466220e+001
437509.563	-2.029149e-002	6.383450e+001
443759.556	-1.911519e-002	6.302646e+001
450009.550	-1.942513e-002	6.222495e+001
456259.544	-1.822296e-002	6.145384e+001
462509.537	-1.738372e-002	6.069880e+001
468759.531	-1.649723e-002	5.996016e+001
475009.525	-1.656537e-002	5.922988e+001
481259.519	-1.555730e-002	5.852327e+001
487509.512	-1.502339e-002	5.782908e+001
493759.506	-1.395493e-002	5.715340e+001
500009.500	-1.407186e-002	5.648308e+001
506259.494	-1.321813e-002	5.583510e+001
512509.487	-1.347475e-002	5.519151e+001
518759.481	-1.260332e-002	5.457018e+001
525009.475	-1.197262e-002	5.395641e+001
531259.469	-1.213413e-002	5.335225e+001
537509.463	-1.134003e-002	5.276664e+001
543759.456	-1.031190e-002	5.219236e+001
550009.450	-9.607232e-003	5.162933e+001
556259.444	-8.760249e-003	5.107840e+001
562509.438	-8.021357e-003	5.053502e+001
568759.431	-7.449455e-003	5.000375e+001
575009.425	-8.047129e-003	4.947396e+001
581259.419	-8.324942e-003	4.895462e+001
587509.412	-7.492268e-003	4.845292e+001
593759.406	-6.768968e-003	4.796015e+001
600009.400	-6.034581e-003	4.747646e+001
606259.394	-5.393477e-003	4.700091e+001
612509.387	-5.840791e-003	4.652744e+001
618759.381	-5.308160e-003	4.606815e+001
625009.375	-4.793233e-003	4.561543e+001
631259.369	-4.064526e-003	4.517396e+001
637509.362	-3.259909e-003	4.473846e+001
643759.356	-3.865083e-003	4.430355e+001
650009.350	-3.359527e-003	4.388304e+001
656259.344	-2.492823e-003	4.347035e+001
662509.337	-2.155260e-003	4.306347e+001
668759.331	-1.348893e-003	4.266329e+001
675009.325	-7.666152e-004	4.227053e+001
681259.319	-1.546726e-003	4.187717e+001
687509.313	-9.838755e-004	4.149556e+001
693759.306	-3.645582e-004	4.112192e+001
700009.300	2.191640e-004	4.075282e+001
706259.294	7.459434e-004	4.039088e+001
712509.287	-7.789558e-005	4.002543e+001
718759.281	4.505369e-004	3.967442e+001
725009.275	1.100870e-003	3.932788e+001
731259.269	1.559952e-003	3.898729e+001
737509.262	1.360322e-002	3.870688e+001
743759.256	1.371268e-002	3.837359e+001
750009.250	1.279874e-002	3.803872e+001
756259.244	1.287366e-002	3.771458e+001
762509.237	1.294074e-002	3.739495e+001
768759.231	1.302846e-002	3.707961e+001
775009.225	1.201746e-002	3.676265e+001
781259.219	1.206267e-002	3.645665e+001
787509.212	1.276505e-002	3.616075e+001
793759.206	1.272100e-002	3.586424e+001
800009.200	1.291274e-002	3.557169e+001
806259.194	1.318674e-002	3.528301e+001
812509.188	1.329407e-002	3.499916e+001
818759.181	1.185473e-002	3.471365e+001
825009.175	1.208371e-002	3.443701e+001
831259.169	1.234339e-002	3.416570e+001
837509.162	1.244214e-002	3.389589e+001
843759.156	1.244865e-002	3.363083e+001
850009.150	1.254681e-002	3.336737e+001
856259.144	1.269060e-002	3.310846e+001
862509.137	1.259090e-002	3.285347e+001
868759.131	1.275688e-002	3.260167e+001
875009.125	1.277123e-002	3.235473e+001
881259.119	1.177845e-002	3.210366e+001
887509.112	1.183530e-002	3.186128e+001
893759.106	1.199029e-002	3.162131e+001
900009.100	1.201832e-002	3.138517e+001
906259.094	1.203504e-002	3.115081e+001
912509.087	1.158450e-002	3.091972e+001
918759.081	1.166231e-002	3.069274e+001
925009.075	1.180332e-002	3.046903e+001
931259.069	1.178226e-002	3.024687e+001
937509.063	1.196390e-002	3.002966e+001
943759.056	1.196811e-002	2.981415e+001
950009.050	1.208899e-002	2.960005e+001
956259.044	1.216027e-002	2.938993e+001
962509.037	1.238147e-002	2.918206e+001
968759.031	1.252001e-002	2.897516e+001
975009.025	1.118268e-002	2.876732e+001
981259.019	1.144534e-002	2.856527e+001
987509.012	1.160201e-002	2.836479e+001
993759.006	1.181305e-002	2.816776e+001
1000009.000	1.202553e-002	2.797424e+001
1006258.994	1.195980e-002	2.778055e+001
1012508.987	1.229948e-002	2.759007e+001
1018758.981	1.248903e-002	2.740190e+001
1025008.975	1.261069e-002	2.721477e+001
1031258.969	1.273499e-002	2.703153e+001
1037508.962	1.291835e-002	2.684960e+001
1043758.956	1.246298e-002	2.666708e+001
1050008.950	1.274542e-002	2.648869e+001
1056258.944	1.297744e-002	2.631244e+001
1062508.938	1.330637e-002	2.613845e+001
1068758.931	1.208020e-002	2.596065e+001
1075008.925	1.238469e-002	2.579072e+001
1081258.919	1.262527e-002	2.562136e+001
1087508.912	1.279028e-002	2.545352e+001
1093758.906	1.313621e-002	2.528750e+001
1100008.900	1.335802e-002	2.512180e+001
1106258.894	1.345873e-002	2.495902e+001
1112508.888	1.383020e-002	2.479756e+001
1118758.881	1.235102e-002	2.463432e+001
1125008.875	1.256192e-002	2.447633e+001
1131258.869	1.267413e-002	2.432054e+001
1137508.863	1.305538e-002	2.416566e+001
1143758.856	1.429833e-002	2.401787e+001
1150008.850	1.467552e-002	2.386663e+001
1156258.844	1.486401e-002	2.371691e+001
1162508.837	1.358275e-002	2.356553e+001
1168758.831	1.381020e-002	2.341933e+001
1175008.825	1.413645e-002	2.327300e+001
1181258.819	1.442445e-002	2.312872e+001
1187508.813	1.468784e-002	2.298505e+001
1193758.806	1.503693e-002	2.284319e+001
1200008.800	1.360691e-002	2.269924e+001
1206258.794	1.383984e-002	2.255963e+001
1212508.787	1.427648e-002	2.242200e+001
1218758.781	1.456175e-002	2.228453e+001
1225008.775	1.478367e-002	2.214877e+001
1231258.769	1.489356e-002	2.201516e+001
1237508.763	1.371833e-002	2.187730e+001
1243758.756	1.405349e-002	2.174625e+001
1250008.750	1.471224e-002	2.161438e+001
1256258.744	1.517167e-002	2.148526e+001
1262508.737	1.535814e-002	2.135689e+001
1268758.731	1.411890e-002	2.122580e+001
1275008.725	1.436979e-002	2.110017e+001
1281258.719	1.456054e-002	2.097537e+001
1287508.712	1.488567e-002	2.085067e+001
1293758.706	1.514137e-002	2.072740e+001
1300008.700	1.521707e-002	2.060536e+001
1306258.694	1.390061e-002	2.048174e+001
1312508.688	1.432525e-002	2.036116e+001
1318758.681	1.458030e-002	2.024206e+001
1325008.675	1.464084e-002	2.012402e+001
1331258.669	1.512130e-002	2.000637e+001
1337508.662	1.525012e-002	1.989241e+001
1343758.656	1.392870e-002	1.977328e+001
1350008.650	1.417793e-002	1.965879e+001
1356258.644	1.449338e-002	1.954600e+001
1362508.638	1.477287e-002	1.943265e+001
1368758.631	1.491861e-002	1.932159e+001
1375008.625	1.529867e-002	1.921155e+001
1381258.619	1.415117e-002	1.909931e+001
1387508.612	1.430954e-002	1.899001e+001
1393758.606	1.457713e-002	1.888086e+001
1400008.600	1.494224e-002	1.877396e+001
1406258.594	1.517539e-002	1.866770e+001
1412508.587	1.399056e-002	1.855853e+001
1418758.581	1.436559e-002	1.845466e+001
1425008.575	1.459273e-002	1.835042e+001
1431258.569	1.495027e-002	1.824710e+001
1437508.563	1.512817e-002	1.814353e+001
1443758.556	1.528245e-002	1.804226e+001
1450008.550	1.403535e-002	1.793733e+001
1456258.544	1.423709e-002	1.783771e+001
1462508.537	1.452495e-002	1.773758e+001
1468758.531	1.496456e-002	1.763947e+001
1475008.525	1.534109e-002	1.754068e+001
1481258.519	1.558006e-002	1.744271e+001
1487508.513	1.596983e-002	1.734558e+001
1493758.506	1.461051e-002	1.724684e+001
1500008.500	1.478929e-002	1.715167e+001
1506258.494	1.501414e-002	1.705629e+001
1512508.487	1.523337e-002	1.696235e+001
1518758.481	1.549619e-002	1.686950e+001
1525008.475	1.577493e-002	1.677642e+001
1531258.469	1.594829e-002	1.668330e+001
1537508.462	1.623007e-002	1.659311e+001
1543758.456	1.500563e-002	1.649789e+001
1550008.450	1.510754e-002	1.640755e+001
1556258.444	1.542554e-002	1.631840e+001
1562508.438	1.500139e-002	1.622910e+001
1568758.431	1.552518e-002	1.614115e+001
1575008.425	1.584841e-002	1.605299e+001
1581258.419	1.616679e-002	1.596599e+001
1587508.412	1.497837e-002	1.587606e+001
1593758.406	1.511190e-002	1.579002e+001
1600008.400	1.544991e-002	1.570446e+001
1606258.394	1.560137e-002	1.561950e+001
1612508.388	1.592810e-002	1.553460e+001
1618758.381	1.619365e-002	1.544919e+001
1625008.375	1.642683e-002	1.536594e+001
1631258.369	1.671583e-002	1.528209e+001
1637508.362	1.524140e-002	1.519613e+001
1643758.356	1.560009e-002	1.511353e+001
1650008.350	1.580916e-002	1.503190e+001
1656258.344	1.589664e-002	1.495035e+001
1662508.337	1.619407e-002	1.486915e+001
1668758.331	1.620903e-002	1.478910e+001
1675008.325	1.636399e-002	1.470899e+001
1681258.319	1.670766e-002	1.463041e+001
1687508.313	1.520000e-002	1.454932e+001
1693758.306	1.545941e-002	1.447058e+001
1700008.300	1.567186e-002	1.439273e+001
1706258.294	1.584592e-002	1.431482e+001
1712508.287	1.368094e-002	1.423402e+001
1718758.281	1.390738e-002	1.415779e+001
1725008.275	1.413848e-002	1.408156e+001
1731258.269	1.440088e-002	1.400605e+001
1737508.263	1.318472e-002	1.392861e+001
1743758.256	1.336918e-002	1.385432e+001
1750008.250	1.348956e-002	1.377998e+001
1756258.244	1.389792e-002	1.370625e+001
1762508.237	1.407912e-002	1.363169e+001
1768758.231	1.413188e-002	1.356005e+001
1775008.225	1.296192e-002	1.348438e+001
1781258.219	1.316572e-002	1.341280e+001
1787508.212	1.343822e-002	1.334175e+001
1793758.206	1.352972e-002	1.327020e+001
1800008.200	1.381957e-002	1.319874e+001
1806258.194	1.384351e-002	1.312786e+001
1812508.188	1.418526e-002	1.305905e+001
1818758.181	1.295943e-002	1.298596e+001
1825008.175	1.292966e-002	1.291593e+001
1831258.169	1.325513e-002	1.284691e+001
1837508.162	1.335817e-002	1.277836e+001
1843758.156	1.375292e-002	1.271032e+001
1850008.150	1.381717e-002	1.264254e+001
1856258.144	1.249395e-002	1.257193e+001
1862508.138	1.270814e-002	1.250485e+001
1868758.131	1.286097e-002	1.243772e+001
1875008.125	1.265956e-002	1.237084e+001
1881258.119	1.271422e-002	1.230599e+001
1887508.112	1.284909e-002	1.223962e+001
1893758.106	1.319729e-002	1.217391e+001
1900008.100	1.181324e-002	1.210586e+001
1906258.094	1.204842e-002	1.204094e+001
1912508.087	1.229536e-002	1.197605e+001
1918758.081	1.243847e-002	1.191240e+001
1925008.075	1.255501e-002	1.184902e+001
1931258.069	1.277070e-002	1.178531e+001
1937508.063	1.297761e-002	1.172189e+001
1943758.056	1.334891e-002	1.165939e+001
1950008.050	1.190604e-002	1.159464e+001
1956258.044	1.208873e-002	1.153204e+001
1962508.037	1.219908e-002	1.147087e+001
1968758.031	1.245407e-002	1.140944e+001
1975008.025	1.052631e-002	1.134429e+001
1981258.019	1.099485e-002	1.128365e+001
1987508.013	1.129451e-002	1.122228e+001
1993758.006	9.847453e-003	1.115941e+001
2000008.000	9.977795e-003	1.109985e+001
2006257.994	1.025267e-002	1.104041e+001
2012507.987	1.041476e-002	1.098051e+001
2018757.981	1.055442e-002	1.092083e+001
2025007.975	1.078616e-002	1.086109e+001
2031257.969	9.371357e-003	1.079946e+001
2037507.962	9.727856e-003	1.073955e+001
2043757.956	9.904207e-003	1.068200e+001
2050007.950	9.967783e-003	1.062404e+001
2056257.944	1.019191e-002	1.056574e+001
2062507.937	1.036889e-002	1.050733e+001
2068757.931	9.034452e-003	1.044835e+001
2075007.925	9.124464e-003	1.039049e+001
2081257.919	9.410770e-003	1.033350e+001
2087507.912	8.791588e-003	1.027644e+001
2093757.906	9.102179e-003	1.022033e+001
2100007.900	9.241633e-003	1.016321e+001
2106257.894	8.038674e-003	1.010647e+001
2112507.887	8.260332e-003	1.004989e+001
2118757.881	8.463008e-003	9.994747e+000
2125007.875	8.459328e-003	9.940068e+000
2131257.869	8.761992e-003	9.884610e+000
2137507.862	8.811068e-003	9.829468e+000
2143757.856	9.023487e-003	9.774978e+000
2150007.850	7.547294e-003	9.719568e+000
2156257.844	7.525580e-003	9.666225e+000
2162507.837	7.811165e-003	9.611395e+000
2168757.831	8.076032e-003	9.557430e+000
2175007.825	8.142681e-003	9.504335e+000
2181257.819	8.207829e-003	9.451077e+000
2187507.813	7.016040e-003	9.396041e+000
2193757.806	7.047168e-003	9.342804e+000
2200007.800	7.320512e-003	9.290812e+000
2206257.794	7.349363e-003	9.238253e+000
2212507.788	8.579003e-003	9.186926e+000
2218757.781	8.947236e-003	9.135146e+000
2225007.775	9.136202e-003	9.082520e+000
2231257.769	7.696528e-003	9.029364e+000
2237507.762	7.856813e-003	8.977604e+000
2243757.756	8.061795e-003	8.924068e+000
2250007.750	8.238770e-003	8.873771e+000
2256257.744	8.322753e-003	8.823165e+000
2262507.737	6.923410e-003	8.770014e+000
2268757.731	7.020145e-003	8.718558e+000
2275007.725	7.267672e-003	8.668394e+000
2281257.719	7.248123e-003	8.620097e+000
2287507.712	7.290153e-003	8.571391e+000
2293757.706	5.987570e-003	8.520237e+000
2300007.700	6.006714e-003	8.469880e+000
2306257.694	6.149907e-003	8.420682e+000
2312507.688	6.121116e-003	8.371573e+000
2318757.681	6.358143e-003	8.321671e+000
2325007.675	6.441410e-003	8.273138e+000
2331257.669	5.027472e-003	8.222811e+000
2337507.663	5.114810e-003	8.174279e+000
2343757.656	5.059284e-003	8.125465e+000
2350007.650	5.969917e-003	8.078612e+000
2356257.644	6.256740e-003	8.030112e+000
2362507.637	6.418572e-003	7.982185e+000
2368757.631	5.082216e-003	7.932910e+000
2375007.625	5.215715e-003	7.884893e+000
2381257.619	5.222566e-003	7.837741e+000
2387507.612	5.269462e-003	7.789805e+000
2393757.606	5.347208e-003	7.742786e+000
2400007.600	5.435333e-003	7.696706e+000
2406257.594	5.507385e-003	7.649886e+000
2412507.587	4.101828e-003	7.600871e+000
2418757.581	4.273268e-003	7.554532e+000
2425007.575	4.222892e-003	7.508029e+000
2431257.569	4.485498e-003	7.462345e+000
2437507.563	4.431233e-003	7.416197e+000
2443757.556	4.518975e-003	7.370058e+000
2450007.550	3.116387e-003	7.321927e+000
2456257.544	3.131347e-003	7.276541e+000
2462507.537	3.183165e-003	7.231277e+000
2468757.531	3.159917e-003	7.185578e+000
2475007.525	1.459812e-003	7.138813e+000
2481257.519	1.680205e-003	7.093972e+000
2487507.512	1.825124e-003	7.048583e+000
2493757.506	1.725569e-003	7.003962e+000
2500007.500	1.915752e-003	6.958531e+000
2506257.494	1.901069e-003	6.914349e+000
2512507.487	1.925009e-003	6.870567e+000
2518757.481	2.086132e-003	6.825179e+000
2525007.475	2.061190e-003	6.781432e+000
2531257.469	1.551485e-003	6.736419e+000
2537507.462	1.783003e-003	6.693000e+000
2543757.456	1.894560e-003	6.649007e+000
2550007.450	1.944599e-003	6.604807e+000
2556257.444	2.090401e-003	6.561156e+000
2562507.438	6.116276e-004	6.516694e+000
2568757.431	5.985048e-004	6.472362e+000
2575007.425	6.641276e-004	6.429845e+000
2581257.419	6.687354e-004	6.386246e+000
2587507.412	7.084647e-004	6.343164e+000
2593757.406	7.177675e-004	6.300526e+000
2600007.400	8.581629e-004	6.257592e+000
2606257.394	1.092771e-003	6.214808e+000
2612507.387	-3.608714e-004	6.171185e+000
2618757.381	-1.761934e-004	6.128721e+000
2625007.375	-3.117340e-004	6.087040e+000
2631257.369	-4.682536e-004	6.044671e+000
2637507.362	-3.610273e-004	6.002054e+000
2643757.356	-2.549886e-004	5.959936e+000
2650007.350	-3.698458e-004	5.918087e+000
2656257.344	-3.578516e-004	5.876194e+000
2662507.337	-3.269373e-004	5.835310e+000
2668757.331	-1.721561e-003	5.791868e+000
2675007.325	-1.737995e-003	5.750493e+000
2681257.319	-1.745298e-003	5.708810e+000
2687507.313	-1.627930e-003	5.667905e+000
2693757.306	-1.654850e-003	5.626935e+000
2700007.300	-1.602059e-003	5.585430e+000
2706257.294	-1.773521e-003	5.543685e+000
2712507.287	-1.883093e-003	5.502168e+000
2718757.281	-1.808369e-003	5.461691e+000
2725007.275	-3.263237e-003	5.419371e+000
2731257.269	-3.091641e-003	5.379225e+000
2737507.262	-3.187849e-003	5.338786e+000
2743757.256	-3.153536e-003	5.298787e+000
2750007.250	-3.269122e-003	5.259460e+000
2756257.244	-3.368505e-003	5.218182e+000
2762507.237	-3.234394e-003	5.177527e+000
2768757.231	-3.347649e-003	5.138294e+000
2775007.225	-3.522517e-003	5.097105e+000
2781257.219	-4.854440e-003	5.057003e+000
2787507.212	-5.052085e-003	5.017302e+000
2793757.206	-4.856389e-003	4.976861e+000
2800007.200	-4.967390e-003	4.937580e+000
2806257.194	-4.901120e-003	4.898422e+000
2812507.188	-4.969685e-003	4.858049e+000
2818757.181	-5.032301e-003	4.819435e+000
2825007.175	-5.102488e-003	4.780615e+000
2831257.169	-5.312509e-003	4.740983e+000
2837507.162	-6.577606e-003	4.701003e+000
2843757.156	-6.615949e-003	4.660527e+000
2850007.150	-6.683399e-003	4.622587e+000
2856257.144	-6.610133e-003	4.583260e+000
2862507.137	-9.869880e-003	4.542239e+000
2868757.131	-1.225077e-002	4.502200e+000
2875007.125	-1.365234e-002	4.463135e+000
2881257.119	-1.450296e-002	4.424484e+000
2887507.112	-1.502605e-002	4.386217e+000
2893757.106	-1.660654e-002	4.347012e+000
2900007.100	-1.661466e-002	4.308140e+000
2906257.094	-1.667648e-002	4.268848e+000
2912507.087	-1.672722e-002	4.231501e+000
2918757.081	-1.675815e-002	4.193782e+000
2925007.075	-1.682631e-002	4.155268e+000
2931257.069	-1.707541e-002	4.116084e+000
2937507.063	-1.703665e-002	4.078440e+000
2943757.056	-1.727074e-002	4.040150e+000
2950007.050	-1.728475e-002	4.002002e+000
2956257.044	-1.736693e-002	3.964833e+000
2962507.037	-1.850540e-002	3.926671e+000
2968757.031	-1.864716e-002	3.887991e+000
2975007.025	-1.881518e-002	3.851484e+000
2981257.019	-1.874440e-002	3.813299e+000
2987507.012	-1.883211e-002	3.775861e+000
2993757.006	-1.900863e-002	3.738411e+000
3000007.000	-1.912695e-002	3.701218e+000
3006256.994	-1.923096e-002	3.664856e+000
3012506.987	-1.935016e-002	3.626860e+000
3018756.981	-1.944493e-002	3.590099e+000
3025006.975	-1.960621e-002	3.553352e+000
3031256.969	-2.069434e-002	3.515266e+000
3037506.962	-2.076282e-002	3.478381e+000
3043756.956	-2.096610e-002	3.441503e+000
3050006.950	-2.098513e-002	3.404686e+000
3056256.944	-2.125362e-002	3.367389e+000
3062506.938	-2.141798e-002	3.331508e+000
3068756.931	-2.163205e-002	3.295096e+000
3075006.925	-2.161340e-002	3.257218e+000
3081256.919	-2.158395e-002	3.220825e+000
3087506.912	-2.182133e-002	3.183909e+000
