!Keysight Technologies,E5061B,MY49912438,B.06.30
!Date: Thu Nov 06 21:49:35 2025
!Data & Calibration Information:
!Freq	S11:SOLT1(ON)
# Hz S dB R 50
10.000	1.608681e-002	-3.822562e-001
6259.994	9.796637e-002	-2.251288e+001
12509.987	6.814747e-002	-4.361606e+001
18759.981	4.129856e-002	-6.251528e+001
25009.975	1.349050e-002	-7.888128e+001
31259.969	-1.214315e-002	-9.281732e+001
37509.962	-3.495701e-002	-1.046301e+002
43759.956	-5.427628e-002	-1.146753e+002
50009.950	-7.013999e-002	-1.232689e+002
56259.944	-8.333030e-002	-1.307177e+002
62509.938	-9.409869e-002	-1.372362e+002
68759.931	-1.028787e-001	-1.430032e+002
75009.925	-1.093447e-001	-1.481526e+002
81259.919	-1.150459e-001	-1.528078e+002
87509.912	-1.189707e-001	-1.570443e+002
93759.906	-1.189071e-001	-1.609434e+002
100009.900	-1.214405e-001	-1.645472e+002
106259.894	-1.229003e-001	-1.678993e+002
112509.888	-1.252388e-001	-1.710440e+002
118759.881	-1.262458e-001	-1.740018e+002
125009.875	-1.270568e-001	-1.768011e+002
131259.869	-1.278539e-001	-1.794599e+002
137509.862	-1.276832e-001	1.780039e+002
143759.856	-1.286495e-001	1.755777e+002
150009.850	-1.287512e-001	1.732496e+002
156259.844	-1.291702e-001	1.710088e+002
162509.837	-1.293736e-001	1.688487e+002
168759.831	-1.288532e-001	1.667566e+002
175009.825	-1.295411e-001	1.647364e+002
181259.819	-1.293197e-001	1.627732e+002
187509.813	-1.300507e-001	1.608681e+002
193759.806	-1.303534e-001	1.590137e+002
200009.800	-1.304680e-001	1.572071e+002
206259.794	-1.308772e-001	1.554470e+002
212509.787	-1.311880e-001	1.537268e+002
218759.781	-1.308965e-001	1.520433e+002
225009.775	-1.314012e-001	1.504028e+002
231259.769	-1.313822e-001	1.487920e+002
237509.762	-1.318345e-001	1.472201e+002
243759.756	-1.318454e-001	1.456741e+002
250009.750	-1.317277e-001	1.441588e+002
256259.744	-1.319646e-001	1.426730e+002
262509.737	-1.324196e-001	1.412210e+002
268759.731	-1.325795e-001	1.397908e+002
275009.725	-1.328459e-001	1.383841e+002
281259.719	-1.324873e-001	1.369965e+002
287509.712	-1.328003e-001	1.356392e+002
293759.706	-1.327985e-001	1.342978e+002
300009.700	-1.329057e-001	1.329782e+002
306259.694	-1.330150e-001	1.316886e+002
312509.688	-1.330411e-001	1.304194e+002
318759.681	-1.332538e-001	1.291623e+002
325009.675	-1.335738e-001	1.279331e+002
331259.669	-1.338567e-001	1.267237e+002
337509.662	-1.342480e-001	1.255321e+002
343759.656	-1.341773e-001	1.243515e+002
350009.650	-1.348680e-001	1.231960e+002
356259.644	-1.350400e-001	1.220585e+002
362509.637	-1.353361e-001	1.209366e+002
368759.631	-1.355057e-001	1.198227e+002
375009.625	-1.356382e-001	1.187341e+002
381259.619	-1.356580e-001	1.176628e+002
387509.612	-1.358453e-001	1.166050e+002
393759.606	-1.361605e-001	1.155569e+002
400009.600	-1.363529e-001	1.145301e+002
406259.594	-1.366699e-001	1.135183e+002
412509.587	-1.369272e-001	1.125127e+002
418759.581	-1.372975e-001	1.115284e+002
425009.575	-1.374521e-001	1.105596e+002
431259.569	-1.377877e-001	1.095943e+002
437509.563	-1.379569e-001	1.086515e+002
443759.556	-1.379515e-001	1.077228e+002
450009.550	-1.382753e-001	1.067937e+002
456259.544	-1.382580e-001	1.058913e+002
462509.537	-1.385681e-001	1.049989e+002
468759.531	-1.388229e-001	1.041180e+002
475009.525	-1.392373e-001	1.032421e+002
481259.519	-1.392747e-001	1.023862e+002
487509.512	-1.396149e-001	1.015397e+002
493759.506	-1.395893e-001	1.007074e+002
500009.500	-1.397494e-001	9.987595e+001
506259.494	-1.398277e-001	9.906509e+001
512509.487	-1.401626e-001	9.825480e+001
518759.481	-1.402838e-001	9.746595e+001
525009.475	-1.402788e-001	9.668194e+001
531259.469	-1.405510e-001	9.590419e+001
537509.463	-1.405565e-001	9.514314e+001
543759.456	-1.405598e-001	9.439484e+001
550009.450	-1.407262e-001	9.365488e+001
556259.444	-1.407074e-001	9.292544e+001
562509.438	-1.404349e-001	9.220197e+001
568759.431	-1.407544e-001	9.148994e+001
575009.425	-1.412146e-001	9.077646e+001
581259.419	-1.415045e-001	9.007374e+001
587509.412	-1.415266e-001	8.938846e+001
593759.406	-1.415092e-001	8.871268e+001
600009.400	-1.413979e-001	8.804428e+001
606259.394	-1.413917e-001	8.738530e+001
612509.387	-1.418400e-001	8.672444e+001
618759.381	-1.418901e-001	8.607970e+001
625009.375	-1.417157e-001	8.544034e+001
631259.369	-1.415605e-001	8.481377e+001
637509.362	-1.415618e-001	8.419415e+001
643759.356	-1.420215e-001	8.357096e+001
650009.350	-1.420821e-001	8.296518e+001
656259.344	-1.417144e-001	8.236937e+001
662509.337	-1.416915e-001	8.177755e+001
668759.331	-1.416311e-001	8.119412e+001
675009.325	-1.414134e-001	8.061797e+001
681259.319	-1.420987e-001	8.003889e+001
687509.313	-1.419378e-001	7.947589e+001
693759.306	-1.416844e-001	7.892035e+001
700009.300	-1.417021e-001	7.836945e+001
706259.294	-1.415743e-001	7.782757e+001
712509.287	-1.422261e-001	7.728017e+001
718759.281	-1.419357e-001	7.675065e+001
725009.275	-1.417857e-001	7.622437e+001
731259.269	-1.416763e-001	7.570733e+001
737509.262	-1.215570e-001	7.529338e+001
743759.256	-1.215178e-001	7.478327e+001
750009.250	-1.222670e-001	7.426910e+001
756259.244	-1.223900e-001	7.376904e+001
762509.237	-1.225675e-001	7.327484e+001
768759.231	-1.228937e-001	7.278583e+001
775009.225	-1.235779e-001	7.229396e+001
781259.219	-1.237410e-001	7.181598e+001
787509.212	-1.240870e-001	7.135029e+001
793759.206	-1.243900e-001	7.088498e+001
800009.200	-1.244137e-001	7.042406e+001
806259.194	-1.244720e-001	6.996909e+001
812509.188	-1.245781e-001	6.951831e+001
818759.181	-1.256733e-001	6.906475e+001
825009.175	-1.256936e-001	6.862462e+001
831259.169	-1.257853e-001	6.818970e+001
837509.162	-1.258661e-001	6.775753e+001
843759.156	-1.261764e-001	6.733209e+001
850009.150	-1.261030e-001	6.690827e+001
856259.144	-1.261897e-001	6.649182e+001
862509.137	-1.265332e-001	6.607839e+001
868759.131	-1.265501e-001	6.566961e+001
875009.125	-1.267825e-001	6.526676e+001
881259.119	-1.275404e-001	6.485860e+001
887509.112	-1.276507e-001	6.446370e+001
893759.106	-1.276999e-001	6.407139e+001
900009.100	-1.281608e-001	6.368516e+001
906259.094	-1.282404e-001	6.330066e+001
912509.087	-1.284641e-001	6.292003e+001
918759.081	-1.286564e-001	6.254576e+001
925009.075	-1.290219e-001	6.217529e+001
931259.069	-1.290595e-001	6.180836e+001
937509.063	-1.291766e-001	6.144693e+001
943759.056	-1.294626e-001	6.108821e+001
950009.050	-1.294360e-001	6.073246e+001
956259.044	-1.297441e-001	6.037986e+001
962509.037	-1.296421e-001	6.003265e+001
968759.031	-1.296815e-001	5.968694e+001
975009.025	-1.306270e-001	5.933715e+001
981259.019	-1.307271e-001	5.899967e+001
987509.012	-1.307056e-001	5.866376e+001
993759.006	-1.306753e-001	5.833146e+001
1000009.000	-1.306233e-001	5.800326e+001
1006258.994	-1.308413e-001	5.767812e+001
1012508.987	-1.308454e-001	5.735686e+001
1018758.981	-1.309017e-001	5.703766e+001
1025008.975	-1.308957e-001	5.672140e+001
1031258.969	-1.308533e-001	5.640855e+001
1037508.962	-1.308475e-001	5.609936e+001
1043758.956	-1.313584e-001	5.578860e+001
1050008.950	-1.312372e-001	5.548575e+001
1056258.944	-1.311337e-001	5.518286e+001
1062508.938	-1.310337e-001	5.488645e+001
1068758.931	-1.321127e-001	5.458220e+001
1075008.925	-1.319437e-001	5.429066e+001
1081258.919	-1.318044e-001	5.400060e+001
1087508.912	-1.318854e-001	5.371246e+001
1093758.906	-1.317125e-001	5.342820e+001
1100008.900	-1.315230e-001	5.314505e+001
1106258.894	-1.315606e-001	5.286570e+001
1112508.888	-1.314980e-001	5.258852e+001
1118758.881	-1.326496e-001	5.230728e+001
1125008.875	-1.325341e-001	5.203533e+001
1131258.869	-1.325465e-001	5.176559e+001
1137508.863	-1.324319e-001	5.149811e+001
1143758.856	-1.312940e-001	5.124291e+001
1150008.850	-1.311687e-001	5.098168e+001
1156258.844	-1.309827e-001	5.072246e+001
1162508.837	-1.321257e-001	5.045913e+001
1168758.831	-1.322952e-001	5.020457e+001
1175008.825	-1.318128e-001	4.995077e+001
1181258.819	-1.316794e-001	4.970010e+001
1187508.813	-1.315582e-001	4.945202e+001
1193758.806	-1.313136e-001	4.920490e+001
1200008.800	-1.323640e-001	4.895452e+001
1206258.794	-1.322172e-001	4.871113e+001
1212508.787	-1.319118e-001	4.847058e+001
1218758.781	-1.317273e-001	4.823226e+001
1225008.775	-1.315440e-001	4.799690e+001
1231258.769	-1.313867e-001	4.776263e+001
1237508.763	-1.324431e-001	4.752335e+001
1243758.756	-1.322732e-001	4.729244e+001
1250008.750	-1.322137e-001	4.706213e+001
1256258.744	-1.319400e-001	4.683627e+001
1262508.737	-1.317055e-001	4.661080e+001
1268758.731	-1.327142e-001	4.638194e+001
1275008.725	-1.325503e-001	4.616149e+001
1281258.719	-1.324557e-001	4.594251e+001
1287508.712	-1.321321e-001	4.572498e+001
1293758.706	-1.320803e-001	4.551007e+001
1300008.700	-1.319402e-001	4.529589e+001
1306258.694	-1.330667e-001	4.507739e+001
1312508.688	-1.326892e-001	4.486719e+001
1318758.681	-1.326126e-001	4.465753e+001
1325008.675	-1.324347e-001	4.445114e+001
1331258.669	-1.320863e-001	4.424587e+001
1337508.662	-1.321079e-001	4.404287e+001
1343758.656	-1.330567e-001	4.383441e+001
1350008.650	-1.328463e-001	4.363305e+001
1356258.644	-1.326678e-001	4.343540e+001
1362508.638	-1.323384e-001	4.323640e+001
1368758.631	-1.322364e-001	4.304102e+001
1375008.625	-1.319635e-001	4.284734e+001
1381258.619	-1.329744e-001	4.264844e+001
1387508.612	-1.326354e-001	4.245685e+001
1393758.606	-1.324034e-001	4.226586e+001
1400008.600	-1.321962e-001	4.207800e+001
1406258.594	-1.320559e-001	4.189079e+001
1412508.587	-1.328935e-001	4.169904e+001
1418758.581	-1.325607e-001	4.151368e+001
1425008.575	-1.323343e-001	4.133189e+001
1431258.569	-1.319105e-001	4.114979e+001
1437508.563	-1.317989e-001	4.096877e+001
1443758.556	-1.316272e-001	4.078999e+001
1450008.550	-1.326773e-001	4.060689e+001
1456258.544	-1.324081e-001	4.043013e+001
1462508.537	-1.321876e-001	4.025450e+001
1468758.531	-1.308517e-001	4.008190e+001
1475008.525	-1.304660e-001	3.990973e+001
1481258.519	-1.303007e-001	3.973709e+001
1487508.513	-1.300457e-001	3.956684e+001
1493758.506	-1.310664e-001	3.939256e+001
1500008.500	-1.310457e-001	3.922483e+001
1506258.494	-1.308540e-001	3.905688e+001
1512508.487	-1.306019e-001	3.889152e+001
1518758.481	-1.304752e-001	3.872671e+001
1525008.475	-1.302515e-001	3.856323e+001
1531258.469	-1.300698e-001	3.840114e+001
1537508.462	-1.299111e-001	3.824005e+001
1543758.456	-1.308552e-001	3.807287e+001
1550008.450	-1.308445e-001	3.791442e+001
1556258.444	-1.307495e-001	3.775732e+001
1562508.438	-1.311080e-001	3.760060e+001
1568758.431	-1.306336e-001	3.744623e+001
1575008.425	-1.302529e-001	3.729136e+001
1581258.419	-1.298317e-001	3.713851e+001
1587508.412	-1.308718e-001	3.697998e+001
1593758.406	-1.306075e-001	3.682881e+001
1600008.400	-1.304356e-001	3.667909e+001
1606258.394	-1.302998e-001	3.652880e+001
1612508.388	-1.300147e-001	3.638026e+001
1618758.381	-1.297208e-001	3.623189e+001
1625008.375	-1.295182e-001	3.608537e+001
1631258.369	-1.293734e-001	3.593958e+001
1637508.362	-1.305560e-001	3.578797e+001
1643758.356	-1.303238e-001	3.564480e+001
1650008.350	-1.301361e-001	3.550145e+001
1656258.344	-1.301330e-001	3.536087e+001
1662508.337	-1.298293e-001	3.521825e+001
1668758.331	-1.298365e-001	3.507788e+001
1675008.325	-1.297168e-001	3.493864e+001
1681258.319	-1.293944e-001	3.480025e+001
1687508.313	-1.306926e-001	3.465785e+001
1693758.306	-1.305413e-001	3.452118e+001
1700008.300	-1.303235e-001	3.438620e+001
1706258.294	-1.302470e-001	3.425040e+001
1712508.287	-1.325958e-001	3.410710e+001
1718758.281	-1.324675e-001	3.397427e+001
1725008.275	-1.320612e-001	3.384142e+001
1731258.269	-1.319535e-001	3.371008e+001
1737508.263	-1.331190e-001	3.357502e+001
1743758.256	-1.329392e-001	3.344488e+001
1750008.250	-1.327992e-001	3.331597e+001
1756258.244	-1.325187e-001	3.318819e+001
1762508.237	-1.321766e-001	3.305950e+001
1768758.231	-1.321480e-001	3.293342e+001
1775008.225	-1.332460e-001	3.280321e+001
1781258.219	-1.329969e-001	3.267825e+001
1787508.212	-1.328756e-001	3.255404e+001
1793758.206	-1.326555e-001	3.243071e+001
1800008.200	-1.324567e-001	3.230802e+001
1806258.194	-1.323990e-001	3.218502e+001
1812508.188	-1.320920e-001	3.206458e+001
1818758.181	-1.331224e-001	3.193921e+001
1825008.175	-1.330305e-001	3.181777e+001
1831258.169	-1.327769e-001	3.169921e+001
1837508.162	-1.326225e-001	3.158040e+001
1843758.156	-1.322097e-001	3.146250e+001
1850008.150	-1.322240e-001	3.134573e+001
1856258.144	-1.334705e-001	3.122413e+001
1862508.138	-1.332038e-001	3.110850e+001
1868758.131	-1.332202e-001	3.099294e+001
1875008.125	-1.330705e-001	3.087800e+001
1881258.119	-1.329709e-001	3.076454e+001
1887508.112	-1.328608e-001	3.065298e+001
1893758.106	-1.325880e-001	3.053939e+001
1900008.100	-1.336883e-001	3.042208e+001
1906258.094	-1.336253e-001	3.031025e+001
1912508.087	-1.331435e-001	3.019922e+001
1918758.081	-1.331322e-001	3.009016e+001
1925008.075	-1.330571e-001	2.998083e+001
1931258.069	-1.327847e-001	2.987212e+001
1937508.063	-1.327006e-001	2.976502e+001
1943758.056	-1.322952e-001	2.965770e+001
1950008.050	-1.335492e-001	2.954564e+001
1956258.044	-1.332376e-001	2.943865e+001
1962508.037	-1.331012e-001	2.933298e+001
1968758.031	-1.327689e-001	2.922827e+001
1975008.025	-1.345057e-001	2.911706e+001
1981258.019	-1.339777e-001	2.901366e+001
1987508.013	-1.337947e-001	2.891062e+001
1993758.006	-1.350269e-001	2.880271e+001
2000008.000	-1.347444e-001	2.870111e+001
2006257.994	-1.344828e-001	2.859913e+001
2012507.987	-1.342409e-001	2.849693e+001
2018757.981	-1.340133e-001	2.839711e+001
2025007.975	-1.338036e-001	2.829664e+001
2031257.969	-1.350513e-001	2.819186e+001
2037507.962	-1.347489e-001	2.809290e+001
2043757.956	-1.345410e-001	2.799500e+001
2050007.950	-1.344899e-001	2.789713e+001
2056257.944	-1.341025e-001	2.779834e+001
2062507.937	-1.339055e-001	2.770122e+001
2068757.931	-1.351819e-001	2.760059e+001
2075007.925	-1.351769e-001	2.750349e+001
2081257.919	-1.347829e-001	2.740884e+001
2087507.912	-1.352531e-001	2.731203e+001
2093757.906	-1.350528e-001	2.721720e+001
2100007.900	-1.347469e-001	2.712339e+001
2106257.894	-1.358130e-001	2.702677e+001
2112507.887	-1.355838e-001	2.693225e+001
2118757.881	-1.353838e-001	2.684001e+001
2125007.875	-1.352043e-001	2.674784e+001
2131257.869	-1.348815e-001	2.665637e+001
2137507.862	-1.347849e-001	2.656480e+001
2143757.856	-1.344768e-001	2.647336e+001
2150007.850	-1.357072e-001	2.637889e+001
2156257.844	-1.357419e-001	2.628941e+001
2162507.837	-1.353326e-001	2.619963e+001
2168757.831	-1.352325e-001	2.610979e+001
2175007.825	-1.350910e-001	2.602087e+001
2181257.819	-1.349430e-001	2.593316e+001
2187507.813	-1.359767e-001	2.584135e+001
2193757.806	-1.358835e-001	2.575344e+001
2200007.800	-1.356943e-001	2.566722e+001
2206257.794	-1.354824e-001	2.558045e+001
2212507.788	-1.342742e-001	2.549640e+001
2218757.781	-1.338725e-001	2.541124e+001
2225007.775	-1.336057e-001	2.532517e+001
2231257.769	-1.347963e-001	2.523670e+001
2237507.762	-1.345303e-001	2.515198e+001
2243757.756	-1.344063e-001	2.506700e+001
2250007.750	-1.341129e-001	2.498454e+001
2256257.744	-1.339168e-001	2.490117e+001
2262507.737	-1.352315e-001	2.481320e+001
2268757.731	-1.351238e-001	2.472977e+001
2275007.725	-1.348253e-001	2.464838e+001
2281257.719	-1.346935e-001	2.456622e+001
2287507.712	-1.344841e-001	2.448441e+001
2293757.706	-1.357213e-001	2.440061e+001
2300007.700	-1.355854e-001	2.431777e+001
2306257.694	-1.355010e-001	2.423801e+001
2312507.688	-1.353518e-001	2.415830e+001
2318757.681	-1.351206e-001	2.407881e+001
2325007.675	-1.350010e-001	2.399860e+001
2331257.669	-1.362258e-001	2.391667e+001
2337507.663	-1.362161e-001	2.383795e+001
2343757.656	-1.361129e-001	2.375914e+001
2350007.650	-1.351678e-001	2.368350e+001
2356257.644	-1.348865e-001	2.360545e+001
2362507.637	-1.347855e-001	2.352876e+001
2368757.631	-1.359376e-001	2.344860e+001
2375007.625	-1.357404e-001	2.337213e+001
2381257.619	-1.355201e-001	2.329606e+001
2387507.612	-1.354537e-001	2.321932e+001
2393757.606	-1.352245e-001	2.314476e+001
2400007.600	-1.351259e-001	2.306966e+001
2406257.594	-1.349608e-001	2.299470e+001
2412507.587	-1.362568e-001	2.291614e+001
2418757.581	-1.361092e-001	2.284219e+001
2425007.575	-1.359217e-001	2.276833e+001
2431257.569	-1.357291e-001	2.269519e+001
2437507.563	-1.356669e-001	2.262175e+001
2443757.556	-1.354618e-001	2.254850e+001
2450007.550	-1.367400e-001	2.247152e+001
2456257.544	-1.366892e-001	2.239996e+001
2462507.537	-1.365216e-001	2.232763e+001
2468757.531	-1.364104e-001	2.225581e+001
2475007.525	-1.379551e-001	2.218106e+001
2481257.519	-1.376416e-001	2.210920e+001
2487507.512	-1.374773e-001	2.203986e+001
2493757.506	-1.374607e-001	2.196814e+001
2500007.500	-1.371443e-001	2.189748e+001
2506257.494	-1.371224e-001	2.182716e+001
2512507.487	-1.368586e-001	2.175804e+001
2518757.481	-1.367566e-001	2.168836e+001
2525007.475	-1.366069e-001	2.161976e+001
2531257.469	-1.370244e-001	2.154929e+001
2537507.462	-1.368276e-001	2.148171e+001
2543757.456	-1.366572e-001	2.141345e+001
2550007.450	-1.365729e-001	2.134556e+001
2556257.444	-1.363559e-001	2.127724e+001
2562507.438	-1.376866e-001	2.120736e+001
2568757.431	-1.375246e-001	2.114020e+001
2575007.425	-1.372521e-001	2.107304e+001
2581257.419	-1.372508e-001	2.100673e+001
2587507.412	-1.370911e-001	2.094057e+001
2593757.406	-1.370657e-001	2.087434e+001
2600007.400	-1.368931e-001	2.080839e+001
2606257.394	-1.365413e-001	2.074314e+001
2612507.387	-1.378580e-001	2.067551e+001
2618757.381	-1.376652e-001	2.060947e+001
2625007.375	-1.376714e-001	2.054495e+001
2631257.369	-1.377156e-001	2.047983e+001
2637507.362	-1.374453e-001	2.041521e+001
2643757.356	-1.373188e-001	2.035089e+001
2650007.350	-1.372968e-001	2.028700e+001
2656257.344	-1.371304e-001	2.022290e+001
2662507.337	-1.371772e-001	2.016051e+001
2668757.331	-1.384129e-001	2.009368e+001
2675007.325	-1.382100e-001	2.003142e+001
2681257.319	-1.381130e-001	1.996837e+001
2687507.313	-1.380003e-001	1.990583e+001
2693757.306	-1.379663e-001	1.984346e+001
2700007.300	-1.377461e-001	1.978158e+001
2706257.294	-1.377556e-001	1.971954e+001
2712507.287	-1.376703e-001	1.965703e+001
2718757.281	-1.376407e-001	1.959570e+001
2725007.275	-1.388093e-001	1.953249e+001
2731257.269	-1.385843e-001	1.947162e+001
2737507.262	-1.385746e-001	1.941037e+001
2743757.256	-1.385381e-001	1.935131e+001
2750007.250	-1.385156e-001	1.929168e+001
2756257.244	-1.385697e-001	1.923044e+001
2762507.237	-1.382198e-001	1.917048e+001
2768757.231	-1.382664e-001	1.911138e+001
2775007.225	-1.382992e-001	1.905100e+001
2781257.219	-1.393607e-001	1.898931e+001
2787507.212	-1.395314e-001	1.893065e+001
2793757.206	-1.393462e-001	1.887183e+001
2800007.200	-1.393627e-001	1.881310e+001
2806257.194	-1.391238e-001	1.875584e+001
2812507.188	-1.391100e-001	1.869627e+001
2818757.181	-1.391314e-001	1.863930e+001
2825007.175	-1.390292e-001	1.858130e+001
2831257.169	-1.391367e-001	1.852355e+001
2837507.162	-1.402644e-001	1.846448e+001
2843757.156	-1.402224e-001	1.840662e+001
2850007.150	-1.402093e-001	1.835010e+001
2856257.144	-1.400535e-001	1.829353e+001
2862507.137	-1.428442e-001	1.823193e+001
2868757.131	-1.450662e-001	1.817039e+001
2875007.125	-1.463677e-001	1.811187e+001
2881257.119	-1.470849e-001	1.805507e+001
2887507.112	-1.475150e-001	1.799941e+001
2893757.106	-1.488095e-001	1.794122e+001
2900007.100	-1.487691e-001	1.788470e+001
2906257.094	-1.487385e-001	1.783016e+001
2912507.087	-1.486745e-001	1.777545e+001
2918757.081	-1.485472e-001	1.772102e+001
2925007.075	-1.485954e-001	1.766704e+001
2931257.069	-1.485513e-001	1.761191e+001
2937507.063	-1.484417e-001	1.755708e+001
2943757.056	-1.484274e-001	1.750337e+001
2950007.050	-1.483941e-001	1.744993e+001
2956257.044	-1.484218e-001	1.739671e+001
2962507.037	-1.494088e-001	1.734124e+001
2968757.031	-1.494651e-001	1.728797e+001
2975007.025	-1.493749e-001	1.723524e+001
2981257.019	-1.493413e-001	1.718283e+001
2987507.012	-1.492987e-001	1.712991e+001
2993757.006	-1.492848e-001	1.707719e+001
3000007.000	-1.494015e-001	1.702411e+001
3006256.994	-1.494410e-001	1.697305e+001
3012506.987	-1.493433e-001	1.692062e+001
3018756.981	-1.491482e-001	1.686828e+001
3025006.975	-1.492689e-001	1.681679e+001
3031256.969	-1.503442e-001	1.676331e+001
3037506.962	-1.502989e-001	1.671203e+001
3043756.956	-1.504509e-001	1.666061e+001
