!Keysight Technologies,E5061B,MY49912438,B.06.30
!Date: Thu Nov 06 23:47:56 2025
!Data & Calibration Information:
!Freq	S11:SOLT2(ON)	S21:SOLT2(ON)	S12:SOLT2(ON)	S22:SOLT2(ON)
# Hz S RI R 50
10.000	1.010937e+000	-8.835957e-004	2.889743e-005	2.218905e-005	1.187956e-005	-1.336282e-004	-9.806750e-001	-1.291565e-003
6259.994	9.333356e-001	-3.867993e-001	-5.449480e-003	1.241836e-003	-5.387036e-003	1.196640e-003	-9.772393e-001	4.564091e-002
12509.987	7.256208e-001	-6.990063e-001	-1.935159e-002	9.025139e-003	-1.921757e-002	8.765679e-003	-9.732363e-001	9.234892e-002
18759.981	4.467262e-001	-8.991330e-001	-3.622759e-002	2.659141e-002	-3.619989e-002	2.597291e-002	-9.664247e-001	1.391581e-001
25009.975	1.544690e-001	-9.871752e-001	-5.067562e-002	5.335841e-002	-5.102016e-002	5.241340e-002	-9.564338e-001	1.856449e-001
31259.969	-1.126263e-001	-9.869516e-001	-5.929721e-002	8.656769e-002	-6.020586e-002	8.548432e-002	-9.431785e-001	2.311719e-001
37509.962	-3.369522e-001	-9.272984e-001	-6.081965e-002	1.230705e-001	-6.234250e-002	1.220822e-001	-9.267971e-001	2.752203e-001
43759.956	-5.152314e-001	-8.326733e-001	-5.534572e-002	1.602234e-001	-5.743237e-002	1.595981e-001	-9.077510e-001	3.174796e-001
50009.950	-6.510868e-001	-7.207722e-001	-4.374679e-002	1.961839e-001	-4.621355e-002	1.960801e-001	-8.862845e-001	3.575183e-001
56259.944	-7.511265e-001	-6.025531e-001	-2.699493e-002	2.297563e-001	-2.968494e-002	2.302238e-001	-8.627256e-001	3.950597e-001
62509.938	-8.218150e-001	-4.850476e-001	-6.167673e-003	2.602526e-001	-8.925379e-003	2.612692e-001	-8.375051e-001	4.299823e-001
68759.931	-8.690730e-001	-3.721690e-001	1.778801e-002	2.873122e-001	1.511858e-002	2.888694e-001	-8.110386e-001	4.623785e-001
75009.925	-8.978701e-001	-2.660656e-001	4.403233e-002	3.108440e-001	4.157799e-002	3.128352e-001	-7.836378e-001	4.922302e-001
81259.919	-9.121495e-001	-1.675118e-001	7.190933e-002	3.307601e-001	6.965027e-002	3.330961e-001	-7.556110e-001	5.194350e-001
87509.912	-9.151864e-001	-7.692201e-002	1.007904e-001	3.472524e-001	9.882379e-002	3.498530e-001	-7.272309e-001	5.443425e-001
93759.906	-9.096997e-001	6.122613e-003	1.302335e-001	3.605861e-001	1.286645e-001	3.633129e-001	-6.985059e-001	5.673957e-001
100009.900	-8.971614e-001	8.143995e-002	1.597380e-001	3.706559e-001	1.584451e-001	3.735055e-001	-6.701098e-001	5.877744e-001
106259.894	-8.795895e-001	1.497734e-001	1.890324e-001	3.778864e-001	1.880426e-001	3.808095e-001	-6.419373e-001	6.062600e-001
112509.888	-8.580404e-001	2.115126e-001	2.177754e-001	3.823883e-001	2.170944e-001	3.853959e-001	-6.141455e-001	6.228856e-001
118759.881	-8.337380e-001	2.673475e-001	2.458452e-001	3.845470e-001	2.454925e-001	3.875691e-001	-5.867910e-001	6.378728e-001
125009.875	-8.073732e-001	3.176505e-001	2.730331e-001	3.845361e-001	2.728864e-001	3.875285e-001	-5.600841e-001	6.512060e-001
131259.869	-7.796140e-001	3.629411e-001	2.991860e-001	3.825773e-001	2.993179e-001	3.855215e-001	-5.339360e-001	6.632084e-001
137509.862	-7.509951e-001	4.038235e-001	3.242788e-001	3.789200e-001	3.245991e-001	3.817704e-001	-5.084897e-001	6.739252e-001
143759.856	-7.218663e-001	4.405108e-001	3.481370e-001	3.736842e-001	3.486869e-001	3.764958e-001	-4.837836e-001	6.834940e-001
150009.850	-6.925969e-001	4.736286e-001	3.708657e-001	3.671722e-001	3.715491e-001	3.698868e-001	-4.597971e-001	6.920342e-001
156259.844	-6.633764e-001	5.034136e-001	3.923651e-001	3.594870e-001	3.931542e-001	3.620954e-001	-4.365403e-001	6.996491e-001
162509.837	-6.344333e-001	5.302333e-001	4.126107e-001	3.507855e-001	4.135817e-001	3.532920e-001	-4.139507e-001	7.064889e-001
168759.831	-6.058379e-001	5.544759e-001	4.317373e-001	3.412527e-001	4.326834e-001	3.436591e-001	-3.921479e-001	7.125389e-001
175009.825	-5.777895e-001	5.762234e-001	4.495644e-001	3.309450e-001	4.506669e-001	3.332924e-001	-3.709819e-001	7.180012e-001
181259.819	-5.503000e-001	5.959050e-001	4.663284e-001	3.200869e-001	4.674884e-001	3.223251e-001	-3.504697e-001	7.229118e-001
187509.813	-5.234778e-001	6.135720e-001	4.818749e-001	3.087158e-001	4.831930e-001	3.108368e-001	-3.305730e-001	7.273236e-001
193759.806	-4.972940e-001	6.295872e-001	4.963992e-001	2.969159e-001	4.977427e-001	2.989487e-001	-3.113763e-001	7.312474e-001
200009.800	-4.718183e-001	6.440605e-001	5.098696e-001	2.847776e-001	5.112553e-001	2.867582e-001	-2.927525e-001	7.347859e-001
206259.794	-4.470276e-001	6.571454e-001	5.223248e-001	2.724291e-001	5.237142e-001	2.742966e-001	-2.747017e-001	7.379717e-001
212509.787	-4.229400e-001	6.689762e-001	5.338176e-001	2.598704e-001	5.353129e-001	2.616418e-001	-2.570871e-001	7.408792e-001
218759.781	-3.994517e-001	6.797498e-001	5.444077e-001	2.471492e-001	5.458682e-001	2.489036e-001	-2.401303e-001	7.434632e-001
225009.775	-3.767338e-001	6.894810e-001	5.541052e-001	2.343767e-001	5.556276e-001	2.360437e-001	-2.235343e-001	7.458271e-001
231259.769	-3.545979e-001	6.983156e-001	5.630329e-001	2.215752e-001	5.645752e-001	2.231379e-001	-2.073914e-001	7.479908e-001
237509.762	-3.332098e-001	7.063199e-001	5.710805e-001	2.087821e-001	5.727093e-001	2.102515e-001	-1.916910e-001	7.499178e-001
243759.756	-3.122769e-001	7.136633e-001	5.783984e-001	1.959835e-001	5.800718e-001	1.974344e-001	-1.764103e-001	7.516914e-001
250009.750	-2.919932e-001	7.202633e-001	5.850846e-001	1.832476e-001	5.867264e-001	1.846673e-001	-1.615160e-001	7.532967e-001
256259.744	-2.722968e-001	7.262164e-001	5.911690e-001	1.706676e-001	5.927251e-001	1.719908e-001	-1.470002e-001	7.547681e-001
262509.737	-2.532502e-001	7.316639e-001	5.964997e-001	1.582166e-001	5.980783e-001	1.594393e-001	-1.328265e-001	7.561070e-001
268759.731	-2.346359e-001	7.366299e-001	6.012969e-001	1.458608e-001	6.028219e-001	1.470359e-001	-1.189882e-001	7.573139e-001
275009.725	-2.165039e-001	7.411434e-001	6.054657e-001	1.336351e-001	6.069979e-001	1.347807e-001	-1.054601e-001	7.584117e-001
281259.719	-1.987443e-001	7.452518e-001	6.091542e-001	1.215234e-001	6.106557e-001	1.226641e-001	-9.223008e-002	7.594449e-001
287509.712	-1.815428e-001	7.489985e-001	6.123009e-001	1.096311e-001	6.138271e-001	1.106954e-001	-7.917024e-002	7.603218e-001
293759.706	-1.647280e-001	7.523784e-001	6.150005e-001	9.790891e-002	6.164695e-001	9.899773e-002	-6.651062e-002	7.611346e-001
300009.700	-1.482770e-001	7.554578e-001	6.172270e-001	8.633520e-002	6.187041e-001	8.742230e-002	-5.397472e-002	7.618451e-001
306259.694	-1.323497e-001	7.582335e-001	6.189601e-001	7.503084e-002	6.205344e-001	7.601782e-002	-4.165840e-002	7.624860e-001
312509.688	-1.168121e-001	7.607156e-001	6.203252e-001	6.394799e-002	6.219159e-001	6.491140e-002	-2.970618e-002	7.630660e-001
318759.681	-1.015283e-001	7.629779e-001	6.213868e-001	5.299604e-002	6.229428e-001	5.395994e-002	-1.786199e-002	7.635615e-001
325009.675	-8.672616e-002	7.649858e-001	6.220369e-001	4.233782e-002	6.236106e-001	4.326355e-002	-6.318360e-003	7.640241e-001
331259.669	-7.224257e-002	7.668064e-001	6.223505e-001	3.188396e-002	6.239400e-001	3.272433e-002	5.121588e-003	7.643703e-001
337509.662	-5.807266e-002	7.684288e-001	6.223525e-001	2.166278e-002	6.239855e-001	2.243280e-002	1.636296e-002	7.646612e-001
343759.656	-4.412675e-002	7.698322e-001	6.220649e-001	1.159441e-002	6.236851e-001	1.240980e-002	2.732388e-002	7.649158e-001
350009.650	-3.056754e-002	7.711006e-001	6.215042e-001	1.822958e-003	6.231438e-001	2.538158e-003	3.821427e-002	7.650774e-001
356259.644	-1.727782e-002	7.721880e-001	6.206437e-001	-7.745004e-003	6.223084e-001	-7.037464e-003	4.883746e-002	7.652153e-001
362509.637	-4.272974e-003	7.731452e-001	6.195826e-001	-1.709393e-002	6.212381e-001	-1.641037e-002	5.931322e-002	7.653129e-001
368759.631	8.607307e-003	7.739004e-001	6.183072e-001	-2.632309e-002	6.199599e-001	-2.564345e-002	6.975964e-002	7.652780e-001
375009.625	2.110240e-002	7.745767e-001	6.167676e-001	-3.523374e-002	6.184468e-001	-3.457223e-002	7.990439e-002	7.652825e-001
381259.619	3.334960e-002	7.751061e-001	6.150452e-001	-4.392640e-002	6.167451e-001	-4.329004e-002	8.992456e-002	7.652132e-001
387509.612	4.537804e-002	7.755293e-001	6.131391e-001	-5.242075e-002	6.148397e-001	-5.176843e-002	9.979242e-002	7.650892e-001
393759.606	5.728527e-002	7.757995e-001	6.110832e-001	-6.076047e-002	6.127688e-001	-6.012863e-002	1.096311e-001	7.648629e-001
400009.600	6.886598e-002	7.760061e-001	6.088531e-001	-6.883938e-002	6.105181e-001	-6.820898e-002	1.192425e-001	7.646377e-001
406259.594	8.026352e-002	7.761007e-001	6.064392e-001	-7.671803e-002	6.081219e-001	-7.612171e-002	1.287369e-001	7.643649e-001
412509.587	9.154964e-002	7.760510e-001	6.039027e-001	-8.444150e-002	6.055909e-001	-8.382531e-002	1.381799e-001	7.639754e-001
418759.581	1.025391e-001	7.759457e-001	6.012210e-001	-9.189948e-002	6.029152e-001	-9.131110e-002	1.474285e-001	7.636091e-001
425009.575	1.133428e-001	7.757703e-001	5.984367e-001	-9.917207e-002	6.001321e-001	-9.867081e-002	1.566530e-001	7.631249e-001
431259.569	1.240518e-001	7.754202e-001	5.955111e-001	-1.063115e-001	5.972169e-001	-1.057438e-001	1.656557e-001	7.626380e-001
437509.563	1.344978e-001	7.750768e-001	5.924925e-001	-1.131984e-001	5.941788e-001	-1.127223e-001	1.746700e-001	7.620492e-001
443759.556	1.447976e-001	7.746699e-001	5.893782e-001	-1.199267e-001	5.910667e-001	-1.194125e-001	1.834279e-001	7.614934e-001
450009.550	1.550253e-001	7.740754e-001	5.861489e-001	-1.265205e-001	5.878471e-001	-1.260426e-001	1.922512e-001	7.607830e-001
456259.544	1.649803e-001	7.735037e-001	5.828204e-001	-1.328541e-001	5.845378e-001	-1.324122e-001	2.008362e-001	7.601327e-001
462509.537	1.747794e-001	7.728713e-001	5.794377e-001	-1.390280e-001	5.811467e-001	-1.386336e-001	2.093991e-001	7.593528e-001
468759.531	1.844249e-001	7.721498e-001	5.759755e-001	-1.450109e-001	5.777135e-001	-1.446481e-001	2.177665e-001	7.586131e-001
475009.525	1.940080e-001	7.713180e-001	5.724545e-001	-1.508899e-001	5.741833e-001	-1.505397e-001	2.261333e-001	7.577413e-001
481259.519	2.033722e-001	7.704833e-001	5.688558e-001	-1.565655e-001	5.706052e-001	-1.562012e-001	2.343040e-001	7.569227e-001
487509.512	2.126192e-001	7.695708e-001	5.652114e-001	-1.620822e-001	5.669521e-001	-1.617373e-001	2.424250e-001	7.560254e-001
493759.506	2.216821e-001	7.686292e-001	5.615587e-001	-1.674198e-001	5.632482e-001	-1.671474e-001	2.504910e-001	7.550206e-001
500009.500	2.307191e-001	7.675407e-001	5.578182e-001	-1.726829e-001	5.595272e-001	-1.723146e-001	2.583644e-001	7.540632e-001
506259.494	2.395234e-001	7.664927e-001	5.540306e-001	-1.776962e-001	5.557392e-001	-1.774497e-001	2.662860e-001	7.529891e-001
512509.487	2.483017e-001	7.652856e-001	5.501879e-001	-1.826364e-001	5.519260e-001	-1.823382e-001	2.739909e-001	7.519447e-001
518759.481	2.568700e-001	7.641236e-001	5.463418e-001	-1.873860e-001	5.480773e-001	-1.870849e-001	2.816311e-001	7.508663e-001
525009.475	2.653088e-001	7.628794e-001	5.424891e-001	-1.919904e-001	5.441931e-001	-1.917433e-001	2.892479e-001	7.496194e-001
531259.469	2.737096e-001	7.615435e-001	5.385728e-001	-1.965009e-001	5.403047e-001	-1.962285e-001	2.967131e-001	7.484740e-001
537509.463	2.819068e-001	7.602367e-001	5.346461e-001	-2.008146e-001	5.363909e-001	-2.005361e-001	3.040728e-001	7.472810e-001
543759.456	2.899934e-001	7.588927e-001	5.306975e-001	-2.050047e-001	5.324330e-001	-2.047818e-001	3.114316e-001	7.459489e-001
550009.450	2.979884e-001	7.575132e-001	5.267253e-001	-2.090707e-001	5.284745e-001	-2.088542e-001	3.186171e-001	7.446981e-001
556259.444	3.058675e-001	7.560818e-001	5.227620e-001	-2.129987e-001	5.245236e-001	-2.127963e-001	3.257454e-001	7.434064e-001
562509.438	3.136294e-001	7.546067e-001	5.187730e-001	-2.168165e-001	5.205062e-001	-2.166680e-001	3.328582e-001	7.419570e-001
568759.431	3.212818e-001	7.531203e-001	5.148032e-001	-2.205012e-001	5.165381e-001	-2.203617e-001	3.398182e-001	7.406085e-001
575009.425	3.289047e-001	7.514457e-001	5.107943e-001	-2.241503e-001	5.125004e-001	-2.240350e-001	3.467952e-001	7.390726e-001
581259.419	3.364122e-001	7.497590e-001	5.067746e-001	-2.276423e-001	5.085121e-001	-2.274819e-001	3.535869e-001	7.376502e-001
587509.412	3.437446e-001	7.481632e-001	5.027920e-001	-2.309775e-001	5.045428e-001	-2.308209e-001	3.602862e-001	7.362000e-001
593759.406	3.509875e-001	7.465196e-001	4.988152e-001	-2.342241e-001	5.005156e-001	-2.341157e-001	3.670106e-001	7.346000e-001
600009.400	3.581424e-001	7.448474e-001	4.948233e-001	-2.373459e-001	4.965287e-001	-2.372363e-001	3.735772e-001	7.330835e-001
606259.394	3.651963e-001	7.431476e-001	4.908551e-001	-2.403723e-001	4.925287e-001	-2.403249e-001	3.801408e-001	7.314188e-001
612509.387	3.721853e-001	7.412929e-001	4.868612e-001	-2.433375e-001	4.885491e-001	-2.432482e-001	3.865587e-001	7.298572e-001
618759.381	3.790580e-001	7.395146e-001	4.828872e-001	-2.461543e-001	4.845562e-001	-2.461140e-001	3.929598e-001	7.281128e-001
625009.375	3.858682e-001	7.377052e-001	4.789125e-001	-2.488693e-001	4.806124e-001	-2.488498e-001	3.992450e-001	7.264550e-001
631259.369	3.925632e-001	7.359065e-001	4.749477e-001	-2.514761e-001	4.766769e-001	-2.514868e-001	4.054458e-001	7.248177e-001
637509.362	3.991967e-001	7.340710e-001	4.709935e-001	-2.540115e-001	4.727052e-001	-2.540671e-001	4.116369e-001	7.230045e-001
643759.356	4.057517e-001	7.320775e-001	4.670569e-001	-2.564851e-001	4.687930e-001	-2.565201e-001	4.176993e-001	7.213106e-001
650009.350	4.121720e-001	7.301887e-001	4.631694e-001	-2.588602e-001	4.648600e-001	-2.589273e-001	4.237395e-001	7.194542e-001
656259.344	4.185200e-001	7.282721e-001	4.592818e-001	-2.611256e-001	4.609836e-001	-2.612167e-001	4.296542e-001	7.177234e-001
662509.337	4.247736e-001	7.263349e-001	4.554272e-001	-2.633212e-001	4.570915e-001	-2.634475e-001	4.355389e-001	7.158347e-001
668759.331	4.309557e-001	7.243930e-001	4.516003e-001	-2.654407e-001	4.532644e-001	-2.655613e-001	4.413125e-001	7.140606e-001
675009.325	4.370459e-001	7.224206e-001	4.477850e-001	-2.674833e-001	4.494314e-001	-2.676223e-001	4.470509e-001	7.122497e-001
681259.319	4.431030e-001	7.203099e-001	4.439585e-001	-2.694713e-001	4.455871e-001	-2.696096e-001	4.527395e-001	7.102789e-001
687509.313	4.490451e-001	7.182914e-001	4.401869e-001	-2.713660e-001	4.418175e-001	-2.714946e-001	4.583147e-001	7.084534e-001
693759.306	4.548996e-001	7.162759e-001	4.364336e-001	-2.731762e-001	4.380224e-001	-2.733417e-001	4.638822e-001	7.064536e-001
700009.300	4.606759e-001	7.142342e-001	4.327079e-001	-2.749129e-001	4.342849e-001	-2.750912e-001	4.693378e-001	7.045683e-001
706259.294	4.664239e-001	7.121767e-001	4.289730e-001	-2.765712e-001	4.305820e-001	-2.767606e-001	4.747384e-001	7.026730e-001
712509.287	4.720851e-001	7.099681e-001	4.252518e-001	-2.782055e-001	4.268565e-001	-2.784005e-001	4.801046e-001	7.006168e-001
718759.281	4.776735e-001	7.078711e-001	4.215591e-001	-2.797225e-001	4.231981e-001	-2.799364e-001	4.853658e-001	6.986905e-001
725009.275	4.831732e-001	7.057685e-001	4.179401e-001	-2.811993e-001	4.195269e-001	-2.814572e-001	4.906108e-001	6.966160e-001
731259.269	4.886026e-001	7.036476e-001	4.143158e-001	-2.825991e-001	4.159239e-001	-2.828628e-001	4.957375e-001	6.946690e-001
737509.262	4.941865e-001	7.031654e-001	4.107755e-001	-2.845355e-001	4.123103e-001	-2.849238e-001	5.009468e-001	6.941730e-001
743759.256	4.994784e-001	7.009824e-001	4.072169e-001	-2.858392e-001	4.086975e-001	-2.862321e-001	5.060059e-001	6.920084e-001
750009.250	5.047500e-001	6.986328e-001	4.036182e-001	-2.870973e-001	4.051539e-001	-2.874351e-001	5.109576e-001	6.899606e-001
756259.244	5.099457e-001	6.964364e-001	4.000939e-001	-2.882679e-001	4.016463e-001	-2.886252e-001	5.158768e-001	6.879277e-001
762509.237	5.150362e-001	6.942018e-001	3.965885e-001	-2.893709e-001	3.981159e-001	-2.897709e-001	5.207604e-001	6.857499e-001
768759.231	5.200743e-001	6.919641e-001	3.931371e-001	-2.904775e-001	3.946513e-001	-2.908295e-001	5.255622e-001	6.836800e-001
775009.225	5.250744e-001	6.895945e-001	3.896621e-001	-2.915180e-001	3.911812e-001	-2.918800e-001	5.303318e-001	6.814589e-001
781259.219	5.299932e-001	6.873458e-001	3.862577e-001	-2.924912e-001	3.877715e-001	-2.928515e-001	5.350255e-001	6.793865e-001
787509.212	5.347797e-001	6.851726e-001	3.829164e-001	-2.933710e-001	3.843823e-001	-2.937501e-001	5.396098e-001	6.772263e-001
793759.206	5.395537e-001	6.829084e-001	3.795658e-001	-2.942347e-001	3.810044e-001	-2.946382e-001	5.441808e-001	6.750082e-001
800009.200	5.443005e-001	6.806327e-001	3.762320e-001	-2.950387e-001	3.776817e-001	-2.954505e-001	5.487049e-001	6.729045e-001
806259.194	5.489506e-001	6.783632e-001	3.729350e-001	-2.958210e-001	3.743485e-001	-2.962465e-001	5.531973e-001	6.706500e-001
812509.188	5.535502e-001	6.760735e-001	3.696814e-001	-2.965574e-001	3.711004e-001	-2.969920e-001	5.576147e-001	6.685628e-001
818759.181	5.581123e-001	6.736676e-001	3.663960e-001	-2.972656e-001	3.678650e-001	-2.976880e-001	5.619688e-001	6.664441e-001
825009.175	5.625912e-001	6.713656e-001	3.631720e-001	-2.978928e-001	3.646329e-001	-2.983462e-001	5.662676e-001	6.641815e-001
831259.169	5.670135e-001	6.690912e-001	3.600044e-001	-2.985225e-001	3.614499e-001	-2.989669e-001	5.705500e-001	6.620482e-001
837509.162	5.713889e-001	6.668154e-001	3.568767e-001	-2.990908e-001	3.582556e-001	-2.995497e-001	5.747628e-001	6.597886e-001
843759.156	5.757185e-001	6.644881e-001	3.537251e-001	-2.995979e-001	3.551558e-001	-3.000885e-001	5.789263e-001	6.576549e-001
850009.150	5.799949e-001	6.622147e-001	3.506258e-001	-3.000956e-001	3.520485e-001	-3.005840e-001	5.830358e-001	6.554961e-001
856259.144	5.841876e-001	6.599291e-001	3.475861e-001	-3.005644e-001	3.489428e-001	-3.010576e-001	5.870869e-001	6.532121e-001
862509.137	5.883434e-001	6.576215e-001	3.445528e-001	-3.009753e-001	3.459169e-001	-3.014986e-001	5.911206e-001	6.510769e-001
868759.131	5.924501e-001	6.553363e-001	3.415556e-001	-3.013686e-001	3.428729e-001	-3.018899e-001	5.950728e-001	6.488071e-001
875009.125	5.964876e-001	6.530455e-001	3.385865e-001	-3.017237e-001	3.399225e-001	-3.022509e-001	5.989675e-001	6.466500e-001
881259.119	6.004867e-001	6.506277e-001	3.356001e-001	-3.020710e-001	3.369728e-001	-3.025757e-001	6.028379e-001	6.445193e-001
887509.112	6.044434e-001	6.483218e-001	3.326851e-001	-3.023625e-001	3.340438e-001	-3.028867e-001	6.066560e-001	6.422503e-001
893759.106	6.083295e-001	6.460218e-001	3.297943e-001	-3.026296e-001	3.311407e-001	-3.031431e-001	6.104081e-001	6.400899e-001
900009.100	6.121690e-001	6.437467e-001	3.269395e-001	-3.028633e-001	3.282689e-001	-3.034002e-001	6.141373e-001	6.378390e-001
906259.094	6.159643e-001	6.414723e-001	3.241249e-001	-3.030633e-001	3.254433e-001	-3.035969e-001	6.177976e-001	6.356717e-001
912509.087	6.197402e-001	6.391555e-001	3.213033e-001	-3.032766e-001	3.226212e-001	-3.038139e-001	6.214759e-001	6.335104e-001
918759.081	6.234392e-001	6.368956e-001	3.185357e-001	-3.034169e-001	3.198356e-001	-3.039646e-001	6.250590e-001	6.312167e-001
925009.075	6.270821e-001	6.346326e-001	3.157996e-001	-3.035373e-001	3.170940e-001	-3.041112e-001	6.286376e-001	6.291029e-001
931259.069	6.306948e-001	6.323707e-001	3.130889e-001	-3.036353e-001	3.143745e-001	-3.042202e-001	6.321618e-001	6.269576e-001
937509.063	6.342626e-001	6.301025e-001	3.103823e-001	-3.037123e-001	3.116404e-001	-3.043094e-001	6.356185e-001	6.246744e-001
943759.056	6.378073e-001	6.278372e-001	3.077015e-001	-3.037506e-001	3.089766e-001	-3.043641e-001	6.390523e-001	6.225367e-001
950009.050	6.412879e-001	6.255716e-001	3.050738e-001	-3.037668e-001	3.063457e-001	-3.043922e-001	6.424516e-001	6.204194e-001
956259.044	6.447277e-001	6.233138e-001	3.024727e-001	-3.037968e-001	3.036760e-001	-3.044036e-001	6.457976e-001	6.181169e-001
962509.037	6.481363e-001	6.210537e-001	2.998924e-001	-3.037814e-001	3.011145e-001	-3.043891e-001	6.491109e-001	6.160023e-001
968759.031	6.515161e-001	6.188006e-001	2.973224e-001	-3.037669e-001	2.985527e-001	-3.043527e-001	6.523988e-001	6.138579e-001
975009.025	6.547829e-001	6.164133e-001	2.947484e-001	-3.037071e-001	2.959786e-001	-3.042938e-001	6.555986e-001	6.115906e-001
981259.019	6.580495e-001	6.141835e-001	2.922606e-001	-3.036369e-001	2.934877e-001	-3.042235e-001	6.588034e-001	6.094837e-001
