"# Channel 1"
"# Trace 4"
Frequency, Formatted Data, Formatted Data
+1.00000000000E+002, +1.00153193667E+000, -1.24837150000E-002
+6.34993750000E+003, +9.31184112516E-001, -3.93327113130E-001
+1.25998750000E+004, +7.18257583706E-001, -7.00298800313E-001
+1.88498125000E+004, +4.41718093783E-001, -8.86483018802E-001
+2.50997500000E+004, +1.67092248159E-001, -9.60526455280E-001
+3.13496875000E+004, -7.03181291377E-002, -9.57332729893E-001
+3.75996250000E+004, -2.61833500035E-001, -9.09876523054E-001
+4.38495625000E+004, -4.11590732277E-001, -8.40658283472E-001
+5.00995000000E+004, -5.27093530702E-001, -7.62969357648E-001
+5.63494375000E+004, -6.16276449228E-001, -6.83646875885E-001
+6.25993750000E+004, -6.85139968489E-001, -6.06344691052E-001
+6.88493125000E+004, -7.38485282477E-001, -5.32658674155E-001
+7.50992500000E+004, -7.79957691790E-001, -4.63222251559E-001
+8.13491875000E+004, -8.12142289973E-001, -3.97931078484E-001
+8.75991250000E+004, -8.37052434061E-001, -3.36776294418E-001
+9.38490625000E+004, -8.56459906758E-001, -2.79326234317E-001
+1.00099000000E+005, -8.70849864363E-001, -2.25225712572E-001
+1.06348937500E+005, -8.81433397812E-001, -1.74297192273E-001
+1.12598875000E+005, -8.88764382175E-001, -1.26105473291E-001
+1.18848812500E+005, -8.93470490746E-001, -8.05202752810E-002
+1.25098750000E+005, -8.95905155427E-001, -3.72278359602E-002
+1.31348687500E+005, -8.96385661646E-001, +3.96249645501E-003
+1.37598625000E+005, -8.95251649647E-001, +4.32376377455E-002
+1.43848562500E+005, -8.92551528905E-001, +8.07598354458E-002
+1.50098500000E+005, -8.88625298386E-001, +1.16601907043E-001
+1.56348437500E+005, -8.83544360266E-001, +1.50990786870E-001
+1.62598375000E+005, -8.77463299940E-001, +1.83943621117E-001
+1.68848312500E+005, -8.70511326075E-001, +2.15652751955E-001
+1.75098250000E+005, -8.62684055277E-001, +2.46034103467E-001
+1.81348187500E+005, -8.54155206430E-001, +2.75332000102E-001
+1.87598125000E+005, -8.44908060425E-001, +3.03468869483E-001
+1.93848062500E+005, -8.35102648770E-001, +3.30615547368E-001
+2.00098000000E+005, -8.24746753670E-001, +3.56777077808E-001
+2.06347937500E+005, -8.13871840317E-001, +3.81957049799E-001
+2.12597875000E+005, -8.02582872189E-001, +4.06271420032E-001
+2.18847812500E+005, -7.90856625614E-001, +4.29782267091E-001
+2.25097750000E+005, -7.78747008031E-001, +4.52377761021E-001
+2.31347687500E+005, -7.66313800363E-001, +4.74256198587E-001
+2.37597625000E+005, -7.53562213157E-001, +4.95277088608E-001
+2.43847562500E+005, -7.40498452799E-001, +5.15651177138E-001
+2.50097500000E+005, -7.27202750437E-001, +5.35304118317E-001
+2.56347437500E+005, -7.13655858253E-001, +5.54262516628E-001
+2.62597375000E+005, -6.99908962270E-001, +5.72473870248E-001
+2.68847312500E+005, -6.85990358291E-001, +5.90090115044E-001
+2.75097250000E+005, -6.71857231892E-001, +6.07092590244E-001
+2.81347187500E+005, -6.57561833375E-001, +6.23593880603E-001
+2.87597125000E+005, -6.43144897543E-001, +6.39380958367E-001
+2.93847062500E+005, -6.28557696071E-001, +6.54689437452E-001
+3.00097000000E+005, -6.13856589981E-001, +6.69412910696E-001
+3.06346937500E+005, -5.99172137704E-001, +6.83511065279E-001
+3.12596875000E+005, -5.84409693103E-001, +6.97092623638E-001
+3.18846812500E+005, -5.69482292472E-001, +7.10215914524E-001
+3.25096750000E+005, -5.54607612690E-001, +7.22744234173E-001
+3.31346687500E+005, -5.39716425116E-001, +7.34798815480E-001
+3.37596625000E+005, -5.24785827148E-001, +7.46379812032E-001
+3.43846562500E+005, -5.09764737918E-001, +7.57576224905E-001
+3.50096500000E+005, -4.94813516601E-001, +7.68205929678E-001
+3.56346437500E+005, -4.79903466950E-001, +7.78432814683E-001
+3.62596375000E+005, -4.64985320725E-001, +7.88228966140E-001
+3.68846312500E+005, -4.50011918642E-001, +7.97674919946E-001
+3.75096250000E+005, -4.35167737800E-001, +8.06645394139E-001
+3.81346187500E+005, -4.20404134646E-001, +8.15257852490E-001
+3.87596125000E+005, -4.05659726317E-001, +8.23455193149E-001
+3.93846062500E+005, -3.90898771475E-001, +8.31315596498E-001
+4.00096000000E+005, -3.76274247428E-001, +8.38791507152E-001
+4.06345937500E+005, -3.61721803415E-001, +8.45905797093E-001
+4.12595875000E+005, -3.47157583838E-001, +8.52708412767E-001
+4.18845812500E+005, -3.32747578865E-001, +8.59128616187E-001
+4.25095750000E+005, -3.18466189933E-001, +8.65244378624E-001
+4.31345687500E+005, -3.04136753091E-001, +8.71074608030E-001
+4.37595625000E+005, -2.90030322437E-001, +8.76570449306E-001
+4.43845562500E+005, -2.76031584345E-001, +8.81775168302E-001
+4.50095500000E+005, -2.61939227084E-001, +8.86729394377E-001
+4.56345437500E+005, -2.48175683990E-001, +8.91348091248E-001
+4.62595375000E+005, -2.34484780570E-001, +8.95714429857E-001
+4.68845312500E+005, -2.20900881415E-001, +8.99792399048E-001
+4.75095250000E+005, -2.07317912538E-001, +9.03657551970E-001
+4.81345187500E+005, -1.93986527134E-001, +9.07274223604E-001
+4.87595125000E+005, -1.80728929759E-001, +9.10608957010E-001
+4.93845062500E+005, -1.67649672216E-001, +9.13752299282E-001
+5.00095000000E+005, -1.54524255447E-001, +9.16646110494E-001
+5.06344937500E+005, -1.41687885482E-001, +9.19347746173E-001
+5.12594875000E+005, -1.28815482988E-001, +9.21824442545E-001
+5.18844812500E+005, -1.16228928681E-001, +9.24096587607E-001
+5.25094750000E+005, -1.03692845338E-001, +9.26186917676E-001
+5.31344687500E+005, -9.12316378088E-002, +9.28058579129E-001
+5.37594625000E+005, -7.89956061871E-002, +9.29767378408E-001
+5.43844562500E+005, -6.69196327013E-002, +9.31294221020E-001
+5.50094500000E+005, -5.49684556372E-002, +9.32652995750E-001
+5.56344437500E+005, -4.31755907548E-002, +9.33828372286E-001
+5.62594375000E+005, -3.14383150515E-002, +9.34876121744E-001
+5.68844312500E+005, -1.98821928778E-002, +9.35723174419E-001
+5.75094250000E+005, -8.26550074736E-003, +9.36394953434E-001
+5.81344187500E+005, +3.17124689226E-003, +9.36938418556E-001
+5.87594125000E+005, +1.43372371144E-002, +9.37367055645E-001
+5.93844062500E+005, +2.53653621782E-002, +9.37670099585E-001
+6.00094000000E+005, +3.62743186978E-002, +9.37834214557E-001
+6.06343937500E+005, +4.70599162181E-002, +9.37864344753E-001
+6.12593875000E+005, +5.78596839118E-002, +9.37722454577E-001
+6.18843812500E+005, +6.84076822425E-002, +9.37525804177E-001
+6.25093750000E+005, +7.88414898621E-002, +9.37212116568E-001
+6.31343687500E+005, +8.90936660205E-002, +9.36784434199E-001
+6.37593625000E+005, +9.92530352254E-002, +9.36269545638E-001
+6.43843562500E+005, +1.09417171606E-001, +9.35553353337E-001
+6.50093500000E+005, +1.19308294362E-001, +9.34818146880E-001
+6.56343437500E+005, +1.29075625241E-001, +9.34029566525E-001
+6.62593375000E+005, +1.38750057900E-001, +9.33109330545E-001
+6.68843312500E+005, +1.48267504109E-001, +9.32111864471E-001
+6.75093250000E+005, +1.57679131865E-001, +9.31018731936E-001
+6.81343187500E+005, +1.67107749743E-001, +9.29764837157E-001
+6.87593125000E+005, +1.76285692606E-001, +9.28528732568E-001
+6.93843062500E+005, +1.85340072485E-001, +9.27216632910E-001
+7.00093000000E+005, +1.94300512871E-001, +9.25831351441E-001
+7.06342937500E+005, +2.03112186527E-001, +9.24366992260E-001
+7.12592875000E+005, +2.11973638888E-001, +9.22745504846E-001
+7.18842812500E+005, +2.20568546176E-001, +9.21171767978E-001
+7.25092750000E+005, +2.29068831221E-001, +9.19526609742E-001
+7.31342687500E+005, +2.37289001742E-001, +9.17811447587E-001
+7.37592625000E+005, +2.44820965549E-001, +9.18540135601E-001
+7.43842562500E+005, +2.53066900836E-001, +9.16710418190E-001
+7.50092500000E+005, +2.61318578825E-001, +9.14710686421E-001
+7.56342437500E+005, +2.69359747213E-001, +9.12738996878E-001
+7.62592375000E+005, +2.77279561721E-001, +9.10732982600E-001
+7.68842312500E+005, +2.85128916735E-001, +9.08668996541E-001
+7.75092250000E+005, +2.92980004656E-001, +9.06464434254E-001
+7.81342187500E+005, +3.00417589168E-001, +9.04589146088E-001
+7.87592125000E+005, +3.08004440445E-001, +9.02166000351E-001
+7.93842062500E+005, +3.15411996115E-001, +8.99942499147E-001
+8.00092000000E+005, +3.22720152166E-001, +8.97691388147E-001
+8.06341937500E+005, +3.29925714269E-001, +8.95410092923E-001
+8.12591875000E+005, +3.37053663747E-001, +8.93108064239E-001
+8.18841812500E+005, +3.44158788150E-001, +8.90601040881E-001
+8.25091750000E+005, +3.51089995392E-001, +8.88244995688E-001
+8.31341687500E+005, +3.57904420859E-001, +8.85851896219E-001
+8.37591625000E+005, +3.64667429655E-001, +8.83419132171E-001
+8.43841562500E+005, +3.71306384015E-001, +8.80937690995E-001
+8.50091500000E+005, +3.77903773766E-001, +8.78463790029E-001
+8.56341437500E+005, +3.84368705069E-001, +8.75973135845E-001
+8.62591375000E+005, +3.90763332489E-001, +8.73434699564E-001
+8.68841312500E+005, +3.97079200049E-001, +8.70902568759E-001
+8.75091250000E+005, +4.03291351828E-001, +8.68339304160E-001
+8.81341187500E+005, +4.09509369066E-001, +8.65641482715E-001
+8.87591125000E+005, +4.15565853426E-001, +8.63034181184E-001
+8.93841062500E+005, +4.21541717696E-001, +8.60429180942E-001
+9.00091000000E+005, +4.27434687229E-001, +8.57792034219E-001
+9.06340937500E+005, +4.33361404583E-001, +8.54794059967E-001
+9.12590875000E+005, +4.39038607411E-001, +8.52458209004E-001
+9.18840812500E+005, +4.44697346130E-001, +8.49814008565E-001
+9.25090750000E+005, +4.50250959806E-001, +8.47146737730E-001
+9.31340687500E+005, +4.55788705319E-001, +8.44475977976E-001
+9.37590625000E+005, +4.61206933742E-001, +8.41798021280E-001
+9.43840562500E+005, +4.66565778816E-001, +8.39103474566E-001
+9.50090500000E+005, +4.71844117554E-001, +8.36391278841E-001
+9.56340437500E+005, +4.77087921283E-001, +8.33696259774E-001
+9.62590375000E+005, +4.82238400686E-001, +8.31010838677E-001
+9.68840312500E+005, +4.87349097021E-001, +8.28295567156E-001
+9.75090250000E+005, +4.92432009387E-001, +8.25426039669E-001
+9.81340187500E+005, +4.97390073687E-001, +8.22707406504E-001
+9.87590125000E+005, +5.02312843458E-001, +8.19983013411E-001
+9.93840062500E+005, +5.07164183314E-001, +8.17266705594E-001
+1.00009000000E+006, +5.11919814481E-001, +8.14549629504E-001
+1.00633993750E+006, +5.16629498717E-001, +8.11802794016E-001
+1.01258987500E+006, +5.21296493002E-001, +8.09098880068E-001
+1.01883981250E+006, +5.25904169606E-001, +8.06365815543E-001
+1.02508975000E+006, +5.30442092715E-001, +8.03633170759E-001
+1.03133968750E+006, +5.34913023030E-001, +8.00914537630E-001
+1.03758962500E+006, +5.39331831287E-001, +7.98194121313E-001
+1.04383956250E+006, +5.43719004654E-001, +7.95389347465E-001
+1.05008950000E+006, +5.48041071702E-001, +7.92696075297E-001
+1.05633943750E+006, +5.52315266121E-001, +7.89976430969E-001
+1.06258937500E+006, +5.56508436389E-001, +7.87267870081E-001
+1.06883931250E+006, +5.60701821720E-001, +7.84378269628E-001
+1.07508925000E+006, +5.64795561488E-001, +7.81700315854E-001
+1.08133918750E+006, +5.68852436029E-001, +7.79000956784E-001
+1.08758912500E+006, +5.72871390248E-001, +7.76286495210E-001
+1.09383906250E+006, +5.76819387929E-001, +7.73607413994E-001
+1.10008900000E+006, +5.80740232336E-001, +7.70900093750E-001
+1.10633893750E+006, +5.84577512187E-001, +7.68201072791E-001
+1.11258887500E+006, +5.88421322964E-001, +7.65532501027E-001
+1.11883881250E+006, +5.92189502680E-001, +7.62673953144E-001
+1.12508875000E+006, +5.95900677713E-001, +7.59998853618E-001
+1.13133868750E+006, +5.99567839650E-001, +7.57338249224E-001
+1.13758862500E+006, +6.03210796753E-001, +7.54662521695E-001
+1.14383856250E+006, +6.06730083403E-001, +7.52209678578E-001
+1.15008850000E+006, +6.10270028859E-001, +7.49578174789E-001
+1.15633843750E+006, +6.13750315220E-001, +7.46960493553E-001
+1.16258837500E+006, +6.17192467506E-001, +7.44162503511E-001
+1.16883831250E+006, +6.20579342443E-001, +7.41543150963E-001
+1.17508825000E+006, +6.23976232513E-001, +7.38953022967E-001
+1.18133818750E+006, +6.27294414151E-001, +7.36356370496E-001
+1.18758812500E+006, +6.30590295303E-001, +7.33754894320E-001
+1.19383806250E+006, +6.33842293682E-001, +7.31180520563E-001
+1.20008800000E+006, +6.37053233329E-001, +7.28421656235E-001
+1.20633793750E+006, +6.40231621083E-001, +7.25844026399E-001
+1.21258787500E+006, +6.43379424654E-001, +7.23310778632E-001
+1.21883781250E+006, +6.46480758412E-001, +7.20741948310E-001
+1.22508775000E+006, +6.49542462522E-001, +7.18195741960E-001
+1.23133768750E+006, +6.52566195135E-001, +7.15660956183E-001
+1.23758762500E+006, +6.55566720809E-001, +7.12963608402E-001
+1.24383756250E+006, +6.58520833487E-001, +7.10444028129E-001
+1.25008750000E+006, +6.61482015549E-001, +7.07881576272E-001
+1.25633743750E+006, +6.64369423836E-001, +7.05402229444E-001
+1.26258737500E+006, +6.67232645904E-001, +7.02887923767E-001
+1.26883731250E+006, +6.70047516005E-001, +7.00251289441E-001
+1.27508725000E+006, +6.72819839946E-001, +6.97784219080E-001
+1.28133718750E+006, +6.75568589333E-001, +6.95303235086E-001
+1.28758712500E+006, +6.78303802613E-001, +6.92847798166E-001
+1.29383706250E+006, +6.80990074931E-001, +6.90390937126E-001
+1.30008700000E+006, +6.83659068736E-001, +6.87946233351E-001
+1.30633693750E+006, +6.86259228960E-001, +6.85351839270E-001
+1.31258687500E+006, +6.88870516108E-001, +6.82953060967E-001
+1.31883681250E+006, +6.91461323517E-001, +6.80526218800E-001
+1.32508675000E+006, +6.93987957852E-001, +6.78134366670E-001
+1.33133668750E+006, +6.96526784056E-001, +6.75753042036E-001
+1.33758662500E+006, +6.98986002232E-001, +6.73368790992E-001
+1.34383656250E+006, +7.01436714347E-001, +6.70821066093E-001
+1.35008650000E+006, +7.03866018114E-001, +6.68460121193E-001
+1.35633643750E+006, +7.06277812221E-001, +6.66128090946E-001
+1.36258637500E+006, +7.08678055980E-001, +6.63778631179E-001
+1.36883631250E+006, +7.11025821790E-001, +6.61449370894E-001
+1.37508625000E+006, +7.13363453079E-001, +6.59135104077E-001
+1.38133618750E+006, +7.15627605213E-001, +6.56669700860E-001
+1.38758612500E+006, +7.17913444662E-001, +6.54375199667E-001
+1.39383606250E+006, +7.20183636314E-001, +6.52055622007E-001
+1.40008600000E+006, +7.22402175059E-001, +6.49791498841E-001
+1.40633593750E+006, +7.24613872355E-001, +6.47498887709E-001
+1.41258587500E+006, +7.26761704342E-001, +6.45078195805E-001
+1.41883581250E+006, +7.28947670861E-001, +6.42841554579E-001
+1.42508575000E+006, +7.31076271614E-001, +6.40592372113E-001
+1.43133568750E+006, +7.33203071711E-001, +6.38367880217E-001
+1.43758562500E+006, +7.35307480981E-001, +6.36126203203E-001
+1.44383556250E+006, +7.37350185202E-001, +6.33908066179E-001
+1.45008550000E+006, +7.39370617959E-001, +6.31540382022E-001
+1.45633543750E+006, +7.41393391965E-001, +6.29353487414E-001
+1.46258537500E+006, +7.43397180254E-001, +6.27146475982E-001
+1.46883531250E+006, +7.45473826763E-001, +6.25066636952E-001
+1.47508525000E+006, +7.47434578774E-001, +6.22905699030E-001
+1.48133518750E+006, +7.49390814751E-001, +6.20751217491E-001
+1.48758512500E+006, +7.51338055200E-001, +6.18583910174E-001
+1.49383506250E+006, +7.53182728422E-001, +6.16275915405E-001
+1.50008500000E+006, +7.55056745718E-001, +6.14140470016E-001
+1.50633493750E+006, +7.56928081466E-001, +6.11997260379E-001
+1.51258487500E+006, +7.58765465694E-001, +6.09883638470E-001
+1.51883481250E+006, +7.60590643721E-001, +6.07770302745E-001
+1.52508475000E+006, +7.62400666692E-001, +6.05671142190E-001
+1.53133468750E+006, +7.64172216670E-001, +6.03580997718E-001
+1.53758462500E+006, +7.65944725987E-001, +6.01489641960E-001
+1.54383456250E+006, +7.67662273256E-001, +5.99231148685E-001
+1.55008450000E+006, +7.69389756742E-001, +5.97167902727E-001
+1.55633443750E+006, +7.71097530194E-001, +5.95096427997E-001
+1.56258437500E+006, +7.72740846587E-001, +5.93027842354E-001
+1.56883431250E+006, +7.74427757050E-001, +5.91033092571E-001
+1.57508425000E+006, +7.76119612164E-001, +5.89004850984E-001
+1.58133418750E+006, +7.77765210476E-001, +5.87008309600E-001
+1.58758412500E+006, +7.79355732372E-001, +5.84850255214E-001
+1.59383406250E+006, +7.80980834376E-001, +5.82844969165E-001
+1.60008400000E+006, +7.82589316424E-001, +5.80857828574E-001
+1.60633393750E+006, +7.84159389276E-001, +5.78870027032E-001
+1.61258387500E+006, +7.85746961397E-001, +5.76892648612E-001
+1.61883381250E+006, +7.87306610349E-001, +5.74923498942E-001
+1.62508375000E+006, +7.88868295765E-001, +5.72969392427E-001
+1.63133368750E+006, +7.90369362797E-001, +5.71011050244E-001
+1.63758362500E+006, +7.91816098538E-001, +5.68899347832E-001
+1.64383356250E+006, +7.93315347104E-001, +5.66954211977E-001
+1.65008350000E+006, +7.94804962880E-001, +5.65027589833E-001
+1.65633343750E+006, +7.96251333477E-001, +5.63119654286E-001
+1.66258337500E+006, +7.97726750297E-001, +5.61216290896E-001
+1.66883331250E+006, +7.99163552760E-001, +5.59291120970E-001
+1.67508325000E+006, +8.00602539500E-001, +5.57404077983E-001
+1.68133318750E+006, +8.01988270783E-001, +5.55518605423E-001
+1.68758312500E+006, +8.03304740952E-001, +5.53482878433E-001
+1.69383306250E+006, +8.04697689403E-001, +5.51630626118E-001
+1.70008300000E+006, +8.06045140133E-001, +5.49771062489E-001
+1.70633293750E+006, +8.07401828536E-001, +5.47898877862E-001
+1.71258287500E+006, +8.08578486296E-001, +5.45777890747E-001
+1.71883281250E+006, +8.09896624444E-001, +5.43952186205E-001
+1.72508275000E+006, +8.11233534176E-001, +5.42121339257E-001
+1.73133268750E+006, +8.12541965222E-001, +5.40315230511E-001
+1.73758262500E+006, +8.13762439919E-001, +5.38359512369E-001
+1.74383256250E+006, +8.15056941788E-001, +5.36563155829E-001
+1.75008250000E+006, +8.16310076134E-001, +5.34769403648E-001
+1.75633243750E+006, +8.17579470549E-001, +5.33011589896E-001
+1.76258237500E+006, +8.18840477625E-001, +5.31212812228E-001
+1.76883231250E+006, +8.20043360803E-001, +5.29453182285E-001
+1.77508225000E+006, +8.21180752120E-001, +5.27553523256E-001
+1.78133218750E+006, +8.22416810920E-001, +5.25801210730E-001
+1.78758212500E+006, +8.23610301450E-001, +5.24080730541E-001
+1.79383206250E+006, +8.24791318251E-001, +5.22335085881E-001
+1.80008200000E+006, +8.25972774461E-001, +5.20607424687E-001
+1.80633193750E+006, +8.27139278136E-001, +5.18870655172E-001
+1.81258187500E+006, +8.28278258460E-001, +5.17182361896E-001
+1.81883181250E+006, +8.29363037780E-001, +5.15328939503E-001
+1.82508175000E+006, +8.30491679594E-001, +5.13618034563E-001
+1.83133168750E+006, +8.31627691448E-001, +5.11942698709E-001
+1.83758162500E+006, +8.32737414311E-001, +5.10262234435E-001
+1.84383156250E+006, +8.33865573526E-001, +5.08586227924E-001
+1.85008150000E+006, +8.34934141449E-001, +5.06904531709E-001
+1.85633143750E+006, +8.35943040442E-001, +5.05094872778E-001
+1.86258137500E+006, +8.37016921406E-001, +5.03453201793E-001
+1.86883131250E+006, +8.38080672619E-001, +5.01801383229E-001
+1.87508125000E+006, +8.39134059864E-001, +5.00124613544E-001
+1.88133118750E+006, +8.40172312000E-001, +4.98513773281E-001
+1.88758112500E+006, +8.41217729945E-001, +4.96885856228E-001
+1.89383106250E+006, +8.42260729808E-001, +4.95283257774E-001
+1.90008100000E+006, +8.43186406139E-001, +4.93511013606E-001
+1.90633093750E+006, +8.44204706446E-001, +4.91916883565E-001
+1.91258087500E+006, +8.45226067126E-001, +4.90319741383E-001
+1.91883081250E+006, +8.46211617026E-001, +4.88744270340E-001
+1.92508075000E+006, +8.47191567975E-001, +4.87164258206E-001
+1.93133068750E+006, +8.48170343255E-001, +4.85607883086E-001
+1.93758062500E+006, +8.49139611553E-001, +4.84046108349E-001
+1.94383056250E+006, +8.50100712726E-001, +4.82479799164E-001
+1.95008050000E+006, +8.50960306546E-001, +4.80787013263E-001
+1.95633043750E+006, +8.51921932922E-001, +4.79246593491E-001
+1.96258037500E+006, +8.52862538378E-001, +4.77703423928E-001
+1.96883031250E+006, +8.53776225370E-001, +4.76171773711E-001
+1.97508025000E+006, +8.54573750137E-001, +4.74443470278E-001
+1.98133018750E+006, +8.55490035056E-001, +4.72966729332E-001
+1.98758012500E+006, +8.56389691963E-001, +4.71443456781E-001
+1.99383006250E+006, +8.57206608024E-001, +4.69803232937E-001
+2.00008000000E+006, +8.58110387907E-001, +4.68315110329E-001
