!Keysight Technologies,E5061B,MY49912438,B.06.30
!Date: Thu Nov 06 20:15:28 2025
!Data & Calibration Information:
!Freq	S11:SOLT1(ON)
# Hz S RI R 50
100.000	1.001509e+000	-1.248995e-002
6349.938	9.311640e-001	-3.933386e-001
12599.875	7.182453e-001	-7.003091e-001
18849.813	4.417009e-001	-8.864915e-001
25099.750	1.670752e-001	-9.605605e-001
31349.688	-7.035242e-002	-9.573888e-001
37599.625	-2.618857e-001	-9.099318e-001
43849.563	-4.116559e-001	-8.407086e-001
50099.500	-5.271809e-001	-7.630116e-001
56349.438	-6.163624e-001	-6.836807e-001
62599.375	-6.852397e-001	-6.063559e-001
68849.313	-7.385880e-001	-5.326648e-001
75099.250	-7.800665e-001	-4.632237e-001
81349.188	-8.122515e-001	-3.979226e-001
87599.125	-8.371537e-001	-3.367531e-001
93849.063	-8.565733e-001	-2.792993e-001
100099.000	-8.709639e-001	-2.251826e-001
106348.938	-8.815460e-001	-1.742335e-001
112598.875	-8.888659e-001	-1.260346e-001
118848.813	-8.935734e-001	-8.045715e-002
125098.750	-8.960069e-001	-3.714341e-002
131348.688	-8.964927e-001	4.031223e-003
137598.625	-8.953568e-001	4.332709e-002
143848.563	-8.926441e-001	8.083121e-002
150098.500	-8.887241e-001	1.167069e-001
156348.438	-8.836453e-001	1.510992e-001
162598.375	-8.775675e-001	1.840651e-001
168848.313	-8.706052e-001	2.157645e-001
175098.250	-8.627808e-001	2.461685e-001
181348.188	-8.542346e-001	2.754600e-001
187598.125	-8.449787e-001	3.035864e-001
193848.063	-8.351610e-001	3.307462e-001
200098.000	-8.248137e-001	3.569112e-001
206347.938	-8.139430e-001	3.820886e-001
212597.875	-8.026223e-001	4.064149e-001
218847.813	-7.908999e-001	4.299322e-001
225097.750	-7.787897e-001	4.525254e-001
231347.688	-7.663421e-001	4.744166e-001
237597.625	-7.536021e-001	4.954402e-001
243847.563	-7.405265e-001	5.158273e-001
250097.500	-7.272227e-001	5.354783e-001
256347.438	-7.136566e-001	5.544314e-001
262597.375	-6.999239e-001	5.726232e-001
268847.313	-6.859924e-001	5.902659e-001
275097.250	-6.718539e-001	6.072463e-001
281347.188	-6.575468e-001	6.237468e-001
287597.125	-6.431247e-001	6.395461e-001
293847.063	-6.285390e-001	6.548444e-001
300097.000	-6.138449e-001	6.695852e-001
306346.938	-5.991470e-001	6.836921e-001
312596.875	-5.843755e-001	6.972678e-001
318846.813	-5.694352e-001	7.103877e-001
325096.750	-5.545469e-001	7.229216e-001
331346.688	-5.396565e-001	7.349737e-001
337596.625	-5.247328e-001	7.465407e-001
343846.563	-5.097169e-001	7.577423e-001
350096.500	-4.947509e-001	7.683732e-001
356346.438	-4.798498e-001	7.786058e-001
362596.375	-4.649296e-001	7.883958e-001
368846.313	-4.499360e-001	7.978448e-001
375096.250	-4.350876e-001	8.068279e-001
381346.188	-4.203184e-001	8.154253e-001
387596.125	-4.055765e-001	8.236305e-001
393846.063	-3.907975e-001	8.314945e-001
400096.000	-3.761696e-001	8.389592e-001
406345.938	-3.616206e-001	8.460710e-001
412595.875	-3.470475e-001	8.528714e-001
418845.813	-3.326532e-001	8.592872e-001
425095.750	-3.183584e-001	8.654024e-001
431345.688	-3.040221e-001	8.712382e-001
437595.625	-2.899140e-001	8.767365e-001
443845.563	-2.759159e-001	8.819314e-001
450095.500	-2.618222e-001	8.868714e-001
456345.438	-2.480573e-001	8.915086e-001
462595.375	-2.343529e-001	8.958686e-001
468845.313	-2.207683e-001	8.999444e-001
475095.250	-2.071895e-001	9.037994e-001
481345.188	-1.938527e-001	9.074046e-001
487595.125	-1.805953e-001	9.107475e-001
493845.063	-1.675091e-001	9.138885e-001
500095.000	-1.543894e-001	9.167938e-001
506344.938	-1.415525e-001	9.194817e-001
512594.875	-1.286693e-001	9.219579e-001
518844.813	-1.160837e-001	9.242124e-001
525094.750	-1.035492e-001	9.263012e-001
531344.688	-9.108302e-002	9.281720e-001
537594.625	-7.885571e-002	9.298754e-001
543844.563	-6.678030e-002	9.314052e-001
550094.500	-5.482493e-002	9.327425e-001
556344.438	-4.301945e-002	9.339418e-001
562594.375	-3.128290e-002	9.349805e-001
568844.313	-1.972962e-002	9.358242e-001
575094.250	-8.130755e-003	9.364903e-001
581344.188	3.310008e-003	9.370265e-001
587594.125	1.448298e-002	9.374566e-001
593844.063	2.550734e-002	9.377498e-001
600094.000	3.642218e-002	9.379208e-001
606343.938	4.721148e-002	9.379606e-001
612593.875	5.800220e-002	9.378148e-001
618843.813	6.855377e-002	9.376023e-001
625093.750	7.898112e-002	9.372838e-001
631343.688	8.923696e-002	9.368629e-001
637593.625	9.939482e-002	9.363383e-001
643843.563	1.095742e-001	9.356327e-001
650093.500	1.194768e-001	9.348874e-001
656343.438	1.292243e-001	9.340876e-001
662593.375	1.388986e-001	9.331616e-001
668843.313	1.484197e-001	9.321616e-001
675093.250	1.578214e-001	9.310749e-001
681343.188	1.672478e-001	9.298125e-001
687593.125	1.764412e-001	9.285851e-001
693843.063	1.854894e-001	9.272641e-001
700093.000	1.944499e-001	9.258679e-001
706342.938	2.032503e-001	9.244061e-001
712592.875	2.121115e-001	9.227809e-001
718842.813	2.206912e-001	9.212004e-001
725092.750	2.292089e-001	9.195686e-001
731342.688	2.374228e-001	9.178609e-001
737592.625	2.449036e-001	9.185189e-001
743842.563	2.531418e-001	9.166801e-001
750092.500	2.613995e-001	9.146542e-001
756342.438	2.694151e-001	9.126934e-001
762592.375	2.773339e-001	9.106780e-001
768842.313	2.851705e-001	9.086035e-001
775092.250	2.930116e-001	9.064059e-001
781342.188	3.004531e-001	9.045543e-001
787592.125	3.080371e-001	9.021203e-001
793842.063	3.154322e-001	8.999046e-001
800092.000	3.227511e-001	8.976629e-001
806341.938	3.299626e-001	8.953910e-001
812591.875	3.370846e-001	8.930751e-001
818841.813	3.442030e-001	8.905611e-001
825091.750	3.511079e-001	8.881849e-001
831341.688	3.579265e-001	8.858027e-001
837591.625	3.646585e-001	8.833671e-001
843841.563	3.712870e-001	8.808912e-001
850091.500	3.778840e-001	8.784339e-001
856341.438	3.843461e-001	8.759462e-001
862591.375	3.907544e-001	8.734159e-001
868841.313	3.970733e-001	8.708856e-001
875091.250	4.032690e-001	8.683190e-001
881341.188	4.095185e-001	8.656257e-001
887591.125	4.155807e-001	8.630313e-001
893841.063	4.215515e-001	8.604360e-001
900091.000	4.274542e-001	8.578055e-001
906340.938	4.333803e-001	8.548155e-001
912590.875	4.390689e-001	8.525010e-001
918840.813	4.447304e-001	8.498518e-001
925090.750	4.503005e-001	8.471983e-001
931340.688	4.558408e-001	8.445131e-001
937590.625	4.612558e-001	8.418491e-001
943840.563	4.666180e-001	8.391447e-001
950090.500	4.719119e-001	8.364378e-001
956340.438	4.771652e-001	8.337384e-001
962590.375	4.823079e-001	8.310433e-001
968840.313	4.874398e-001	8.283151e-001
975090.250	4.925047e-001	8.254470e-001
981340.188	4.974825e-001	8.227331e-001
987590.125	5.024105e-001	8.199910e-001
993840.063	5.072693e-001	8.172682e-001
1000090.000	5.120280e-001	8.145523e-001
1006339.938	5.167335e-001	8.117940e-001
1012589.875	5.213926e-001	8.090951e-001
1018839.813	5.259939e-001	8.063452e-001
1025089.750	5.305360e-001	8.036289e-001
1031339.688	5.350063e-001	8.009083e-001
1037589.625	5.394345e-001	7.981794e-001
1043839.563	5.438169e-001	7.953639e-001
1050089.500	5.481110e-001	7.926661e-001
1056339.438	5.524016e-001	7.899464e-001
1062589.375	5.565940e-001	7.872395e-001
1068839.313	5.607891e-001	7.843255e-001
1075089.250	5.648745e-001	7.816430e-001
1081339.188	5.689213e-001	7.789403e-001
1087589.125	5.729152e-001	7.762254e-001
1093839.063	5.768718e-001	7.735497e-001
1100089.000	5.807793e-001	7.708525e-001
1106338.938	5.846059e-001	7.681537e-001
1112588.875	5.884508e-001	7.654915e-001
1118838.813	5.922106e-001	7.626397e-001
1125088.750	5.959381e-001	7.599790e-001
1131338.688	5.995978e-001	7.573072e-001
1137588.625	6.032154e-001	7.546659e-001
1143838.563	6.067490e-001	7.521943e-001
1150088.500	6.103015e-001	7.495784e-001
1156338.438	6.137902e-001	7.469523e-001
1162588.375	6.172220e-001	7.441427e-001
1168838.313	6.206259e-001	7.415211e-001
1175088.250	6.240185e-001	7.389218e-001
1181338.188	6.273300e-001	7.363224e-001
1187588.125	6.306421e-001	7.337408e-001
1193838.063	6.338800e-001	7.311485e-001
1200088.000	6.370948e-001	7.283846e-001
1206337.938	6.402690e-001	7.258047e-001
1212587.875	6.434025e-001	7.232570e-001
1218837.813	6.464929e-001	7.207113e-001
1225087.750	6.495551e-001	7.181713e-001
1231337.688	6.525737e-001	7.156275e-001
1237587.625	6.555633e-001	7.129430e-001
1243837.563	6.585321e-001	7.104361e-001
1250087.500	6.614735e-001	7.078898e-001
1256337.438	6.643638e-001	7.054035e-001
1262587.375	6.672137e-001	7.028982e-001
1268837.313	6.700350e-001	7.002518e-001
1275087.250	6.728078e-001	6.977909e-001
1281337.188	6.755740e-001	6.953234e-001
1287587.125	6.783063e-001	6.928740e-001
1293837.063	6.810089e-001	6.904308e-001
1300087.000	6.836674e-001	6.879804e-001
1306336.938	6.862831e-001	6.853789e-001
1312586.875	6.888995e-001	6.829783e-001
1318836.813	6.914789e-001	6.805592e-001
1325086.750	6.940153e-001	6.781678e-001
1331336.688	6.965579e-001	6.757829e-001
1337586.625	6.990218e-001	6.734079e-001
1343836.563	7.014834e-001	6.708602e-001
1350086.500	7.039144e-001	6.684916e-001
1356336.438	7.063063e-001	6.661468e-001
1362586.375	7.087000e-001	6.637999e-001
1368836.313	7.110565e-001	6.614657e-001
1375086.250	7.133913e-001	6.591459e-001
1381336.188	7.156635e-001	6.566729e-001
1387586.125	7.179513e-001	6.543707e-001
1393836.063	7.202117e-001	6.520651e-001
1400086.000	7.224424e-001	6.497933e-001
1406335.938	7.246401e-001	6.475118e-001
1412585.875	7.267914e-001	6.450927e-001
1418835.813	7.289715e-001	6.428465e-001
1425085.750	7.311099e-001	6.406140e-001
1431335.688	7.332175e-001	6.383731e-001
1437585.625	7.353319e-001	6.361347e-001
1443835.563	7.373974e-001	6.339246e-001
1450085.500	7.393995e-001	6.315606e-001
1456335.438	7.414244e-001	6.293666e-001
1462585.375	7.434193e-001	6.271713e-001
1468835.313	7.454902e-001	6.250911e-001
1475085.250	7.474606e-001	6.229373e-001
1481335.188	7.494196e-001	6.207639e-001
1487585.125	7.513419e-001	6.186174e-001
1493835.063	7.531938e-001	6.162935e-001
1500085.000	7.550723e-001	6.141654e-001
1506334.938	7.569470e-001	6.120170e-001
1512584.875	7.587772e-001	6.099052e-001
1518834.813	7.606134e-001	6.077970e-001
1525084.750	7.624311e-001	6.056827e-001
1531334.688	7.642123e-001	6.035976e-001
1537584.625	7.659755e-001	6.015003e-001
1543834.563	7.676927e-001	5.992645e-001
1550084.500	7.694171e-001	5.972014e-001
1556334.438	7.711430e-001	5.951218e-001
1562584.375	7.727570e-001	5.930609e-001
1568834.313	7.744591e-001	5.910584e-001
1575084.250	7.761456e-001	5.890363e-001
1581334.188	7.777934e-001	5.870183e-001
1587584.125	7.793737e-001	5.848519e-001
1593834.063	7.809888e-001	5.828431e-001
1600084.000	7.825873e-001	5.808740e-001
1606333.938	7.841609e-001	5.788805e-001
1612583.875	7.857396e-001	5.769118e-001
1618833.813	7.873147e-001	5.749339e-001
1625083.750	7.888475e-001	5.729913e-001
1631333.688	7.903818e-001	5.710369e-001
1637583.625	7.918175e-001	5.689178e-001
1643833.563	7.933189e-001	5.669889e-001
1650083.500	7.948086e-001	5.650535e-001
1656333.438	7.962611e-001	5.631510e-001
1662583.375	7.977328e-001	5.612385e-001
1668833.313	7.991649e-001	5.593341e-001
1675083.250	8.005822e-001	5.574272e-001
1681333.188	8.020015e-001	5.555550e-001
1687583.125	8.032959e-001	5.535165e-001
1693833.063	8.046849e-001	5.516619e-001
1700083.000	8.060465e-001	5.498093e-001
1706332.938	8.074228e-001	5.479372e-001
1712582.875	8.086017e-001	5.458202e-001
1718832.813	8.099294e-001	5.440012e-001
1725082.750	8.112584e-001	5.421794e-001
1731332.688	8.125709e-001	5.403623e-001
1737582.625	8.137755e-001	5.384182e-001
1743832.563	8.150767e-001	5.366054e-001
1750082.500	8.163235e-001	5.348040e-001
1756332.438	8.176176e-001	5.330542e-001
1762582.375	8.188503e-001	5.312644e-001
1768832.313	8.200684e-001	5.295102e-001
1775082.250	8.212221e-001	5.276070e-001
1781332.188	8.224467e-001	5.258549e-001
1787582.125	8.236316e-001	5.241070e-001
1793832.063	8.248220e-001	5.223756e-001
1800082.000	8.259998e-001	5.206649e-001
1806331.938	8.271672e-001	5.189235e-001
1812581.875	8.283119e-001	5.172236e-001
1818831.813	8.293919e-001	5.153799e-001
1825081.750	8.305194e-001	5.136760e-001
1831331.688	8.316536e-001	5.120035e-001
1837581.625	8.327696e-001	5.103184e-001
1843831.563	8.338861e-001	5.086496e-001
1850081.500	8.349711e-001	5.069709e-001
1856331.438	8.359747e-001	5.051577e-001
1862581.375	8.370462e-001	5.035257e-001
1868831.313	8.381126e-001	5.018734e-001
1875081.250	8.391662e-001	5.001971e-001
1881331.188	8.402002e-001	4.985894e-001
1887581.125	8.412384e-001	4.969551e-001
1893831.063	8.422954e-001	4.953399e-001
1900081.000	8.432279e-001	4.935789e-001
1906330.938	8.442317e-001	4.919791e-001
1912580.875	8.452772e-001	4.903834e-001
1918830.813	8.462479e-001	4.888064e-001
1925080.750	8.472318e-001	4.872290e-001
1931330.688	8.482142e-001	4.856643e-001
1937580.625	8.491818e-001	4.840893e-001
1943830.563	8.501512e-001	4.825308e-001
1950080.500	8.510044e-001	4.808345e-001
1956330.438	8.519500e-001	4.792892e-001
1962580.375	8.529021e-001	4.777601e-001
1968830.313	8.538120e-001	4.762230e-001
1975080.250	8.546087e-001	4.744995e-001
1981330.188	8.555411e-001	4.730079e-001
1987580.125	8.564543e-001	4.714944e-001
1993830.063	8.572525e-001	4.698421e-001
2000080.000	8.581512e-001	4.683495e-001
2006329.938	8.590489e-001	4.668547e-001
2012579.875	8.599060e-001	4.653735e-001
2018829.813	8.607731e-001	4.638968e-001
2025079.750	8.616575e-001	4.624140e-001
2031329.688	8.623957e-001	4.607996e-001
2037579.625	8.632662e-001	4.593364e-001
2043829.563	8.640978e-001	4.579025e-001
2050079.500	8.649264e-001	4.564556e-001
2056329.438	8.657706e-001	4.550042e-001
2062579.375	8.665896e-001	4.535522e-001
2068829.313	8.673000e-001	4.519820e-001
2075079.250	8.681027e-001	4.505449e-001
2081329.188	8.689025e-001	4.491408e-001
2087579.125	8.696562e-001	4.476615e-001
2093829.063	8.704586e-001	4.462491e-001
2100079.000	8.712362e-001	4.448388e-001
2106328.938	8.719293e-001	4.433284e-001
2112578.875	8.726956e-001	4.419393e-001
2118828.813	8.734545e-001	4.405597e-001
2125078.750	8.742141e-001	4.391711e-001
2131328.688	8.749701e-001	4.377966e-001
2137578.625	8.757176e-001	4.364401e-001
2143828.563	8.764610e-001	4.350677e-001
2150078.500	8.770750e-001	4.335807e-001
2156328.438	8.777861e-001	4.322305e-001
2162578.375	8.785189e-001	4.308685e-001
2168828.313	8.792357e-001	4.295334e-001
2175078.250	8.799415e-001	4.281812e-001
2181328.188	8.806409e-001	4.268446e-001
2187578.125	8.812413e-001	4.254015e-001
2193828.063	8.819317e-001	4.240869e-001
2200078.000	8.826230e-001	4.227559e-001
2206327.938	8.833072e-001	4.214456e-001
2212577.875	8.840510e-001	4.202444e-001
2218827.813	8.847429e-001	4.189597e-001
2225077.750	8.854228e-001	4.176565e-001
2231327.688	8.859638e-001	4.162524e-001
2237577.625	8.866167e-001	4.149727e-001
2243827.563	8.872880e-001	4.136812e-001
2250077.500	8.879286e-001	4.124282e-001
2256327.438	8.885612e-001	4.111562e-001
2262577.375	8.890887e-001	4.097519e-001
2268827.313	8.897268e-001	4.084748e-001
2275077.250	8.903618e-001	4.072364e-001
2281327.188	8.909822e-001	4.059903e-001
2287577.125	8.916029e-001	4.047355e-001
2293827.063	8.920980e-001	4.033836e-001
2300077.000	8.927010e-001	4.021165e-001
2306326.938	8.933072e-001	4.008984e-001
2312576.875	8.939049e-001	3.996646e-001
2318826.813	8.945050e-001	3.984485e-001
2325076.750	8.950954e-001	3.972215e-001
2331326.688	8.955680e-001	3.958837e-001
2337576.625	8.961380e-001	3.946947e-001
2343826.563	8.966359e-001	3.935562e-001
2350076.500	8.973479e-001	3.923317e-001
2356326.438	8.979152e-001	3.911479e-001
2362576.375	8.984904e-001	3.899590e-001
2368826.313	8.989488e-001	3.886570e-001
2375076.250	8.995035e-001	3.874755e-001
2381326.188	9.000591e-001	3.862973e-001
2387576.125	9.006103e-001	3.851206e-001
2393826.063	9.011454e-001	3.839524e-001
2400076.000	9.016694e-001	3.827835e-001
2406325.938	9.022129e-001	3.816303e-001
2412575.875	9.026191e-001	3.803559e-001
2418825.813	9.031619e-001	3.791917e-001
2425075.750	9.036947e-001	3.780490e-001
2431325.688	9.042115e-001	3.769226e-001
2437575.625	9.047274e-001	3.757726e-001
2443825.563	9.052358e-001	3.746237e-001
2450075.500	9.056255e-001	3.733750e-001
2456325.438	9.061258e-001	3.722574e-001
2462575.375	9.066407e-001	3.711321e-001
2468825.313	9.071210e-001	3.700005e-001
2475075.250	9.074650e-001	3.687658e-001
2481325.188	9.079697e-001	3.676432e-001
2487575.125	9.084571e-001	3.665565e-001
2493825.063	9.089399e-001	3.654541e-001
2500075.000	9.094387e-001	3.643523e-001
2506324.938	9.098956e-001	3.632483e-001
2512574.875	9.103811e-001	3.621626e-001
2518824.813	9.108551e-001	3.610666e-001
2525074.750	9.113103e-001	3.599882e-001
2531324.688	9.117220e-001	3.588568e-001
2537574.625	9.121918e-001	3.577960e-001
2543824.563	9.126623e-001	3.567256e-001
2550074.500	9.131101e-001	3.556630e-001
2556324.438	9.135736e-001	3.545864e-001
2562574.375	9.138747e-001	3.534205e-001
2568824.313	9.143323e-001	3.523775e-001
2575074.250	9.147719e-001	3.513277e-001
2581324.188	9.152106e-001	3.502676e-001
2587574.125	9.156420e-001	3.492095e-001
2593824.063	9.160654e-001	3.481686e-001
2600074.000	9.165076e-001	3.471380e-001
2606323.938	9.169353e-001	3.461101e-001
2612573.875	9.172415e-001	3.449705e-001
2618823.813	9.176787e-001	3.439545e-001
2625073.750	9.180724e-001	3.429188e-001
2631323.688	9.184729e-001	3.418850e-001
2637573.625	9.189026e-001	3.408728e-001
2643823.563	9.192947e-001	3.398663e-001
2650073.500	9.197150e-001	3.388372e-001
2656323.438	9.201076e-001	3.378244e-001
2662573.375	9.204991e-001	3.368235e-001
2668823.313	9.207963e-001	3.357090e-001
2675073.250	9.211757e-001	3.347200e-001
2681323.188	9.215838e-001	3.337146e-001
2687573.125	9.219737e-001	3.327333e-001
2693823.063	9.223536e-001	3.317429e-001
2700073.000	9.227338e-001	3.307488e-001
2706322.938	9.231116e-001	3.297637e-001
2712572.875	9.234846e-001	3.287726e-001
2718822.813	9.238630e-001	3.277902e-001
2725072.750	9.241268e-001	3.267339e-001
2731322.688	9.244952e-001	3.257576e-001
2737572.625	9.248637e-001	3.247968e-001
2743822.563	9.252323e-001	3.238377e-001
2750072.500	9.255802e-001	3.228766e-001
2756322.438	9.259489e-001	3.218966e-001
2762572.375	9.263164e-001	3.209435e-001
2768822.313	9.266551e-001	3.199959e-001
2775072.250	9.270079e-001	3.190291e-001
2781322.188	9.272405e-001	3.179940e-001
2787572.125	9.275745e-001	3.170533e-001
2793822.063	9.279278e-001	3.161123e-001
2800072.000	9.282789e-001	3.151859e-001
2806321.938	9.286200e-001	3.142574e-001
2812571.875	9.289761e-001	3.133086e-001
2818821.813	9.292931e-001	3.123878e-001
2825071.750	9.296310e-001	3.114620e-001
2831321.688	9.299563e-001	3.105179e-001
2837571.625	9.301669e-001	3.095242e-001
2843821.563	9.304916e-001	3.085947e-001
2850071.500	9.308052e-001	3.076963e-001
2856321.438	9.311377e-001	3.067777e-001
2862571.375	9.311884e-001	3.056736e-001
2868821.313	9.312898e-001	3.046197e-001
2875071.250	9.314787e-001	3.036334e-001
2881321.188	9.317148e-001	3.026801e-001
2887571.125	9.319842e-001	3.017567e-001
2893821.063	9.321699e-001	3.007740e-001
2900071.000	9.324757e-001	2.998766e-001
2906320.938	9.327826e-001	2.989818e-001
2912570.875	9.330805e-001	2.980997e-001
2918820.813	9.333754e-001	2.972219e-001
2925070.750	9.336818e-001	2.963551e-001
2931320.688	9.339738e-001	2.954581e-001
2937570.625	9.342862e-001	2.945775e-001
2943820.563	9.345656e-001	2.937026e-001
2950070.500	9.348622e-001	2.928243e-001
2956320.438	9.351315e-001	2.919605e-001
2962570.375	9.353119e-001	2.910396e-001
2968820.313	9.355985e-001	2.901717e-001
2975070.250	9.358817e-001	2.893025e-001
2981320.188	9.361715e-001	2.884620e-001
2987570.125	9.364607e-001	2.876029e-001
2993820.063	9.367273e-001	2.867471e-001
3000070.000	9.370065e-001	2.858929e-001
3006319.938	9.372724e-001	2.850506e-001
3012569.875	9.375404e-001	2.842046e-001
3018819.813	9.378067e-001	2.833551e-001
3025069.750	9.380816e-001	2.825071e-001
3031319.688	9.382538e-001	2.815980e-001
3037569.625	9.385186e-001	2.807832e-001
3043819.563	9.387633e-001	2.799366e-001
3050069.500	9.390394e-001	2.790942e-001
3056319.438	9.392838e-001	2.782588e-001
3062569.375	9.395516e-001	2.774463e-001
3068819.313	9.398021e-001	2.766206e-001
3075069.250	9.400567e-001	2.757968e-001
3081319.188	9.403212e-001	2.749817e-001
3087569.125	9.405657e-001	2.741653e-001
3093819.063	9.407159e-001	2.733022e-001
3100069.000	9.409761e-001	2.724954e-001
3106318.938	9.412098e-001	2.716523e-001
