!Keysight Technologies,E5061B,MY49912438,B.06.30
!Date: Fri Nov 07 00:06:20 2025
!Data & Calibration Information:
!Freq	S11:SOLT2(ON)	S21:SOLT2(ON)	S12:SOLT2(ON)	S22:SOLT2(ON)
# Hz S RI R 50
10.000	-9.931479e-001	-1.470125e-003	2.689272e-005	8.311894e-005	1.349576e-005	-8.135334e-005	-9.827058e-001	-1.242253e-003
6259.994	-9.880533e-001	5.524715e-002	2.491843e-003	4.349411e-002	2.494250e-003	4.368550e-002	-9.778280e-001	5.497656e-002
12509.987	-9.802482e-001	1.107888e-001	9.844354e-003	8.615814e-002	9.867115e-003	8.651731e-002	-9.698216e-001	1.099804e-001
18759.981	-9.674274e-001	1.647321e-001	2.181587e-002	1.272934e-001	2.189464e-002	1.278490e-001	-9.570988e-001	1.634682e-001
25009.975	-9.502104e-001	2.165276e-001	3.805597e-002	1.662761e-001	3.820850e-002	1.670183e-001	-9.399901e-001	2.147420e-001
31259.969	-9.290644e-001	2.655587e-001	5.807219e-002	2.025828e-001	5.831136e-002	2.034724e-001	-9.189866e-001	2.632386e-001
37509.962	-9.045678e-001	3.114445e-001	8.134207e-002	2.358179e-001	8.167519e-002	2.368069e-001	-8.946368e-001	3.085832e-001
43759.956	-8.773005e-001	3.538775e-001	1.072786e-001	2.656881e-001	1.077776e-001	2.668327e-001	-8.676856e-001	3.506924e-001
50009.950	-8.479077e-001	3.929355e-001	1.354059e-001	2.920767e-001	1.359988e-001	2.933107e-001	-8.385435e-001	3.892613e-001
56259.944	-8.167931e-001	4.282509e-001	1.650339e-001	3.148453e-001	1.657483e-001	3.161275e-001	-8.077202e-001	4.241818e-001
62509.938	-7.845282e-001	4.599788e-001	1.956976e-001	3.340450e-001	1.964884e-001	3.353325e-001	-7.757607e-001	4.554695e-001
68759.931	-7.515838e-001	4.882211e-001	2.269361e-001	3.498019e-001	2.278069e-001	3.510859e-001	-7.431611e-001	4.833768e-001
75009.925	-7.183248e-001	5.132254e-001	2.583531e-001	3.622604e-001	2.592610e-001	3.635341e-001	-7.103014e-001	5.080031e-001
81259.919	-6.851918e-001	5.349866e-001	2.894731e-001	3.715721e-001	2.903790e-001	3.728236e-001	-6.775353e-001	5.294118e-001
87509.912	-6.523818e-001	5.539326e-001	3.201161e-001	3.780452e-001	3.210295e-001	3.792709e-001	-6.451725e-001	5.480601e-001
93759.906	-6.199444e-001	5.704777e-001	3.501294e-001	3.818671e-001	3.511073e-001	3.831203e-001	-6.131454e-001	5.644284e-001
100009.900	-5.885905e-001	5.842797e-001	3.789976e-001	3.833672e-001	3.799408e-001	3.845689e-001	-5.822216e-001	5.780058e-001
106259.894	-5.581352e-001	5.960319e-001	4.068190e-001	3.827418e-001	4.077515e-001	3.839385e-001	-5.522037e-001	5.895642e-001
112509.888	-5.288260e-001	6.057232e-001	4.333014e-001	3.802321e-001	4.343007e-001	3.814290e-001	-5.232313e-001	5.992337e-001
118759.881	-5.005525e-001	6.138298e-001	4.585748e-001	3.761063e-001	4.596675e-001	3.772897e-001	-4.953173e-001	6.072821e-001
125009.875	-4.734821e-001	6.204380e-001	4.825349e-001	3.705616e-001	4.836015e-001	3.717500e-001	-4.686236e-001	6.137982e-001
131259.869	-4.475775e-001	6.257456e-001	5.051352e-001	3.637988e-001	5.062880e-001	3.649715e-001	-4.430099e-001	6.191246e-001
137509.862	-4.227789e-001	6.300154e-001	5.264954e-001	3.560153e-001	5.276094e-001	3.571551e-001	-4.185673e-001	6.233390e-001
143759.856	-3.992087e-001	6.332698e-001	5.464381e-001	3.473231e-001	5.476467e-001	3.484926e-001	-3.952803e-001	6.266230e-001
150009.850	-3.766944e-001	6.357585e-001	5.651773e-001	3.379237e-001	5.664297e-001	3.391055e-001	-3.730857e-001	6.291123e-001
156259.844	-3.552589e-001	6.375399e-001	5.827770e-001	3.279431e-001	5.839433e-001	3.290850e-001	-3.519487e-001	6.309161e-001
162509.837	-3.348659e-001	6.387675e-001	5.991624e-001	3.174648e-001	6.003641e-001	3.185692e-001	-3.317818e-001	6.321980e-001
168759.831	-3.153459e-001	6.395686e-001	6.144554e-001	3.065352e-001	6.155682e-001	3.077129e-001	-3.126501e-001	6.329670e-001
175009.825	-2.968591e-001	6.399591e-001	6.285172e-001	2.952914e-001	6.297882e-001	2.965080e-001	-2.943562e-001	6.333902e-001
181259.819	-2.792308e-001	6.398574e-001	6.420707e-001	2.840058e-001	6.430188e-001	2.850806e-001	-2.769337e-001	6.334955e-001
187509.813	-2.624822e-001	6.395970e-001	6.542725e-001	2.724518e-001	6.553018e-001	2.734522e-001	-2.602966e-001	6.333615e-001
193759.806	-2.464760e-001	6.390709e-001	6.658327e-001	2.607938e-001	6.666301e-001	2.617505e-001	-2.444948e-001	6.330052e-001
200009.800	-2.311917e-001	6.384779e-001	6.763685e-001	2.490077e-001	6.771365e-001	2.499762e-001	-2.293860e-001	6.324901e-001
206259.794	-2.165555e-001	6.377681e-001	6.860553e-001	2.372214e-001	6.867830e-001	2.381729e-001	-2.149474e-001	6.318747e-001
212509.787	-2.025699e-001	6.369801e-001	6.949770e-001	2.254214e-001	6.957738e-001	2.263586e-001	-2.010538e-001	6.311608e-001
218759.781	-1.890887e-001	6.361212e-001	7.032296e-001	2.136324e-001	7.039435e-001	2.146239e-001	-1.878573e-001	6.303879e-001
225009.775	-1.762460e-001	6.352552e-001	7.107912e-001	2.019362e-001	7.115178e-001	2.029004e-001	-1.750872e-001	6.295762e-001
231259.769	-1.638413e-001	6.343457e-001	7.177413e-001	1.902880e-001	7.184940e-001	1.912562e-001	-1.628536e-001	6.287535e-001
237509.762	-1.520186e-001	6.334565e-001	7.240454e-001	1.787934e-001	7.248761e-001	1.797030e-001	-1.510751e-001	6.279333e-001
243759.756	-1.405274e-001	6.325626e-001	7.298585e-001	1.673649e-001	7.306666e-001	1.682951e-001	-1.397377e-001	6.271166e-001
250009.750	-1.294577e-001	6.316807e-001	7.351232e-001	1.560162e-001	7.359226e-001	1.570139e-001	-1.288161e-001	6.263117e-001
256259.744	-1.187825e-001	6.308511e-001	7.398716e-001	1.448629e-001	7.407087e-001	1.458446e-001	-1.182842e-001	6.255632e-001
262509.737	-1.084247e-001	6.301854e-001	7.438684e-001	1.338682e-001	7.450318e-001	1.348316e-001	-1.080946e-001	6.248290e-001
268759.731	-9.844211e-002	6.294192e-001	7.477391e-001	1.230010e-001	7.489159e-001	1.239771e-001	-9.825158e-002	6.241436e-001
275009.725	-8.878233e-002	6.286916e-001	7.512033e-001	1.122962e-001	7.524023e-001	1.132646e-001	-8.869680e-002	6.234939e-001
281259.719	-7.930816e-002	6.280115e-001	7.543477e-001	1.016856e-001	7.554973e-001	1.026910e-001	-7.945226e-002	6.229188e-001
287509.712	-7.020303e-002	6.273911e-001	7.570632e-001	9.129111e-002	7.582530e-001	9.224243e-002	-7.037296e-002	6.223401e-001
293759.706	-6.126364e-002	6.268111e-001	7.594664e-001	8.100356e-002	7.606156e-001	8.203916e-002	-6.164006e-002	6.218463e-001
300009.700	-5.256437e-002	6.262518e-001	7.615642e-001	7.087980e-002	7.627072e-001	7.192896e-002	-5.304187e-002	6.213806e-001
306259.694	-4.416895e-002	6.257853e-001	7.633222e-001	6.096867e-002	7.644945e-001	6.195515e-002	-4.466298e-002	6.209656e-001
312509.688	-3.595147e-002	6.253727e-001	7.647279e-001	5.125353e-002	7.659550e-001	5.222026e-002	-3.656966e-002	6.206182e-001
318759.681	-2.785772e-002	6.250015e-001	7.659497e-001	4.160078e-002	7.671749e-001	4.260415e-002	-2.858347e-002	6.203080e-001
325009.675	-2.001593e-002	6.246847e-001	7.668253e-001	3.222363e-002	7.681026e-001	3.320110e-002	-2.084818e-002	6.200594e-001
331259.669	-1.233264e-002	6.244229e-001	7.674605e-001	2.298192e-002	7.688262e-001	2.389134e-002	-1.320667e-002	6.198335e-001
337509.662	-4.797470e-003	6.242168e-001	7.678976e-001	1.390716e-002	7.693111e-001	1.478451e-002	-5.725232e-003	6.196472e-001
343759.656	2.627015e-003	6.240094e-001	7.681401e-001	4.942381e-003	7.695282e-001	5.862293e-003	1.551937e-003	6.195315e-001
350009.650	9.843070e-003	6.238585e-001	7.681954e-001	-3.801821e-003	7.695922e-001	-2.939470e-003	8.751880e-003	6.194246e-001
356259.644	1.693892e-002	6.237465e-001	7.680222e-001	-1.240034e-002	7.694160e-001	-1.153761e-002	1.576206e-002	6.193927e-001
362509.637	2.391737e-002	6.236788e-001	7.676769e-001	-2.083067e-002	7.690741e-001	-1.997538e-002	2.265848e-002	6.193996e-001
368759.631	3.085799e-002	6.236101e-001	7.671954e-001	-2.921382e-002	7.685943e-001	-2.835326e-002	2.954285e-002	6.193878e-001
375009.625	3.760273e-002	6.236090e-001	7.664947e-001	-3.733793e-002	7.678956e-001	-3.647198e-002	3.620056e-002	6.194698e-001
381259.619	4.425325e-002	6.236442e-001	7.656659e-001	-4.533487e-002	7.670520e-001	-4.446264e-002	4.278497e-002	6.195641e-001
387509.612	5.082403e-002	6.237063e-001	7.646742e-001	-5.317288e-002	7.660598e-001	-5.227845e-002	4.926502e-002	6.196983e-001
393759.606	5.737409e-002	6.237595e-001	7.635421e-001	-6.091717e-002	7.649392e-001	-6.003511e-002	5.574271e-002	6.198227e-001
400009.600	6.376828e-002	6.238726e-001	7.622535e-001	-6.846138e-002	7.636527e-001	-6.758766e-002	6.207122e-002	6.199959e-001
406259.594	7.008681e-002	6.240083e-001	7.608542e-001	-7.588854e-002	7.622646e-001	-7.501491e-002	6.830526e-002	6.202070e-001
412509.587	7.640085e-002	6.241186e-001	7.593365e-001	-8.321041e-002	7.607488e-001	-8.231164e-002	7.453609e-002	6.203756e-001
418759.581	8.257989e-002	6.242820e-001	7.576998e-001	-9.034272e-002	7.591090e-001	-8.943590e-002	8.063903e-002	6.206241e-001
425009.575	8.867629e-002	6.244737e-001	7.559467e-001	-9.732581e-002	7.573958e-001	-9.651743e-002	8.674173e-002	6.208409e-001
431259.569	9.478554e-002	6.246187e-001	7.540890e-001	-1.042536e-001	7.555437e-001	-1.033658e-001	9.271398e-002	6.210862e-001
437509.563	1.007729e-001	6.248357e-001	7.521348e-001	-1.109850e-001	7.535825e-001	-1.101636e-001	9.871273e-002	6.213193e-001
443759.556	1.067047e-001	6.250688e-001	7.501048e-001	-1.176152e-001	7.515298e-001	-1.167369e-001	1.045575e-001	6.215867e-001
450009.550	1.126503e-001	6.252408e-001	7.479749e-001	-1.241630e-001	7.494208e-001	-1.233279e-001	1.104568e-001	6.218373e-001
456259.544	1.184546e-001	6.254773e-001	7.457329e-001	-1.305109e-001	7.472029e-001	-1.296874e-001	1.162097e-001	6.221492e-001
462509.537	1.242218e-001	6.257164e-001	7.434425e-001	-1.367484e-001	7.449012e-001	-1.359713e-001	1.219778e-001	6.224080e-001
468759.531	1.299256e-001	6.259645e-001	7.410873e-001	-1.428558e-001	7.425442e-001	-1.420899e-001	1.276358e-001	6.227175e-001
475009.525	1.356696e-001	6.261604e-001	7.386455e-001	-1.489252e-001	7.401193e-001	-1.481409e-001	1.333046e-001	6.229805e-001
481259.519	1.412840e-001	6.264051e-001	7.361384e-001	-1.548017e-001	7.376012e-001	-1.540004e-001	1.388646e-001	6.233064e-001
487509.512	1.469060e-001	6.266554e-001	7.335373e-001	-1.605725e-001	7.350109e-001	-1.597649e-001	1.444298e-001	6.236058e-001
493759.506	1.524523e-001	6.269050e-001	7.309151e-001	-1.662045e-001	7.323750e-001	-1.654732e-001	1.499673e-001	6.238643e-001
500009.500	1.580270e-001	6.270960e-001	7.282182e-001	-1.718118e-001	7.296751e-001	-1.709875e-001	1.553994e-001	6.241647e-001
506259.494	1.634864e-001	6.273316e-001	7.254425e-001	-1.772428e-001	7.269452e-001	-1.765229e-001	1.608808e-001	6.244363e-001
512509.487	1.689793e-001	6.275102e-001	7.226289e-001	-1.826300e-001	7.241245e-001	-1.818343e-001	1.662410e-001	6.247323e-001
518759.481	1.743780e-001	6.277411e-001	7.197654e-001	-1.878391e-001	7.212729e-001	-1.870496e-001	1.715814e-001	6.250329e-001
525009.475	1.797311e-001	6.279309e-001	7.168702e-001	-1.929861e-001	7.183862e-001	-1.922497e-001	1.769361e-001	6.252195e-001
531259.469	1.851219e-001	6.280862e-001	7.139073e-001	-1.980512e-001	7.154465e-001	-1.972774e-001	1.821991e-001	6.255107e-001
537509.463	1.904152e-001	6.282877e-001	7.109157e-001	-2.029482e-001	7.124709e-001	-2.021494e-001	1.874146e-001	6.257761e-001
543759.456	1.956735e-001	6.284819e-001	7.078570e-001	-2.077553e-001	7.094443e-001	-2.070208e-001	1.926814e-001	6.259672e-001
550009.450	2.008993e-001	6.286676e-001	7.048033e-001	-2.124857e-001	7.063937e-001	-2.117523e-001	1.978360e-001	6.262297e-001
556259.444	2.060973e-001	6.288202e-001	7.017032e-001	-2.170978e-001	7.033146e-001	-2.163707e-001	2.029709e-001	6.264759e-001
562509.438	2.112554e-001	6.289926e-001	6.985893e-001	-2.216341e-001	7.001697e-001	-2.209627e-001	2.081394e-001	6.266237e-001
568759.431	2.163913e-001	6.291358e-001	6.954229e-001	-2.260661e-001	6.970277e-001	-2.253942e-001	2.132031e-001	6.268510e-001
575009.425	2.215666e-001	6.291746e-001	6.922057e-001	-2.304583e-001	6.938346e-001	-2.298265e-001	2.183451e-001	6.269786e-001
581259.419	2.266899e-001	6.292181e-001	6.889637e-001	-2.347438e-001	6.906274e-001	-2.340562e-001	2.233504e-001	6.271712e-001
587509.412	2.317440e-001	6.293174e-001	6.857232e-001	-2.389015e-001	6.874171e-001	-2.382104e-001	2.283310e-001	6.273414e-001
593759.406	2.367647e-001	6.294094e-001	6.824506e-001	-2.429782e-001	6.841337e-001	-2.423470e-001	2.333547e-001	6.274248e-001
600009.400	2.417583e-001	6.294731e-001	6.791570e-001	-2.469601e-001	6.808556e-001	-2.463259e-001	2.382851e-001	6.275654e-001
606259.394	2.467187e-001	6.295290e-001	6.758698e-001	-2.508688e-001	6.775497e-001	-2.503074e-001	2.432532e-001	6.276105e-001
612509.387	2.516970e-001	6.294875e-001	6.725003e-001	-2.547529e-001	6.742288e-001	-2.541401e-001	2.481323e-001	6.277235e-001
618759.381	2.565979e-001	6.294948e-001	6.691754e-001	-2.584927e-001	6.708865e-001	-2.579196e-001	2.530231e-001	6.277302e-001
625009.375	2.614602e-001	6.294689e-001	6.658235e-001	-2.621636e-001	6.675387e-001	-2.616132e-001	2.578642e-001	6.277622e-001
631259.369	2.663029e-001	6.294606e-001	6.624458e-001	-2.657423e-001	6.641857e-001	-2.652036e-001	2.626513e-001	6.278243e-001
637509.362	2.711379e-001	6.294497e-001	6.590680e-001	-2.692668e-001	6.607793e-001	-2.687634e-001	2.674810e-001	6.277814e-001
643759.356	2.759722e-001	6.293056e-001	6.556594e-001	-2.727429e-001	6.574024e-001	-2.721970e-001	2.722223e-001	6.278049e-001
650009.350	2.807319e-001	6.292376e-001	6.522660e-001	-2.760972e-001	6.539869e-001	-2.756193e-001	2.769985e-001	6.277288e-001
656259.344	2.854751e-001	6.291407e-001	6.488449e-001	-2.793822e-001	6.505757e-001	-2.788973e-001	2.816783e-001	6.277086e-001
662509.337	2.901921e-001	6.290305e-001	6.454198e-001	-2.825866e-001	6.471467e-001	-2.821660e-001	2.863852e-001	6.275945e-001
668759.331	2.948760e-001	6.289146e-001	6.420010e-001	-2.857200e-001	6.437594e-001	-2.852980e-001	2.910080e-001	6.275540e-001
675009.325	2.995370e-001	6.287684e-001	6.385818e-001	-2.888085e-001	6.403165e-001	-2.883963e-001	2.956427e-001	6.274750e-001
681259.319	3.042224e-001	6.285135e-001	6.351027e-001	-2.918335e-001	6.368617e-001	-2.914471e-001	3.002811e-001	6.272936e-001
687509.313	3.088466e-001	6.283308e-001	6.316714e-001	-2.947808e-001	6.334378e-001	-2.943747e-001	3.048377e-001	6.271879e-001
693759.306	3.134354e-001	6.281381e-001	6.282139e-001	-2.976595e-001	6.299755e-001	-2.972901e-001	3.094271e-001	6.269782e-001
700009.300	3.179846e-001	6.279149e-001	6.247752e-001	-3.004529e-001	6.265345e-001	-3.001065e-001	3.139377e-001	6.268168e-001
706259.294	3.225296e-001	6.276751e-001	6.213099e-001	-3.031709e-001	6.231173e-001	-3.028403e-001	3.184198e-001	6.266613e-001
712509.287	3.270732e-001	6.273161e-001	6.178443e-001	-3.058744e-001	6.196450e-001	-3.055762e-001	3.229210e-001	6.263729e-001
718759.281	3.315738e-001	6.270346e-001	6.143737e-001	-3.084945e-001	6.162267e-001	-3.081737e-001	3.273553e-001	6.261707e-001
725009.275	3.360355e-001	6.267413e-001	6.109491e-001	-3.110451e-001	6.127684e-001	-3.107889e-001	3.318147e-001	6.258667e-001
731259.269	3.404502e-001	6.264240e-001	6.074967e-001	-3.135254e-001	6.093426e-001	-3.132701e-001	3.361862e-001	6.256323e-001
737509.262	3.452194e-001	6.275232e-001	6.045240e-001	-3.160033e-001	6.062970e-001	-3.159333e-001	3.407904e-001	6.266857e-001
743759.256	3.496058e-001	6.271245e-001	6.010780e-001	-3.184102e-001	6.028403e-001	-3.183691e-001	3.451781e-001	6.262779e-001
750009.250	3.540133e-001	6.266111e-001	5.975868e-001	-3.207968e-001	5.994147e-001	-3.206733e-001	3.494762e-001	6.259373e-001
756259.244	3.583310e-001	6.262014e-001	5.941834e-001	-3.230739e-001	5.959944e-001	-3.229609e-001	3.537570e-001	6.255894e-001
762509.237	3.626337e-001	6.257497e-001	5.907543e-001	-3.252780e-001	5.925550e-001	-3.252200e-001	3.580715e-001	6.251519e-001
768759.231	3.669338e-001	6.252797e-001	5.873316e-001	-3.274761e-001	5.891282e-001	-3.273744e-001	3.623056e-001	6.247614e-001
775009.225	3.712281e-001	6.246901e-001	5.838766e-001	-3.296093e-001	5.856941e-001	-3.295270e-001	3.665516e-001	6.242396e-001
781259.219	3.754621e-001	6.241954e-001	5.804817e-001	-3.316716e-001	5.822926e-001	-3.315919e-001	3.707357e-001	6.238366e-001
787509.212	3.795952e-001	6.237275e-001	5.771018e-001	-3.336330e-001	5.788788e-001	-3.335972e-001	3.748569e-001	6.233504e-001
793759.206	3.837599e-001	6.231664e-001	5.736974e-001	-3.355685e-001	5.754844e-001	-3.355816e-001	3.790096e-001	6.228034e-001
800009.200	3.879354e-001	6.226157e-001	5.703141e-001	-3.374545e-001	5.721092e-001	-3.374702e-001	3.831146e-001	6.223454e-001
806259.194	3.920512e-001	6.220327e-001	5.669348e-001	-3.393115e-001	5.687053e-001	-3.393518e-001	3.872249e-001	6.217613e-001
812509.188	3.961533e-001	6.214355e-001	5.635788e-001	-3.411171e-001	5.653573e-001	-3.411665e-001	3.912797e-001	6.212702e-001
818759.181	4.002428e-001	6.207271e-001	5.602064e-001	-3.429222e-001	5.620154e-001	-3.429302e-001	3.953136e-001	6.207587e-001
825009.175	4.042714e-001	6.200842e-001	5.568474e-001	-3.446094e-001	5.586540e-001	-3.446622e-001	3.993493e-001	6.201155e-001
831259.169	4.082940e-001	6.194465e-001	5.535134e-001	-3.462915e-001	5.553385e-001	-3.463370e-001	4.033334e-001	6.195636e-001
837509.162	4.123009e-001	6.187896e-001	5.502097e-001	-3.478923e-001	5.519740e-001	-3.479788e-001	4.073004e-001	6.188941e-001
843759.156	4.162556e-001	6.181243e-001	5.468936e-001	-3.494494e-001	5.486926e-001	-3.495446e-001	4.112335e-001	6.183258e-001
850009.150	4.201919e-001	6.174418e-001	5.435878e-001	-3.509825e-001	5.454018e-001	-3.510802e-001	4.151387e-001	6.177282e-001
856259.144	4.240953e-001	6.167396e-001	5.403285e-001	-3.524669e-001	5.420847e-001	-3.526004e-001	4.190372e-001	6.170150e-001
862509.137	4.279778e-001	6.160156e-001	5.370627e-001	-3.539034e-001	5.388261e-001	-3.540531e-001	4.228897e-001	6.163788e-001
868759.131	4.318321e-001	6.152915e-001	5.338156e-001	-3.552888e-001	5.355320e-001	-3.554715e-001	4.267398e-001	6.156405e-001
875009.125	4.356482e-001	6.145530e-001	5.305942e-001	-3.566566e-001	5.323236e-001	-3.568224e-001	4.305153e-001	6.149642e-001
881259.119	4.394728e-001	6.136879e-001	5.273193e-001	-3.580195e-001	5.291097e-001	-3.581458e-001	4.342980e-001	6.143224e-001
887509.112	4.432448e-001	6.129060e-001	5.241207e-001	-3.592888e-001	5.258771e-001	-3.594436e-001	4.380526e-001	6.135273e-001
893759.106	4.469863e-001	6.121230e-001	5.209326e-001	-3.605534e-001	5.226663e-001	-3.606726e-001	4.417639e-001	6.128288e-001
900009.100	4.507189e-001	6.113210e-001	5.177372e-001	-3.617439e-001	5.194879e-001	-3.619082e-001	4.454763e-001	6.120238e-001
906259.094	4.544165e-001	6.105167e-001	5.145749e-001	-3.628800e-001	5.163305e-001	-3.630567e-001	4.491379e-001	6.112941e-001
912509.087	4.581184e-001	6.096785e-001	5.114212e-001	-3.640458e-001	5.131590e-001	-3.642286e-001	4.528167e-001	6.105462e-001
918759.081	4.617714e-001	6.088322e-001	5.082807e-001	-3.651122e-001	5.100176e-001	-3.653323e-001	4.564545e-001	6.096812e-001
925009.075	4.653920e-001	6.079876e-001	5.051744e-001	-3.661762e-001	5.069052e-001	-3.663911e-001	4.600599e-001	6.089369e-001
931259.069	4.689679e-001	6.071446e-001	5.020923e-001	-3.672052e-001	5.038186e-001	-3.674252e-001	4.636368e-001	6.081637e-001
937509.063	4.725158e-001	6.062873e-001	4.989958e-001	-3.682039e-001	5.006890e-001	-3.684489e-001	4.672116e-001	6.072639e-001
943759.056	4.760630e-001	6.054099e-001	4.959195e-001	-3.691639e-001	4.976369e-001	-3.694075e-001	4.707389e-001	6.064910e-001
950009.050	4.795960e-001	6.045217e-001	4.928850e-001	-3.700761e-001	4.945797e-001	-3.703112e-001	4.742247e-001	6.056765e-001
956259.044	4.830973e-001	6.036166e-001	4.898572e-001	-3.709765e-001	4.914973e-001	-3.712412e-001	4.777366e-001	6.047500e-001
962509.037	4.865788e-001	6.026992e-001	4.868419e-001	-3.718352e-001	4.884970e-001	-3.720837e-001	4.811589e-001	6.039123e-001
968759.031	4.900230e-001	6.017752e-001	4.838314e-001	-3.726804e-001	4.855001e-001	-3.729179e-001	4.846129e-001	6.030660e-001
975009.025	4.934616e-001	6.007206e-001	4.807929e-001	-3.734937e-001	4.824661e-001	-3.737309e-001	4.880158e-001	6.020967e-001
981259.019	4.968627e-001	5.997762e-001	4.778275e-001	-3.742469e-001	4.795217e-001	-3.744980e-001	4.913860e-001	6.012387e-001
