"# Channel 1"
"# Trace 4"
Frequency, Formatted Data, Formatted Data
+1.00000000000E+001, -3.78079274676E+003, -1.39206445860E+004
+6.25999375000E+003, -7.26844353809E+000, -2.50424638492E+002
+1.25099875000E+004, -1.04565178311E+000, -1.23934210134E+002
+1.87599812500E+004, +1.94098901599E-001, -8.10920868694E+001
+2.50099750000E+004, +7.45677213265E-001, -5.93260991444E+001
+3.12599687500E+004, +1.05814897629E+000, -4.60016095083E+001
+3.75099625000E+004, +1.25792140391E+000, -3.68949882505E+001
+4.37599562500E+004, +1.39211471239E+000, -3.01935272455E+001
+5.00099500000E+004, +1.48674982272E+000, -2.50006898678E+001
+5.62599437500E+004, +1.55573115132E+000, -2.07991850233E+001
+6.25099375000E+004, +1.60832553618E+000, -1.72952440019E+001
+6.87599312500E+004, +1.64742036976E+000, -1.42963091657E+001
+7.50099250000E+004, +1.67625988415E+000, -1.16779687013E+001
+8.12599187500E+004, +1.70028385531E+000, -9.34733041571E+000
+8.75099125000E+004, +1.71760602236E+000, -7.24499649781E+000
+9.37599062500E+004, +1.72257502176E+000, -5.32008173906E+000
+1.00009900000E+005, +1.73428988536E+000, -3.54523924999E+000
+1.06259893750E+005, +1.74232706678E+000, -1.89190682884E+000
+1.12509887500E+005, +1.75141594212E+000, -3.38864665863E-001
+1.18759881250E+005, +1.75731481097E+000, +1.12909772928E+000
+1.25009875000E+005, +1.76211268453E+000, +2.52517433278E+000
+1.31259868750E+005, +1.76704167000E+000, +3.85914898256E+000
+1.37509862500E+005, +1.76949596552E+000, +5.14190360508E+000
+1.43759856250E+005, +1.77389500201E+000, +6.37684285427E+000
+1.50009850000E+005, +1.77658490800E+000, +7.57190471089E+000
+1.56259843750E+005, +1.78014822674E+000, +8.73145531487E+000
+1.62509837500E+005, +1.78227891106E+000, +9.85909606663E+000
+1.68759831250E+005, +1.78350178719E+000, +1.09617658839E+001
+1.75009825000E+005, +1.78713367480E+000, +1.20356884520E+001
+1.81259818750E+005, +1.78901605579E+000, +1.30895193310E+001
+1.87509812500E+005, +1.79304621868E+000, +1.41213766351E+001
+1.93759806250E+005, +1.79555309672E+000, +1.51363526440E+001
+2.00009800000E+005, +1.79882442918E+000, +1.61350022247E+001
+2.06259793750E+005, +1.80189792149E+000, +1.71174243867E+001
+2.12509787500E+005, +1.80455698266E+000, +1.80871836197E+001
+2.18759781250E+005, +1.80642681854E+000, +1.90468663236E+001
+2.25009775000E+005, +1.81012598510E+000, +1.99912445576E+001
+2.31259768750E+005, +1.81246761010E+000, +2.09290134154E+001
+2.37509762500E+005, +1.81532405299E+000, +2.18528301296E+001
+2.43759756250E+005, +1.81859950276E+000, +2.27719898804E+001
+2.50009750000E+005, +1.82180408513E+000, +2.36829749448E+001
+2.56259743750E+005, +1.82474836275E+000, +2.45856961897E+001
+2.62509737500E+005, +1.82816161773E+000, +2.54772832227E+001
+2.68759731250E+005, +1.83077107691E+000, +2.63660125495E+001
+2.75009725000E+005, +1.83459605781E+000, +2.72487223169E+001
+2.81259718750E+005, +1.83685311976E+000, +2.81306235879E+001
+2.87509712500E+005, +1.84075867391E+000, +2.90027652151E+001
+2.93759706250E+005, +1.84445248956E+000, +2.98745000479E+001
+3.00009700000E+005, +1.84844606677E+000, +3.07422716604E+001
+3.06259693750E+005, +1.85137644765E+000, +3.16002194239E+001
+3.12509687500E+005, +1.85483601014E+000, +3.24541241983E+001
+3.18759681250E+005, +1.86038280217E+000, +3.33098734188E+001
+3.25009675000E+005, +1.86414560626E+000, +3.41557490849E+001
+3.31259668750E+005, +1.86815776613E+000, +3.49987181836E+001
+3.37509662500E+005, +1.87269243054E+000, +3.58387292660E+001
+3.43759656250E+005, +1.87685052201E+000, +3.66815885404E+001
+3.50009650000E+005, +1.88241060218E+000, +3.75154174120E+001
+3.56259643750E+005, +1.88623482895E+000, +3.83470812715E+001
+3.62509637500E+005, +1.89062810977E+000, +3.91767080713E+001
+3.68759631250E+005, +1.89650843004E+000, +4.00107819662E+001
+3.75009625000E+005, +1.90046987049E+000, +4.08356162544E+001
+3.81259618750E+005, +1.90369591858E+000, +4.16578860884E+001
+3.87509612500E+005, +1.90771199338E+000, +4.24790047428E+001
+3.93759606250E+005, +1.91400015795E+000, +4.33027376440E+001
+4.00009600000E+005, +1.91823064170E+000, +4.41206818137E+001
+4.06259593750E+005, +1.92244762277E+000, +4.49363191520E+001
+4.12509587500E+005, +1.92894212068E+000, +4.57566284198E+001
+4.18759581250E+005, +1.93467309169E+000, +4.65691124561E+001
+4.25009575000E+005, +1.93889620651E+000, +4.73805324139E+001
+4.31259568750E+005, +1.94596753728E+000, +4.81971525374E+001
+4.37509562500E+005, +1.95030548263E+000, +4.90054147621E+001
+4.43759556250E+005, +1.95409628851E+000, +4.98118395927E+001
+4.50009550000E+005, +1.96239823022E+000, +5.06290556420E+001
+4.56259543750E+005, +1.96639970495E+000, +5.14325187291E+001
+4.62509537500E+005, +1.97103131946E+000, +5.22372026860E+001
+4.68759531250E+005, +1.97584219672E+000, +5.30409213567E+001
+4.75009525000E+005, +1.98432975911E+000, +5.38510901243E+001
+4.81259518750E+005, +1.98883504865E+000, +5.46519178092E+001
+4.87509512500E+005, +1.99452166333E+000, +5.54551341648E+001
+4.93759506250E+005, +1.99870067481E+000, +5.62538691455E+001
+5.00009500000E+005, +2.00689533174E+000, +5.70617358200E+001
+5.06259493750E+005, +2.01098944590E+000, +5.78592485972E+001
+5.12509487500E+005, +2.02002759318E+000, +5.86681245250E+001
+5.18759481250E+005, +2.02512216858E+000, +5.94650383106E+001
+5.25009475000E+005, +2.02973346874E+000, +6.02659305440E+001
+5.31259468750E+005, +2.03924125298E+000, +6.10710910956E+001
+5.37509462500E+005, +2.04435720313E+000, +6.18683945384E+001
+5.43759456250E+005, +2.04824265939E+000, +6.26637754498E+001
+5.50009450000E+005, +2.05255711279E+000, +6.34597947590E+001
+5.56259443750E+005, +2.05719584651E+000, +6.42534433898E+001
+5.62509437500E+005, +2.06153097596E+000, +6.50505173130E+001
+5.68759431250E+005, +2.06871509794E+000, +6.58459108731E+001
+5.75009425000E+005, +2.07945445560E+000, +6.66526802880E+001
+5.81259418750E+005, +2.08997521552E+000, +6.74576479582E+001
+5.87509412500E+005, +2.09525657293E+000, +6.82514471616E+001
+5.93759406250E+005, +2.09910031143E+000, +6.90460167275E+001
+6.00009400000E+005, +2.10379779634E+000, +6.98392429123E+001
+6.06259393750E+005, +2.10870049883E+000, +7.06339572503E+001
+6.12509387500E+005, +2.12084235136E+000, +7.14380301747E+001
+6.18759381250E+005, +2.12609919242E+000, +7.22339493826E+001
+6.25009375000E+005, +2.13240176012E+000, +7.30308463509E+001
+6.31259368750E+005, +2.13593078069E+000, +7.38239919990E+001
+6.37509362500E+005, +2.14089220566E+000, +7.46174403360E+001
+6.43759356250E+005, +2.15450785288E+000, +7.54247733924E+001
+6.50009350000E+005, +2.16002929586E+000, +7.62197144866E+001
+6.56259343750E+005, +2.16220462571E+000, +7.70123850490E+001
+6.62509337500E+005, +2.16874746518E+000, +7.78084252693E+001
+6.68759331250E+005, +2.17324524159E+000, +7.86026022611E+001
+6.75009325000E+005, +2.17754715435E+000, +7.93963042972E+001
+6.81259318750E+005, +2.19451957706E+000, +8.02039100797E+001
+6.87509312500E+005, +2.19729343849E+000, +8.09995761020E+001
+6.93759306250E+005, +2.20180488566E+000, +8.17945104783E+001
+7.00009300000E+005, +2.20843144846E+000, +8.25897947838E+001
+7.06259293750E+005, +2.21392766924E+000, +8.33853128501E+001
+7.12509287500E+005, +2.22994792952E+000, +8.41970462176E+001
+7.18759281250E+005, +2.23484248122E+000, +8.49909904660E+001
+7.25009275000E+005, +2.23884065036E+000, +8.57897040607E+001
+7.31259268750E+005, +2.24371289821E+000, +8.65845621609E+001
+7.37509262500E+005, +2.05018185660E+000, +8.72450175158E+001
+7.43759256250E+005, +2.05451526845E+000, +8.80464080991E+001
+7.50009250000E+005, +2.07135722937E+000, +8.88632528441E+001
+7.56259243750E+005, +2.07929062878E+000, +8.96659374964E+001
+7.62509237500E+005, +2.08748028708E+000, +9.04691021863E+001
+7.68759231250E+005, +2.09473385844E+000, +9.12778373439E+001
+7.75009225000E+005, +2.11360988501E+000, +9.20965161817E+001
+7.81259218750E+005, +2.12142147157E+000, +9.29035487258E+001
+7.87509212500E+005, +2.12769872761E+000, +9.36968342881E+001
+7.93759206250E+005, +2.13639578098E+000, +9.45005616227E+001
+8.00009200000E+005, +2.14252262778E+000, +9.53058700684E+001
+8.06259193750E+005, +2.15010081143E+000, +9.61109826546E+001
+8.12509187500E+005, +2.15632576337E+000, +9.69171862188E+001
+8.18759181250E+005, +2.18169300769E+000, +9.77371851963E+001
+8.25009175000E+005, +2.18736480037E+000, +9.85426341079E+001
+8.31259168750E+005, +2.19410033648E+000, +9.93472938164E+001
+8.37509162500E+005, +2.20016490951E+000, +1.00159524790E+002
+8.43759156250E+005, +2.21320971311E+000, +1.00964881228E+002
+8.50009150000E+005, +2.22058621421E+000, +1.01778123678E+002
+8.56259143750E+005, +2.22865867347E+000, +1.02585326831E+002
+8.62509137500E+005, +2.23719432265E+000, +1.03397313468E+002
+8.68759131250E+005, +2.24454722510E+000, +1.04206972682E+002
+8.75009125000E+005, +2.25499820281E+000, +1.05017415475E+002
+8.81259118750E+005, +2.27849737700E+000, +1.05843444721E+002
+8.87509112500E+005, +2.28914150281E+000, +1.06656804755E+002
+8.93759106250E+005, +2.29582919017E+000, +1.07470222313E+002
+9.00009100000E+005, +2.30794363598E+000, +1.08283728522E+002
+9.06259093750E+005, +2.31777395665E+000, +1.09097940914E+002
+9.12509087500E+005, +2.33300614736E+000, +1.09918156531E+002
+9.18759081250E+005, +2.34053960134E+000, +1.10733273079E+002
+9.25009075000E+005, +2.35603064054E+000, +1.11541742978E+002
+9.31259068750E+005, +2.36174297249E+000, +1.12358007481E+002
+9.37509062500E+005, +2.37190775519E+000, +1.13168928698E+002
+9.43759056250E+005, +2.38249976530E+000, +1.13983685429E+002
+9.50009050000E+005, +2.39132832031E+000, +1.14795614664E+002
+9.56259043750E+005, +2.40444430795E+000, +1.15616157826E+002
+9.62509037500E+005, +2.40897571772E+000, +1.16431714351E+002
+9.68759031250E+005, +2.42025715975E+000, +1.17251597283E+002
+9.75009025000E+005, +2.44857808875E+000, +1.18084831806E+002
+9.81259018750E+005, +2.46104340449E+000, +1.18903540665E+002
+9.87509012500E+005, +2.46879568533E+000, +1.19730956354E+002
+9.93759006250E+005, +2.47568889791E+000, +1.20550166723E+002
+1.00000900000E+006, +2.48482672411E+000, +1.21370547741E+002
+1.00625899375E+006, +2.49551037421E+000, +1.22190858734E+002
+1.01250898750E+006, +2.50336539956E+000, +1.23014612505E+002
+1.01875898125E+006, +2.51151887960E+000, +1.23838430594E+002
+1.02500897500E+006, +2.52145030541E+000, +1.24663072149E+002
+1.03125896875E+006, +2.53009655097E+000, +1.25489043939E+002
+1.03750896250E+006, +2.53811396017E+000, +1.26312108971E+002
+1.04375895625E+006, +2.56028726805E+000, +1.27149922749E+002
+1.05000895000E+006, +2.56574743030E+000, +1.27974685362E+002
+1.05625894375E+006, +2.57376380922E+000, +1.28808010513E+002
+1.06250893750E+006, +2.58036455203E+000, +1.29631895035E+002
+1.06875893125E+006, +2.61725222906E+000, +1.30483488744E+002
+1.07500892500E+006, +2.62319761909E+000, +1.31310973948E+002
+1.08125891875E+006, +2.63065670375E+000, +1.32144434643E+002
+1.08750891250E+006, +2.64075020704E+000, +1.32979088997E+002
+1.09375890625E+006, +2.64448353218E+000, +1.33813743151E+002
+1.10000890000E+006, +2.65084590865E+000, +1.34648741393E+002
+1.10625889375E+006, +2.66494186004E+000, +1.35486507901E+002
+1.11250888750E+006, +2.67010286906E+000, +1.36323375288E+002
+1.11875888125E+006, +2.71220299323E+000, +1.37179079814E+002
+1.12500887500E+006, +2.72188038309E+000, +1.38022964276E+002
+1.13125886875E+006, +2.73148796033E+000, +1.38860879400E+002
+1.13750886250E+006, +2.73968180333E+000, +1.39702242975E+002
+1.14375885625E+006, +2.72020471928E+000, +1.40514019512E+002
+1.15000885000E+006, +2.72525778854E+000, +1.41351821056E+002
+1.15625884375E+006, +2.73007633760E+000, +1.42188859873E+002
+1.16250883750E+006, +2.77635325323E+000, +1.43051138531E+002
+1.16875883125E+006, +2.78603966439E+000, +1.43892591768E+002
+1.17500882500E+006, +2.78833532651E+000, +1.44739507409E+002
+1.18125881875E+006, +2.79647460846E+000, +1.45583431683E+002
+1.18750881250E+006, +2.80460474375E+000, +1.46426449546E+002
+1.19375880625E+006, +2.80777411641E+000, +1.47275711745E+002
+1.20000880000E+006, +2.85810611793E+000, +1.48145123897E+002
+1.20625879375E+006, +2.86126365216E+000, +1.48998202194E+002
+1.21250878750E+006, +2.86408165670E+000, +1.49849114028E+002
+1.21875878125E+006, +2.87057911935E+000, +1.50701949269E+002
+1.22500877500E+006, +2.87585458126E+000, +1.51551672020E+002
+1.23125876875E+006, +2.88616616065E+000, +1.52405977751E+002
+1.23750876250E+006, +2.93321792958E+000, +1.53282729512E+002
+1.24375875625E+006, +2.94081674542E+000, +1.54141357132E+002
+1.25000875000E+006, +2.94223322964E+000, +1.55004977153E+002
+1.25625874375E+006, +2.94492175524E+000, +1.55863010315E+002
+1.26250873750E+006, +2.95331105108E+000, +1.56723528246E+002
+1.26875873125E+006, +3.00157234332E+000, +1.57606407645E+002
+1.27500872500E+006, +3.00859647478E+000, +1.58462338636E+002
+1.28125871875E+006, +3.02203794382E+000, +1.59325301177E+002
+1.28750871250E+006, +3.02338234683E+000, +1.60187337556E+002
+1.29375870625E+006, +3.02940616535E+000, +1.61053630066E+002
+1.30000870000E+006, +3.03664447998E+000, +1.61916469757E+002
+1.30625869375E+006, +3.09364805229E+000, +1.62810778276E+002
+1.31250868750E+006, +3.09606885458E+000, +1.63680848285E+002
+1.31875868125E+006, +3.10484869020E+000, +1.64547061826E+002
+1.32500867500E+006, +3.11101333744E+000, +1.65417721028E+002
+1.33125866875E+006, +3.11536980677E+000, +1.66295389191E+002
+1.33750866250E+006, +3.12537408478E+000, +1.67157620161E+002
+1.34375865625E+006, +3.18326100651E+000, +1.68060828730E+002
+1.35000865000E+006, +3.19037372478E+000, +1.68934130232E+002
+1.35625864375E+006, +3.19340451438E+000, +1.69808077495E+002
+1.36250863750E+006, +3.20209299751E+000, +1.70689356423E+002
+1.36875863125E+006, +3.21090520762E+000, +1.71570095082E+002
+1.37500862500E+006, +3.21181321910E+000, +1.72450878663E+002
+1.38125861875E+006, +3.27073290895E+000, +1.73349466985E+002
+1.38750861250E+006, +3.27524986066E+000, +1.74234277392E+002
+1.39375860625E+006, +3.28445919479E+000, +1.75123653672E+002
+1.40000860000E+006, +3.28967111378E+000, +1.76007158435E+002
+1.40625859375E+006, +3.29973584274E+000, +1.76886862980E+002
+1.41250858750E+006, +3.35332480859E+000, +1.77805196940E+002
+1.41875858125E+006, +3.35084365556E+000, +1.78697399478E+002
+1.42500857500E+006, +3.36078129045E+000, +1.79586087316E+002
+1.43125856875E+006, +3.36081686309E+000, +1.80480220102E+002
+1.43750856250E+006, +3.37232241968E+000, +1.81376196084E+002
+1.44375855625E+006, +3.37319009674E+000, +1.82267183615E+002
+1.45000855000E+006, +3.44061691606E+000, +1.83195549919E+002
+1.45625854375E+006, +3.44892583189E+000, +1.84089841877E+002
+1.46250853750E+006, +3.45828795404E+000, +1.84987558277E+002
+1.46875853125E+006, +3.43464937220E+000, +1.85888619556E+002
+1.47500852500E+006, +3.43899653619E+000, +1.86787724096E+002
+1.48125851875E+006, +3.44655809071E+000, +1.87694649020E+002
+1.48750851250E+006, +3.44769317972E+000, +1.88604510412E+002
+1.49375850625E+006, +3.52165001454E+000, +1.89532308141E+002
+1.50000850000E+006, +3.52640277438E+000, +1.90444388454E+002
+1.50625849375E+006, +3.53462560112E+000, +1.91360502877E+002
+1.51250848750E+006, +3.54523011433E+000, +1.92266610813E+002
+1.51875848125E+006, +3.55503018024E+000, +1.93183040411E+002
+1.52500847500E+006, +3.55640648005E+000, +1.94095348012E+002
+1.53125846875E+006, +3.56825863438E+000, +1.95015268152E+002
+1.53750846250E+006, +3.57579620666E+000, +1.95930397419E+002
+1.54375845625E+006, +3.64394545343E+000, +1.96887384475E+002
+1.55000845000E+006, +3.65442214276E+000, +1.97805530103E+002
+1.55625844375E+006, +3.66243824690E+000, +1.98727919725E+002
+1.56250843750E+006, +3.70654767528E+000, +1.99649186428E+002
+1.56875843125E+006, +3.69529827606E+000, +2.00567875213E+002
+1.57500842500E+006, +3.69431164495E+000, +2.01496406483E+002
+1.58125841875E+006, +3.69856346260E+000, +2.02426200745E+002
+1.58750841250E+006, +3.77482157819E+000, +2.03392179935E+002
+1.59375840625E+006, +3.77985639437E+000, +2.04326701439E+002
+1.60000840000E+006, +3.78413467051E+000, +2.05257152039E+002
+1.60625839375E+006, +3.79798179918E+000, +2.06195656568E+002
+1.61250838750E+006, +3.79826952277E+000, +2.07134563236E+002
+1.61875838125E+006, +3.80182844462E+000, +2.08078930584E+002
+1.62500837500E+006, +3.80884023078E+000, +2.09018239825E+002
+1.63125836875E+006, +3.81867986900E+000, +2.09968668224E+002
+1.63750836250E+006, +3.91227656409E+000, +2.10954625718E+002
+1.64375835625E+006, +3.92024039883E+000, +2.11897200248E+002
+1.65000835000E+006, +3.92571030763E+000, +2.12848029180E+002
+1.65625834375E+006, +3.93024111061E+000, +2.13795257650E+002
+1.66250833750E+006, +3.94306770991E+000, +2.14756407724E+002
+1.66875833125E+006, +3.95788855232E+000, +2.15714789733E+002
+1.67500832500E+006, +3.96853489582E+000, +2.16669146003E+002
+1.68125831875E+006, +3.97432203398E+000, +2.17625872802E+002
+1.68750831250E+006, +4.07755717295E+000, +2.18610198692E+002
+1.69375830625E+006, +4.08684520082E+000, +2.19577292174E+002
+1.70000830000E+006, +4.09384472143E+000, +2.20541647957E+002
+1.70625829375E+006, +4.10985782372E+000, +2.21511651576E+002
+1.71250828750E+006, +4.26884162901E+000, +2.22534850577E+002
+1.71875828125E+006, +4.28040748437E+000, +2.23492817146E+002
+1.72500827500E+006, +4.28724606735E+000, +2.24478446813E+002
+1.73125826875E+006, +4.28864808460E+000, +2.25443664311E+002
+1.73750826250E+006, +4.39717872340E+000, +2.26447595920E+002
+1.74375825625E+006, +4.40023098431E+000, +2.27429881687E+002
+1.75000825000E+006, +4.42585006823E+000, +2.28404209227E+002
+1.75625824375E+006, +4.41960136588E+000, +2.29387537667E+002
+1.76250823750E+006, +4.42725934820E+000, +2.30377473938E+002
+1.76875823125E+006, +4.44667019915E+000, +2.31344704584E+002
+1.77500822500E+006, +4.54497475404E+000, +2.32365685651E+002
+1.78125821875E+006, +4.55719429531E+000, +2.33356849382E+002
+1.78750821250E+006, +4.56153335664E+000, +2.34352542911E+002
+1.79375820625E+006, +4.57365781039E+000, +2.35346352550E+002
+1.80000820000E+006, +4.58451430659E+000, +2.36332565211E+002
+1.80625819375E+006, +4.60494375682E+000, +2.37340778440E+002
+1.81250818750E+006, +4.61550707407E+000, +2.38323144908E+002
+1.81875818125E+006, +4.71391608598E+000, +2.39354965421E+002
+1.82500817500E+006, +4.73640138227E+000, +2.40369700800E+002
+1.83125816875E+006, +4.73709309205E+000, +2.41369426301E+002
+1.83750816250E+006, +4.75499944348E+000, +2.42376857057E+002
+1.84375815625E+006, +4.75329529305E+000, +2.43389607502E+002
+1.85000815000E+006, +4.76934514050E+000, +2.44392589384E+002
+1.85625814375E+006, +4.89605049333E+000, +2.45450281136E+002
+1.86250813750E+006, +4.90910971764E+000, +2.46466137077E+002
+1.86875813125E+006, +4.92152651706E+000, +2.47473890340E+002
+1.87500812500E+006, +4.96389001515E+000, +2.48507414500E+002
+1.88125811875E+006, +4.97174380729E+000, +2.49519616207E+002
+1.88750811250E+006, +4.99338755561E+000, +2.50545220243E+002
+1.89375810625E+006, +4.99441395457E+000, +2.51578211252E+002
+1.90000810000E+006, +5.12400486248E+000, +2.52644695080E+002
+1.90625809375E+006, +5.14483670221E+000, +2.53673693310E+002
+1.91250808750E+006, +5.13634277147E+000, +2.54716693438E+002
+1.91875808125E+006, +5.15837626591E+000, +2.55739328810E+002
+1.92500807500E+006, +5.17765668784E+000, +2.56780453153E+002
+1.93125806875E+006, +5.18295319164E+000, +2.57805983240E+002
+1.93750806250E+006, +5.19169561389E+000, +2.58850363816E+002
+1.94375805625E+006, +5.20039248062E+000, +2.59885020997E+002
+1.95000805000E+006, +5.33574174607E+000, +2.60977063771E+002
+1.95625804375E+006, +5.34797099772E+000, +2.62027974835E+002
+1.96250803750E+006, +5.35184470432E+000, +2.63069761341E+002
+1.96875803125E+006, +5.37537017681E+000, +2.64115581525E+002
+1.97500802500E+006, +5.55804884779E+000, +2.65226535643E+002
+1.98125801875E+006, +5.54350775008E+000, +2.66288912348E+002
+1.98750801250E+006, +5.55307117817E+000, +2.67339927956E+002
+1.99375800625E+006, +5.69067717498E+000, +2.68453645467E+002
+2.00000800000E+006, +5.69943902899E+000, +2.69506274141E+002
