!Keysight Technologies,E5061B,MY49912438,B.06.30
!Date: Thu Nov 06 22:12:27 2025
!Data & Calibration Information:
!Freq	S11:SOLT1(ON)
# Hz S dB R 50
10.000	1.578210e-002	-3.833125e-001
6259.994	9.673667e-002	-2.256468e+001
12509.987	5.085175e-002	-4.393979e+001
18759.981	-1.857570e-002	-6.331434e+001
25009.975	-1.075922e-001	-8.024312e+001
31259.969	-1.990912e-001	-9.475604e+001
37509.962	-2.829545e-001	-1.071303e+002
43759.956	-3.544209e-001	-1.177181e+002
50009.950	-4.132547e-001	-1.268362e+002
56259.944	-4.608335e-001	-1.347934e+002
62509.938	-4.991631e-001	-1.418058e+002
68759.931	-5.292388e-001	-1.480563e+002
75009.925	-5.524219e-001	-1.536803e+002
81259.919	-5.709745e-001	-1.587988e+002
87509.912	-5.846924e-001	-1.634916e+002
93759.906	-5.920054e-001	-1.678388e+002
100009.900	-5.997745e-001	-1.718788e+002
106259.894	-6.047241e-001	-1.756609e+002
112509.888	-6.087253e-001	-1.792224e+002
118759.881	-6.104933e-001	1.774095e+002
125009.875	-6.109129e-001	1.742105e+002
131259.869	-6.105443e-001	1.711621e+002
137509.862	-6.085931e-001	1.682424e+002
143759.856	-6.066844e-001	1.654460e+002
150009.850	-6.036366e-001	1.627564e+002
156259.844	-6.004011e-001	1.601648e+002
162509.837	-5.962589e-001	1.576642e+002
168759.831	-5.914303e-001	1.552396e+002
175009.825	-5.870912e-001	1.528997e+002
181259.819	-5.818742e-001	1.506258e+002
187509.813	-5.771091e-001	1.484220e+002
193759.806	-5.716171e-001	1.462775e+002
200009.800	-5.661695e-001	1.441909e+002
206259.794	-5.604931e-001	1.421620e+002
212509.787	-5.545314e-001	1.401832e+002
218759.781	-5.481855e-001	1.382491e+002
225009.775	-5.423141e-001	1.363698e+002
231259.769	-5.359133e-001	1.345279e+002
237509.762	-5.296236e-001	1.327373e+002
243759.756	-5.233601e-001	1.309798e+002
250009.750	-5.170244e-001	1.292619e+002
256259.744	-5.105826e-001	1.275833e+002
262509.737	-5.042785e-001	1.259489e+002
268759.731	-4.977078e-001	1.243432e+002
275009.725	-4.914601e-001	1.227715e+002
281259.719	-4.847554e-001	1.212245e+002
287509.712	-4.785339e-001	1.197173e+002
293759.706	-4.722327e-001	1.182336e+002
300009.700	-4.660224e-001	1.167791e+002
306259.694	-4.596188e-001	1.153631e+002
312509.688	-4.533833e-001	1.139755e+002
318759.681	-4.476431e-001	1.126064e+002
325009.675	-4.415616e-001	1.112743e+002
331259.669	-4.355812e-001	1.099675e+002
337509.662	-4.297679e-001	1.086857e+002
343759.656	-4.238710e-001	1.074200e+002
350009.650	-4.183908e-001	1.061877e+002
356259.644	-4.125746e-001	1.049782e+002
362509.637	-4.069395e-001	1.037909e+002
368759.631	-4.016266e-001	1.026163e+002
375009.625	-3.960220e-001	1.014735e+002
381259.619	-3.903375e-001	1.003525e+002
387509.612	-3.848796e-001	9.925105e+001
393759.606	-3.799084e-001	9.816380e+001
400009.600	-3.746223e-001	9.710171e+001
406259.594	-3.694086e-001	9.605967e+001
412509.587	-3.646508e-001	9.502847e+001
418759.581	-3.598553e-001	9.402365e+001
425009.575	-3.548444e-001	9.303636e+001
431259.569	-3.503728e-001	9.205865e+001
437509.563	-3.455233e-001	9.110667e+001
443759.556	-3.406547e-001	9.017210e+001
450009.550	-3.365540e-001	8.924010e+001
456259.544	-3.318639e-001	8.833871e+001
462509.537	-3.273369e-001	8.745032e+001
468759.531	-3.229089e-001	8.657716e+001
475009.525	-3.190935e-001	8.571091e+001
481259.519	-3.147520e-001	8.486846e+001
487509.512	-3.106436e-001	8.403686e+001
493759.506	-3.063900e-001	8.322304e+001
500009.500	-3.027521e-001	8.241279e+001
506259.494	-2.986141e-001	8.162573e+001
512509.487	-2.951969e-001	8.083985e+001
518759.481	-2.913249e-001	8.007793e+001
525009.475	-2.874215e-001	7.932418e+001
531259.469	-2.842382e-001	7.857812e+001
537509.463	-2.805366e-001	7.785101e+001
543759.456	-2.767374e-001	7.713691e+001
550009.450	-2.730543e-001	7.643323e+001
556259.444	-2.694862e-001	7.574240e+001
562509.438	-2.659190e-001	7.505922e+001
568759.431	-2.627808e-001	7.438779e+001
575009.425	-2.600771e-001	7.371708e+001
581259.419	-2.573899e-001	7.305816e+001
587509.412	-2.541568e-001	7.241841e+001
593759.406	-2.508007e-001	7.178771e+001
600009.400	-2.476082e-001	7.116748e+001
606259.394	-2.444856e-001	7.055535e+001
612509.387	-2.421982e-001	6.994507e+001
618759.381	-2.392010e-001	6.935020e+001
625009.375	-2.363646e-001	6.876338e+001
631259.369	-2.332870e-001	6.818799e+001
637509.362	-2.304152e-001	6.762076e+001
643759.356	-2.284499e-001	6.705186e+001
650009.350	-2.257126e-001	6.650011e+001
656259.344	-2.226851e-001	6.595798e+001
662509.337	-2.201408e-001	6.542127e+001
668759.331	-2.174400e-001	6.489356e+001
675009.325	-2.147671e-001	6.437370e+001
681259.319	-2.133172e-001	6.385201e+001
687509.313	-2.105636e-001	6.334572e+001
693759.306	-2.080250e-001	6.284699e+001
700009.300	-2.057246e-001	6.235501e+001
706259.294	-2.033561e-001	6.186979e+001
712509.287	-2.019214e-001	6.138142e+001
718759.281	-1.995691e-001	6.091068e+001
725009.275	-1.971605e-001	6.044368e+001
731259.269	-1.948817e-001	5.998532e+001
737509.262	-1.760604e-001	5.961338e+001
743759.256	-1.740152e-001	5.916270e+001
750009.250	-1.730027e-001	5.870943e+001
756259.244	-1.713042e-001	5.827030e+001
762509.237	-1.696501e-001	5.783687e+001
768759.231	-1.679295e-001	5.740637e+001
775009.225	-1.671259e-001	5.697630e+001
781259.219	-1.654937e-001	5.655829e+001
787509.212	-1.638051e-001	5.615287e+001
793759.206	-1.622981e-001	5.574749e+001
800009.200	-1.606158e-001	5.534672e+001
806259.194	-1.590676e-001	5.495131e+001
812509.188	-1.574408e-001	5.456056e+001
818759.181	-1.571827e-001	5.416805e+001
825009.175	-1.555511e-001	5.378787e+001
831259.169	-1.540216e-001	5.341295e+001
837509.162	-1.524504e-001	5.303939e+001
843759.156	-1.513972e-001	5.267364e+001
850009.150	-1.499542e-001	5.230913e+001
856259.144	-1.485931e-001	5.195192e+001
862509.137	-1.472709e-001	5.159714e+001
868759.131	-1.458959e-001	5.124787e+001
875009.125	-1.447381e-001	5.090260e+001
881259.119	-1.443869e-001	5.055495e+001
887509.112	-1.432545e-001	5.021711e+001
893759.106	-1.418920e-001	4.988351e+001
900009.100	-1.408807e-001	4.955393e+001
906259.094	-1.397421e-001	4.922815e+001
912509.087	-1.389274e-001	4.890393e+001
918759.081	-1.376780e-001	4.858578e+001
925009.075	-1.369222e-001	4.827394e+001
931259.069	-1.355958e-001	4.796302e+001
937509.063	-1.345524e-001	4.765779e+001
943759.056	-1.335386e-001	4.735477e+001
950009.050	-1.324455e-001	4.705641e+001
956259.044	-1.315851e-001	4.675843e+001
962509.037	-1.302794e-001	4.646587e+001
968759.031	-1.293460e-001	4.617514e+001
975009.025	-1.292986e-001	4.588297e+001
981259.019	-1.284413e-001	4.559947e+001
987509.012	-1.273349e-001	4.531637e+001
993759.006	-1.262148e-001	4.503934e+001
1000009.000	-1.252216e-001	4.476510e+001
1006258.994	-1.243185e-001	4.449401e+001
1012508.987	-1.232813e-001	4.422493e+001
1018758.981	-1.222727e-001	4.395891e+001
1025008.975	-1.213619e-001	4.369563e+001
1031258.969	-1.203992e-001	4.343493e+001
1037508.962	-1.194244e-001	4.317808e+001
1043758.956	-1.190970e-001	4.291943e+001
1050008.950	-1.180208e-001	4.266786e+001
1056258.944	-1.170627e-001	4.241649e+001
1062508.938	-1.160685e-001	4.217074e+001
1068758.931	-1.163916e-001	4.191926e+001
1075008.925	-1.153761e-001	4.167793e+001
1081258.919	-1.144315e-001	4.143752e+001
1087508.912	-1.136112e-001	4.119938e+001
1093758.906	-1.125305e-001	4.096390e+001
1100008.900	-1.115757e-001	4.073087e+001
1106258.894	-1.109518e-001	4.049953e+001
1112508.888	-1.099675e-001	4.027102e+001
1118758.881	-1.104744e-001	4.003957e+001
1125008.875	-1.096738e-001	3.981409e+001
1131258.869	-1.088887e-001	3.959261e+001
1137508.863	-1.080529e-001	3.937260e+001
1143758.856	-1.061883e-001	3.916278e+001
1150008.850	-1.052681e-001	3.894826e+001
1156258.844	-1.043527e-001	3.873617e+001
1162508.837	-1.049842e-001	3.851965e+001
1168758.831	-1.042543e-001	3.831090e+001
1175008.825	-1.032528e-001	3.810304e+001
1181258.819	-1.024835e-001	3.789801e+001
1187508.813	-1.017247e-001	3.769531e+001
1193758.806	-1.007897e-001	3.749326e+001
1200008.800	-1.015178e-001	3.728819e+001
1206258.794	-1.005872e-001	3.708943e+001
1212508.787	-9.966041e-002	3.689320e+001
1218758.781	-9.887107e-002	3.669851e+001
1225008.775	-9.805401e-002	3.650649e+001
1231258.769	-9.741241e-002	3.631535e+001
1237508.763	-9.797913e-002	3.612092e+001
1243758.756	-9.724561e-002	3.593273e+001
1250008.750	-9.631343e-002	3.574540e+001
1256258.744	-9.544191e-002	3.556113e+001
1262508.737	-9.476253e-002	3.537812e+001
1268758.731	-9.533282e-002	3.519196e+001
1275008.725	-9.461974e-002	3.501357e+001
1281258.719	-9.410774e-002	3.483543e+001
1287508.712	-9.322893e-002	3.465932e+001
1293758.706	-9.250067e-002	3.448403e+001
1300008.700	-9.182201e-002	3.431113e+001
1306258.694	-9.260839e-002	3.413336e+001
1312508.688	-9.178222e-002	3.396247e+001
1318758.681	-9.115775e-002	3.379394e+001
1325008.675	-9.046017e-002	3.362618e+001
1331258.669	-8.971239e-002	3.345872e+001
1337508.662	-8.915049e-002	3.329574e+001
1343758.656	-8.990676e-002	3.312636e+001
1350008.650	-8.925338e-002	3.296448e+001
1356258.644	-8.849429e-002	3.280404e+001
1362508.638	-8.789344e-002	3.264374e+001
1368758.631	-8.730350e-002	3.248507e+001
1375008.625	-8.650761e-002	3.232792e+001
1381258.619	-8.725288e-002	3.216877e+001
1387508.612	-8.655571e-002	3.201386e+001
1393758.606	-8.598605e-002	3.185958e+001
1400008.600	-8.532458e-002	3.170777e+001
1406258.594	-8.479935e-002	3.155798e+001
1412508.587	-8.535312e-002	3.140283e+001
1418758.581	-8.450234e-002	3.125382e+001
1425008.575	-8.397647e-002	3.110670e+001
1431258.569	-8.320670e-002	3.096009e+001
1437508.563	-8.272687e-002	3.081445e+001
1443758.556	-8.199779e-002	3.067101e+001
1450008.550	-8.284918e-002	3.052256e+001
1456258.544	-8.229970e-002	3.038119e+001
1462508.537	-8.177857e-002	3.024056e+001
1468758.531	-8.048761e-002	3.010085e+001
1475008.525	-7.986739e-002	2.996254e+001
1481258.519	-7.932256e-002	2.982427e+001
1487508.513	-7.863527e-002	2.968684e+001
1493758.506	-7.958788e-002	2.954759e+001
1500008.500	-7.898299e-002	2.941228e+001
1506258.494	-7.845938e-002	2.927757e+001
1512508.487	-7.800170e-002	2.914551e+001
1518758.481	-7.752352e-002	2.901312e+001
1525008.475	-7.687162e-002	2.888254e+001
1531258.469	-7.644668e-002	2.875197e+001
1537508.462	-7.593794e-002	2.862325e+001
1543758.456	-7.667957e-002	2.848955e+001
1550008.450	-7.623062e-002	2.836269e+001
1556258.444	-7.573249e-002	2.823635e+001
1562508.438	-7.598017e-002	2.811110e+001
1568758.431	-7.509805e-002	2.798754e+001
1575008.425	-7.442787e-002	2.786368e+001
1581258.419	-7.386998e-002	2.774070e+001
1587508.412	-7.471862e-002	2.761374e+001
1593758.406	-7.417415e-002	2.749229e+001
1600008.400	-7.362414e-002	2.737242e+001
1606258.394	-7.325971e-002	2.725250e+001
1612508.388	-7.263922e-002	2.713361e+001
1618758.381	-7.208489e-002	2.701504e+001
1625008.375	-7.160535e-002	2.689810e+001
1631258.369	-7.117674e-002	2.678077e+001
1637508.362	-7.227656e-002	2.665975e+001
1643758.356	-7.181479e-002	2.654541e+001
1650008.350	-7.130755e-002	2.643104e+001
1656258.344	-7.079151e-002	2.631807e+001
1662508.337	-7.042088e-002	2.620437e+001
1668758.331	-7.009084e-002	2.609195e+001
1675008.325	-6.969291e-002	2.598095e+001
1681258.319	-6.921303e-002	2.587063e+001
1687508.313	-7.040363e-002	2.575769e+001
1693758.306	-6.997444e-002	2.564803e+001
1700008.300	-6.951262e-002	2.553961e+001
1706258.294	-6.920424e-002	2.543142e+001
1712508.287	-7.125198e-002	2.531771e+001
1718758.281	-7.086305e-002	2.521268e+001
1725008.275	-7.038386e-002	2.510554e+001
1731258.269	-6.983364e-002	2.500150e+001
1737508.263	-7.099589e-002	2.489377e+001
1743758.256	-7.046118e-002	2.478964e+001
1750008.250	-7.029556e-002	2.468711e+001
1756258.244	-6.962325e-002	2.458460e+001
1762508.237	-6.917280e-002	2.448220e+001
1768758.231	-6.892219e-002	2.438290e+001
1775008.225	-6.985468e-002	2.427865e+001
1781258.219	-6.947487e-002	2.417859e+001
1787508.212	-6.897716e-002	2.407892e+001
1793758.206	-6.860287e-002	2.398021e+001
1800008.200	-6.821759e-002	2.388305e+001
1806258.194	-6.796532e-002	2.378448e+001
1812508.188	-6.758449e-002	2.368925e+001
1818758.181	-6.845567e-002	2.358971e+001
1825008.175	-6.822668e-002	2.349288e+001
1831258.169	-6.769594e-002	2.339833e+001
1837508.162	-6.741113e-002	2.330375e+001
1843758.156	-6.685020e-002	2.320949e+001
1850008.150	-6.654858e-002	2.311681e+001
1856258.144	-6.775138e-002	2.301949e+001
1862508.138	-6.739540e-002	2.292715e+001
1868758.131	-6.703831e-002	2.283627e+001
1875008.125	-6.707572e-002	2.274370e+001
1881258.119	-6.665899e-002	2.265386e+001
1887508.112	-6.642311e-002	2.256351e+001
1893758.106	-6.591316e-002	2.247329e+001
1900008.100	-6.707411e-002	2.238045e+001
1906258.094	-6.682191e-002	2.229195e+001
1912508.087	-6.618687e-002	2.220303e+001
1918758.081	-6.595976e-002	2.211643e+001
1925008.075	-6.569009e-002	2.202896e+001
1931258.069	-6.525423e-002	2.194351e+001
1937508.063	-6.485694e-002	2.185715e+001
1943758.056	-6.446785e-002	2.177225e+001
1950008.050	-6.561182e-002	2.168295e+001
1956258.044	-6.525432e-002	2.159806e+001
1962508.037	-6.480354e-002	2.151458e+001
1968758.031	-6.459173e-002	2.143136e+001
1975008.025	-6.624613e-002	2.134315e+001
1981258.019	-6.556491e-002	2.126006e+001
1987508.013	-6.518015e-002	2.117841e+001
1993758.006	-6.625968e-002	2.109216e+001
2000008.000	-6.586165e-002	2.101166e+001
2006257.994	-6.547409e-002	2.093039e+001
2012507.987	-6.527217e-002	2.084929e+001
2018757.981	-6.483490e-002	2.076952e+001
2025007.975	-6.438425e-002	2.068902e+001
2031257.969	-6.571980e-002	2.060594e+001
2037507.962	-6.518566e-002	2.052633e+001
2043757.956	-6.493469e-002	2.044858e+001
2050007.950	-6.474737e-002	2.036984e+001
2056257.944	-6.414422e-002	2.029183e+001
2062507.937	-6.388926e-002	2.021492e+001
2068757.931	-6.515888e-002	2.013519e+001
2075007.925	-6.478328e-002	2.005773e+001
2081257.919	-6.450183e-002	1.998258e+001
2087507.912	-6.477961e-002	1.990459e+001
2093757.906	-6.435794e-002	1.982966e+001
2100007.900	-6.410503e-002	1.975421e+001
2106257.894	-6.508261e-002	1.967756e+001
2112507.887	-6.473901e-002	1.960263e+001
2118757.881	-6.441981e-002	1.952883e+001
2125007.875	-6.430448e-002	1.945627e+001
2131257.869	-6.380515e-002	1.938260e+001
2137507.862	-6.348874e-002	1.930992e+001
2143757.856	-6.318086e-002	1.923697e+001
2150007.850	-6.438959e-002	1.916233e+001
2156257.844	-6.419206e-002	1.909077e+001
2162507.837	-6.379936e-002	1.901928e+001
2168757.831	-6.347066e-002	1.894780e+001
2175007.825	-6.328314e-002	1.887732e+001
2181257.819	-6.301413e-002	1.880674e+001
2187507.813	-6.412376e-002	1.873418e+001
2193757.806	-6.387954e-002	1.866386e+001
2200007.800	-6.347901e-002	1.859497e+001
2206257.794	-6.335923e-002	1.852609e+001
2212507.788	-6.203630e-002	1.845908e+001
2218757.781	-6.153700e-002	1.839125e+001
2225007.775	-6.122247e-002	1.832317e+001
2231257.769	-6.240824e-002	1.825235e+001
2237507.762	-6.203330e-002	1.818497e+001
2243757.756	-6.179718e-002	1.811712e+001
2250007.750	-6.146965e-002	1.805146e+001
2256257.744	-6.121548e-002	1.798501e+001
2262507.737	-6.235474e-002	1.791424e+001
2268757.731	-6.223439e-002	1.784799e+001
2275007.725	-6.185610e-002	1.778281e+001
2281257.719	-6.166667e-002	1.771766e+001
2287507.712	-6.136841e-002	1.765246e+001
2293757.706	-6.262512e-002	1.758477e+001
2300007.700	-6.253006e-002	1.751955e+001
2306257.694	-6.219085e-002	1.745572e+001
2312507.688	-6.197743e-002	1.739221e+001
2318757.681	-6.176665e-002	1.732840e+001
2325007.675	-6.146021e-002	1.726538e+001
2331257.669	-6.275520e-002	1.719944e+001
2337507.663	-6.257552e-002	1.713665e+001
2343757.656	-6.252828e-002	1.707371e+001
2350007.650	-6.139424e-002	1.701385e+001
2356257.644	-6.110124e-002	1.695194e+001
2362507.637	-6.090663e-002	1.689036e+001
2368757.631	-6.206349e-002	1.682655e+001
2375007.625	-6.178311e-002	1.676564e+001
2381257.619	-6.149050e-002	1.670384e+001
2387507.612	-6.127959e-002	1.664322e+001
2393757.606	-6.111028e-002	1.658372e+001
2400007.600	-6.091342e-002	1.652378e+001
2406257.594	-6.071254e-002	1.646382e+001
2412507.587	-6.187403e-002	1.640179e+001
2418757.581	-6.171492e-002	1.634265e+001
2425007.575	-6.135686e-002	1.628317e+001
2431257.569	-6.127436e-002	1.622560e+001
2437507.563	-6.105636e-002	1.616796e+001
2443757.556	-6.097511e-002	1.610860e+001
2450007.550	-6.225788e-002	1.604829e+001
2456257.544	-6.200697e-002	1.599105e+001
2462507.537	-6.183669e-002	1.593298e+001
2468757.531	-6.173340e-002	1.587572e+001
2475007.525	-6.321527e-002	1.581581e+001
2481257.519	-6.304121e-002	1.575890e+001
2487507.512	-6.274329e-002	1.570302e+001
2493757.506	-6.268031e-002	1.564683e+001
2500007.500	-6.225259e-002	1.559003e+001
2506257.494	-6.230351e-002	1.553403e+001
2512507.487	-6.204483e-002	1.547791e+001
2518757.481	-6.185680e-002	1.542231e+001
2525007.475	-6.169423e-002	1.536829e+001
2531257.469	-6.209878e-002	1.531062e+001
2537507.462	-6.179998e-002	1.525660e+001
2543757.456	-6.158385e-002	1.520258e+001
2550007.450	-6.127730e-002	1.514716e+001
2556257.444	-6.108711e-002	1.509245e+001
2562507.438	-6.250603e-002	1.503720e+001
2568757.431	-6.232108e-002	1.498272e+001
2575007.425	-6.210241e-002	1.492971e+001
2581257.419	-6.200093e-002	1.487634e+001
2587507.412	-6.186356e-002	1.482282e+001
2593757.406	-6.182386e-002	1.476992e+001
2600007.400	-6.160851e-002	1.471742e+001
2606257.394	-6.121657e-002	1.466538e+001
2612507.387	-6.245505e-002	1.461094e+001
2618757.381	-6.219794e-002	1.455896e+001
2625007.375	-6.224884e-002	1.450661e+001
2631257.369	-6.214523e-002	1.445397e+001
2637507.362	-6.187406e-002	1.440288e+001
2643757.356	-6.174193e-002	1.435112e+001
2650007.350	-6.174712e-002	1.429984e+001
2656257.344	-6.153190e-002	1.424828e+001
2662507.337	-6.146165e-002	1.419781e+001
2668757.331	-6.266363e-002	1.414475e+001
2675007.325	-6.253113e-002	1.409558e+001
2681257.319	-6.242425e-002	1.404494e+001
2687507.313	-6.215578e-002	1.399513e+001
2693757.306	-6.210511e-002	1.394584e+001
2700007.300	-6.195806e-002	1.389584e+001
2706257.294	-6.197916e-002	1.384661e+001
2712507.287	-6.198682e-002	1.379710e+001
2718757.281	-6.183317e-002	1.374762e+001
2725007.275	-6.291265e-002	1.369670e+001
2731257.269	-6.283387e-002	1.364744e+001
2737507.262	-6.277242e-002	1.359931e+001
2743757.256	-6.269077e-002	1.355159e+001
2750007.250	-6.261498e-002	1.350357e+001
2756257.244	-6.258481e-002	1.345401e+001
2762507.237	-6.236066e-002	1.340587e+001
2768757.231	-6.237793e-002	1.335809e+001
2775007.225	-6.230918e-002	1.331078e+001
2781257.219	-6.349995e-002	1.326033e+001
2787507.212	-6.346572e-002	1.321324e+001
2793757.206	-6.331573e-002	1.316585e+001
2800007.200	-6.339295e-002	1.311983e+001
2806257.194	-6.310547e-002	1.307270e+001
2812507.188	-6.305971e-002	1.302522e+001
2818757.181	-6.310645e-002	1.297946e+001
2825007.175	-6.295205e-002	1.293291e+001
2831257.169	-6.297106e-002	1.288686e+001
2837507.162	-6.412396e-002	1.283878e+001
2843757.156	-6.414140e-002	1.279198e+001
2850007.150	-6.400914e-002	1.274699e+001
2856257.144	-6.387436e-002	1.270083e+001
2862507.137	-6.684041e-002	1.265142e+001
2868757.131	-6.904462e-002	1.260217e+001
2875007.125	-7.031631e-002	1.255614e+001
2881257.119	-7.108991e-002	1.250962e+001
2887507.112	-7.142051e-002	1.246519e+001
2893757.106	-7.293995e-002	1.241860e+001
2900007.100	-7.268917e-002	1.237346e+001
2906257.094	-7.267535e-002	1.232936e+001
2912507.087	-7.258128e-002	1.228546e+001
2918757.081	-7.264314e-002	1.224173e+001
2925007.075	-7.247553e-002	1.219824e+001
2931257.069	-7.252864e-002	1.215357e+001
2937507.063	-7.231373e-002	1.210873e+001
2943757.056	-7.237223e-002	1.206582e+001
2950007.050	-7.235687e-002	1.202383e+001
2956257.044	-7.234222e-002	1.198098e+001
2962507.037	-7.344046e-002	1.193632e+001
2968757.031	-7.339338e-002	1.189299e+001
2975007.025	-7.328551e-002	1.185029e+001
2981257.019	-7.331596e-002	1.180741e+001
2987507.012	-7.315676e-002	1.176477e+001
2993757.006	-7.326783e-002	1.172277e+001
3000007.000	-7.332584e-002	1.168097e+001
3006256.994	-7.330660e-002	1.163935e+001
3012506.987	-7.316096e-002	1.159678e+001
3018756.981	-7.317279e-002	1.155514e+001
3025006.975	-7.312267e-002	1.151253e+001
3031256.969	-7.424098e-002	1.146926e+001
3037506.962	-7.428884e-002	1.142861e+001
3043756.956	-7.423189e-002	1.138682e+001
