"# Channel 1"
"# Trace 1"
Frequency, Formatted Data, Formatted Data
+5.00000000000E+000, +9.96339308404E-001, -1.79929113247E+002
+6.25890556598E+003, +9.95370797362E-001, +1.76814323779E+002
+1.25128111320E+004, +9.95991412650E-001, +1.73540040487E+002
+1.87667166979E+004, +9.95260151743E-001, +1.70269219213E+002
+2.50206222639E+004, +9.95089778451E-001, +1.67009731527E+002
+3.12745278299E+004, +9.94566908720E-001, +1.63776188962E+002
+3.75284333959E+004, +9.95159544635E-001, +1.60559355491E+002
+4.37823389619E+004, +9.94813585105E-001, +1.57383753096E+002
+5.00362445278E+004, +9.93635644462E-001, +1.54249104938E+002
+5.62901500938E+004, +9.93869865986E-001, +1.51137040668E+002
+6.25440556598E+004, +9.93723246837E-001, +1.48071255663E+002
+6.87979612258E+004, +9.93227234041E-001, +1.45049714000E+002
+7.50518667917E+004, +9.92983758204E-001, +1.42076133140E+002
+8.13057723577E+004, +9.92798102629E-001, +1.39154456860E+002
+8.75596779237E+004, +9.92522791249E-001, +1.36283225637E+002
+9.38135834897E+004, +9.92175175502E-001, +1.33476217476E+002
+1.00067489056E+005, +9.91996658424E-001, +1.30721171490E+002
+1.06321394622E+005, +9.91754946683E-001, +1.28027827486E+002
+1.12575300188E+005, +9.91556521632E-001, +1.25390052940E+002
+1.18829205754E+005, +9.91403493395E-001, +1.22808164735E+002
+1.25083111320E+005, +9.91333528373E-001, +1.20279806134E+002
+1.31337016886E+005, +9.91095118252E-001, +1.17833303366E+002
+1.37590922452E+005, +9.90967082725E-001, +1.15440521952E+002
+1.43844828018E+005, +9.90922802892E-001, +1.13103049050E+002
+1.50098733583E+005, +9.90957124986E-001, +1.10818560907E+002
+1.56352639149E+005, +9.90798945108E-001, +1.08612584008E+002
+1.62606544715E+005, +9.90725896011E-001, +1.06459096179E+002
+1.68860450281E+005, +9.90736373924E-001, +1.04356809903E+002
+1.75114355847E+005, +9.90832054496E-001, +1.02304893257E+002
+1.81368261413E+005, +9.90780318599E-001, +1.00323418741E+002
+1.87622166979E+005, +9.90789290746E-001, +9.83906249064E+001
+1.93876072545E+005, +9.90863503134E-001, +9.65046734232E+001
+2.00129978111E+005, +9.91009355539E-001, +9.46667516872E+001
+2.06383883677E+005, +9.90916071213E-001, +9.28953100342E+001
+2.12637789243E+005, +9.90869372207E-001, +9.11691195695E+001
+2.18891694809E+005, +9.90903846442E-001, +8.94862738830E+001
+2.25145600375E+005, +9.90995370759E-001, +8.78457480181E+001
+2.31399505941E+005, +9.91013256000E-001, +8.62620328861E+001
+2.37653411507E+005, +9.91074039506E-001, +8.47183522683E+001
+2.43907317073E+005, +9.91175645744E-001, +8.32131792943E+001
+2.50161222639E+005, +9.91346014314E-001, +8.17460329577E+001
+2.56415128205E+005, +9.91334547175E-001, +8.03289494005E+001
+2.62669033771E+005, +9.91365605683E-001, +7.89475270154E+001
+2.68922939337E+005, +9.91428434889E-001, +7.76002142009E+001
+2.75176844903E+005, +9.91551074823E-001, +7.62856030176E+001
+2.81430750469E+005, +9.91569969478E-001, +7.50188181520E+001
+2.87684656035E+005, +9.91627382360E-001, +7.37819645888E+001
+2.93938561601E+005, +9.91701708825E-001, +7.25750533302E+001
+3.00192467167E+005, +9.91810930030E-001, +7.13977422180E+001
+3.06446372733E+005, +9.91766749167E-001, +7.02635231510E+001
+3.12700278299E+005, +9.91755266604E-001, +6.91574907052E+001
+3.18954183865E+005, +9.91768270655E-001, +6.80769505617E+001
+3.25208089431E+005, +9.91799674714E-001, +6.70220560232E+001
+3.31461994997E+005, +9.91855529751E-001, +6.59921828292E+001
+3.37715900563E+005, +9.91939585803E-001, +6.49848269391E+001
+3.43969806129E+005, +9.92054915231E-001, +6.40014192274E+001
+3.50223711695E+005, +9.92183720945E-001, +6.30403380057E+001
+3.56477617261E+005, +9.92173722679E-001, +6.21197957429E+001
+3.62731522827E+005, +9.92188516182E-001, +6.12202132260E+001
+3.68985428393E+005, +9.92207121431E-001, +6.03402473028E+001
+3.75239333959E+005, +9.92248157169E-001, +5.94809483400E+001
+3.81493239525E+005, +9.92311883744E-001, +5.86397591559E+001
+3.87747145091E+005, +9.92376601556E-001, +5.78162388998E+001
+3.94001050657E+005, +9.92478351015E-001, +5.70102375825E+001
+4.00254956223E+005, +9.92568510572E-001, +5.62225517037E+001
+4.06508861789E+005, +9.92563657227E-001, +5.54664515362E+001
+4.12762767355E+005, +9.92592160091E-001, +5.47271659997E+001
+4.19016672921E+005, +9.92615322105E-001, +5.40021335595E+001
+4.25270578487E+005, +9.92630789497E-001, +5.32940228940E+001
+4.31524484053E+005, +9.92667096273E-001, +5.25989753885E+001
+4.37778389619E+005, +9.92714690224E-001, +5.19181661661E+001
+4.44032295184E+005, +9.92773544952E-001, +5.12512174844E+001
+4.50286200750E+005, +9.92850567199E-001, +5.05964480030E+001
+4.56540106316E+005, +9.92917310729E-001, +4.99561578917E+001
+4.62794011882E+005, +9.93001135979E-001, +4.93272656514E+001
+4.69047917448E+005, +9.93095650550E-001, +4.87103603348E+001
+4.75301823014E+005, +9.93204560069E-001, +4.81053946681E+001
+4.81555728580E+005, +9.93315200604E-001, +4.75114720312E+001
+4.87809634146E+005, +9.93223040082E-001, +4.69213480407E+001
+4.94063539712E+005, +9.93259026180E-001, +4.63624325774E+001
+5.00317445278E+005, +9.93301475331E-001, +4.58135783301E+001
+5.06571350844E+005, +9.93344523369E-001, +4.52753368900E+001
+5.12825256410E+005, +9.93392036583E-001, +4.47462537981E+001
+5.19079161976E+005, +9.93460666334E-001, +4.42277725927E+001
+5.25333067542E+005, +9.93584377822E-001, +4.37394653425E+001
+5.31586973108E+005, +9.93603899515E-001, +4.32448698142E+001
+5.37840878674E+005, +9.93642805038E-001, +4.27589012730E+001
+5.44094784240E+005, +9.93669189196E-001, +4.22811735705E+001
+5.50348689806E+005, +9.93708311924E-001, +4.18116016366E+001
+5.56602595372E+005, +9.93745079601E-001, +4.13504640575E+001
+5.62856500938E+005, +9.93797948585E-001, +4.08964117758E+001
+5.69110406504E+005, +9.93836565486E-001, +4.04507906627E+001
+5.75364312070E+005, +9.93598996589E-001, +3.99906014557E+001
+5.81618217636E+005, +9.93622436311E-001, +3.95651191879E+001
+5.87872123202E+005, +9.93652366530E-001, +3.91451988416E+001
+5.94126028768E+005, +9.93690179960E-001, +3.87327684508E+001
+6.00379934334E+005, +9.93732757306E-001, +3.83273272875E+001
+6.06633839900E+005, +9.93793501663E-001, +3.79284988836E+001
+6.12887745466E+005, +9.93851419487E-001, +3.75362088791E+001
+6.19141651032E+005, +9.93915044488E-001, +3.71493771686E+001
+6.25395556598E+005, +9.94063687716E-001, +3.67929544144E+001
+6.31649462164E+005, +9.94055545945E-001, +3.64239292275E+001
+6.37903367730E+005, +9.94060674423E-001, +3.60609479617E+001
+6.44157273296E+005, +9.94071742673E-001, +3.57039165544E+001
+6.50411178862E+005, +9.94051972522E-001, +3.53520954686E+001
+6.56665084428E+005, +9.94071096880E-001, +3.50057718893E+001
+6.62918989994E+005, +9.94097438668E-001, +3.46650444357E+001
+6.69172895560E+005, +9.94105658217E-001, +3.43288773866E+001
+6.75426801126E+005, +9.94128417274E-001, +3.39982327973E+001
+6.81680706692E+005, +9.94147316565E-001, +3.36716594063E+001
+6.87934612258E+005, +9.94183138786E-001, +3.33501589631E+001
+6.94188517824E+005, +9.94200176524E-001, +3.30328924816E+001
+7.00442423390E+005, +9.94238022072E-001, +3.27205695810E+001
+7.06696328956E+005, +9.94270112173E-001, +3.24124387371E+001
+7.12950234522E+005, +9.94315569632E-001, +3.21095377361E+001
+7.19204140088E+005, +9.94365058211E-001, +3.18100922542E+001
+7.25458045654E+005, +9.94403967478E-001, +3.15145528835E+001
+7.31711951220E+005, +9.94452561768E-001, +3.12233914503E+001
+7.37965856785E+005, +1.00019810648E+000, +3.03814722783E+001
+7.44219762351E+005, +1.00019043949E+000, +3.01015667823E+001
+7.50473667917E+005, +1.00018614274E+000, +2.98252327813E+001
+7.56727573483E+005, +1.00016378141E+000, +2.95533679615E+001
+7.62981479049E+005, +1.00017233719E+000, +2.92853992805E+001
+7.69235384615E+005, +1.00016358880E+000, +2.90205244672E+001
+7.75489290181E+005, +1.00019025177E+000, +2.87599507234E+001
+7.81743195747E+005, +1.00040389921E+000, +2.85172834677E+001
+7.87997101313E+005, +1.00033115426E+000, +2.82633835646E+001
+7.94251006879E+005, +1.00029948100E+000, +2.80122983866E+001
+8.00504912445E+005, +1.00024742635E+000, +2.77655656687E+001
+8.06758818011E+005, +1.00019544514E+000, +2.75210794582E+001
+8.13012723577E+005, +1.00015365382E+000, +2.72805648804E+001
+8.19266629143E+005, +1.00010076064E+000, +2.70435047473E+001
+8.25520534709E+005, +1.00005606069E+000, +2.68087592748E+001
+8.31774440275E+005, +1.00003271683E+000, +2.65773386894E+001
+8.38028345841E+005, +9.99995311813E-001, +2.63492883598E+001
+8.44282251407E+005, +9.99964226280E-001, +2.61240084266E+001
+8.50536156973E+005, +9.99927097496E-001, +2.59022832859E+001
+8.56790062539E+005, +9.99914911540E-001, +2.56829988068E+001
+8.63043968105E+005, +9.99885723959E-001, +2.54668144001E+001
+8.69297873671E+005, +9.99868804864E-001, +2.52537440446E+001
+8.75551779237E+005, +9.99858317636E-001, +2.50421171261E+001
+8.81805684803E+005, +9.99853456222E-001, +2.48345404547E+001
+8.88059590369E+005, +9.99867061563E-001, +2.46288590256E+001
+8.94313495935E+005, +9.99863390906E-001, +2.44249695169E+001
+9.00567401501E+005, +9.99879097891E-001, +2.42244582591E+001
+9.06821307067E+005, +9.99557315604E-001, +2.40113411762E+001
+9.13075212633E+005, +9.99496111686E-001, +2.38147843669E+001
+9.19329118199E+005, +9.99432720740E-001, +2.36207593249E+001
+9.25583023765E+005, +9.99393518374E-001, +2.34295957245E+001
+9.31836929331E+005, +9.99339457970E-001, +2.32394390310E+001
+9.38090834897E+005, +9.99292803423E-001, +2.30517706217E+001
+9.44344740463E+005, +9.99247398652E-001, +2.28659940238E+001
+9.50598646029E+005, +9.99204144651E-001, +2.26823798360E+001
+9.56852551595E+005, +9.99179915653E-001, +2.25008421529E+001
+9.63106457161E+005, +9.99136767539E-001, +2.23205143258E+001
+9.69360362727E+005, +9.99078388209E-001, +2.21437392653E+001
+9.75614268293E+005, +9.99041411978E-001, +2.19682049354E+001
+9.81868173859E+005, +9.99032644007E-001, +2.17953834888E+001
+9.88122079425E+005, +9.99003854926E-001, +2.16246095750E+001
+9.94375984991E+005, +9.98992605516E-001, +2.14543896242E+001
+1.00062989056E+006, +9.98981489165E-001, +2.12876102155E+001
+1.00688379612E+006, +9.98971727661E-001, +2.11223971744E+001
+1.01313770169E+006, +9.98957294167E-001, +2.09581038685E+001
+1.01939160725E+006, +9.98964568592E-001, +2.07957929938E+001
+1.02564551282E+006, +9.98956313848E-001, +2.06357509771E+001
+1.03189941839E+006, +9.98963338113E-001, +2.04767370296E+001
+1.03815332395E+006, +9.98986382186E-001, +2.03206382401E+001
+1.04440722952E+006, +9.99274339085E-001, +2.01669795532E+001
+1.05066113508E+006, +9.99205396423E-001, +2.00137320301E+001
+1.05691504065E+006, +9.99158834025E-001, +1.98614400561E+001
+1.06316894622E+006, +9.99098070426E-001, +1.97105601616E+001
+1.06942285178E+006, +9.99044825701E-001, +1.95610663648E+001
+1.07567675735E+006, +9.98994922068E-001, +1.94128238367E+001
+1.08193066291E+006, +9.98925763339E-001, +1.92665973676E+001
+1.08818456848E+006, +9.98879755928E-001, +1.91217337339E+001
+1.09443847405E+006, +9.98844783593E-001, +1.89783431449E+001
+1.10069237961E+006, +9.98771702984E-001, +1.88355411550E+001
+1.10694628518E+006, +9.98720933189E-001, +1.86952807691E+001
+1.11320019074E+006, +9.98657272513E-001, +1.85578762022E+001
+1.11945409631E+006, +9.98627432671E-001, +1.84214781930E+001
+1.12570800188E+006, +9.98613507121E-001, +1.82867912718E+001
+1.13196190744E+006, +9.98617625727E-001, +1.81526805937E+001
+1.13821581301E+006, +9.98614926192E-001, +1.80186805368E+001
+1.14446971857E+006, +9.98374706917E-001, +1.78904161671E+001
+1.15072362414E+006, +9.98281682844E-001, +1.77612679847E+001
+1.15697752971E+006, +9.98188789370E-001, +1.76347978944E+001
+1.16323143527E+006, +9.98106813414E-001, +1.75097367379E+001
+1.16948534084E+006, +9.98052832702E-001, +1.73852830111E+001
+1.17573924640E+006, +9.97999170269E-001, +1.72620530945E+001
+1.18199315197E+006, +9.97969046681E-001, +1.71390456303E+001
+1.18824705754E+006, +9.97945175341E-001, +1.70175920037E+001
+1.19450096310E+006, +9.97937739399E-001, +1.68955039578E+001
+1.20075486867E+006, +9.97911122165E-001, +1.67733680984E+001
+1.20700877423E+006, +9.97884933870E-001, +1.66531899964E+001
+1.21326267980E+006, +9.97874132234E-001, +1.65351558925E+001
+1.21951658537E+006, +9.97883520184E-001, +1.64174663347E+001
+1.22577049093E+006, +9.97906183433E-001, +1.62992614940E+001
+1.23202439650E+006, +9.97923407590E-001, +1.61822041477E+001
+1.23827830206E+006, +9.97978987077E-001, +1.60660843453E+001
+1.24453220763E+006, +9.98033496552E-001, +1.59497545890E+001
+1.25078611320E+006, +9.98227638364E-001, +1.58102491503E+001
+1.25704001876E+006, +9.98127236641E-001, +1.57045139137E+001
+1.26329392433E+006, +9.98022732359E-001, +1.55985933437E+001
+1.26954782989E+006, +9.97922900617E-001, +1.54940021464E+001
+1.27580173546E+006, +9.97829447321E-001, +1.53896336664E+001
+1.28205564103E+006, +9.97739029242E-001, +1.52866930869E+001
+1.28830954659E+006, +9.97649620999E-001, +1.51846421464E+001
+1.29456345216E+006, +9.97575081656E-001, +1.50833615670E+001
+1.30081735772E+006, +9.97508041223E-001, +1.49822172405E+001
+1.30707126329E+006, +9.97455980465E-001, +1.48821932840E+001
+1.31332516886E+006, +9.97408692548E-001, +1.47824572032E+001
+1.31957907442E+006, +9.97379884609E-001, +1.46846600654E+001
+1.32583297999E+006, +9.97355469325E-001, +1.45856760005E+001
+1.33208688555E+006, +9.97345994187E-001, +1.44867251076E+001
+1.33834079112E+006, +9.97319950529E-001, +1.43874978999E+001
+1.34459469669E+006, +9.97305815457E-001, +1.42901439562E+001
+1.35084860225E+006, +9.97299545378E-001, +1.41924353613E+001
+1.35710250782E+006, +9.97285905954E-001, +1.40964272710E+001
+1.36335641338E+006, +9.97290526632E-001, +1.39990140017E+001
+1.36961031895E+006, +9.97305940848E-001, +1.39029956675E+001
+1.37586422452E+006, +9.97327878989E-001, +1.38059877994E+001
+1.38211813008E+006, +9.97357504432E-001, +1.37096618921E+001
+1.38837203565E+006, +9.97390756407E-001, +1.36136539045E+001
+1.39462594121E+006, +9.97418290228E-001, +1.35181459417E+001
+1.40087984678E+006, +9.97467547495E-001, +1.34218774574E+001
+1.40713375235E+006, +9.97515454653E-001, +1.33250341048E+001
+1.41338765791E+006, +9.97551895466E-001, +1.32278377398E+001
+1.41964156348E+006, +9.97614205892E-001, +1.31304593702E+001
+1.42589546904E+006, +9.97658675312E-001, +1.30341295662E+001
+1.43214937461E+006, +9.97718487621E-001, +1.29362320916E+001
+1.43840328018E+006, +9.97759896858E-001, +1.28378201755E+001
+1.44465718574E+006, +9.97798294166E-001, +1.27394701393E+001
+1.45091109131E+006, +9.97836537911E-001, +1.26396413936E+001
+1.45716499687E+006, +9.97860781391E-001, +1.25409065977E+001
+1.46341890244E+006, +9.97877716430E-001, +1.24400138476E+001
+1.46967280801E+006, +9.98479300121E-001, +1.23303704595E+001
+1.47592671357E+006, +9.98435433755E-001, +1.22339061309E+001
+1.48218061914E+006, +9.98357619591E-001, +1.21395910046E+001
+1.48843452470E+006, +9.98296775874E-001, +1.20473364113E+001
+1.49468843027E+006, +9.98246813959E-001, +1.19565181447E+001
+1.50094233583E+006, +9.98198531104E-001, +1.18673553245E+001
+1.50719624140E+006, +9.98155387668E-001, +1.17798422913E+001
+1.51345014697E+006, +9.98110206467E-001, +1.16945530323E+001
+1.51970405253E+006, +9.98088927271E-001, +1.16106271660E+001
+1.52595795810E+006, +9.98078871346E-001, +1.15269643326E+001
+1.53221186366E+006, +9.98072336603E-001, +1.14460710186E+001
+1.53846576923E+006, +9.98083173711E-001, +1.13657054081E+001
+1.54471967480E+006, +9.98116359385E-001, +1.12860951586E+001
+1.55097358036E+006, +9.98139594684E-001, +1.12083288454E+001
+1.55722748593E+006, +9.98198131299E-001, +1.11314697844E+001
+1.56348139149E+006, +9.98257721378E-001, +1.10910608628E+001
+1.56973529706E+006, +9.98250568921E-001, +1.09986406985E+001
+1.57598920263E+006, +9.98212530867E-001, +1.09070275101E+001
+1.58224310819E+006, +9.98176432630E-001, +1.08177542994E+001
+1.58849701376E+006, +9.98119499424E-001, +1.07301210547E+001
+1.59475091932E+006, +9.98056442052E-001, +1.06436792315E+001
+1.60100482489E+006, +9.97983166883E-001, +1.05596944213E+001
+1.60725873046E+006, +9.97912187458E-001, +1.04765833566E+001
+1.61351263602E+006, +9.97845693783E-001, +1.03963764710E+001
+1.61976654159E+006, +9.97774346075E-001, +1.03167878489E+001
+1.62602044715E+006, +9.97715640022E-001, +1.02394307974E+001
+1.63227435272E+006, +9.97668924566E-001, +1.01632233430E+001
+1.63852825829E+006, +9.97619491370E-001, +1.00882531121E+001
+1.64478216385E+006, +9.97577881571E-001, +1.00145383668E+001
+1.65103606942E+006, +9.97555441977E-001, +9.94299993810E+000
+1.65728997498E+006, +9.97524361662E-001, +9.87217902966E+000
+1.66354388055E+006, +9.97521585170E-001, +9.80165245147E+000
+1.66979778612E+006, +9.97523507233E-001, +9.73206436532E+000
+1.67605169168E+006, +9.97558652585E-001, +9.66438346841E+000
+1.68230559725E+006, +9.97599012178E-001, +9.59726663663E+000
+1.68855950281E+006, +9.97635369621E-001, +9.53031218848E+000
+1.69481340838E+006, +9.97699385613E-001, +9.46360837707E+000
+1.70106731395E+006, +9.97775848330E-001, +9.39865177406E+000
+1.70732121951E+006, +9.97860668209E-001, +9.33374804134E+000
+1.71357512508E+006, +9.97643337854E-001, +9.25971834831E+000
+1.71982903064E+006, +9.97621828204E-001, +9.19172447166E+000
+1.72608293621E+006, +9.97602148706E-001, +9.12380971080E+000
+1.73233684178E+006, +9.97576119632E-001, +9.05603472417E+000
+1.73859074734E+006, +9.97551150411E-001, +8.98768433808E+000
+1.74484465291E+006, +9.97546038191E-001, +8.92061403222E+000
+1.75109855847E+006, +9.97530907228E-001, +8.85387942625E+000
+1.75735246404E+006, +9.97535079234E-001, +8.78675397511E+000
+1.76360636961E+006, +9.97507332327E-001, +8.72031754759E+000
+1.76986027517E+006, +9.97493691162E-001, +8.65455144871E+000
+1.77611418074E+006, +9.97481917290E-001, +8.58845816740E+000
+1.78236808630E+006, +9.97473886394E-001, +8.52264935604E+000
+1.78862199187E+006, +9.97464073282E-001, +8.45692067329E+000
+1.79487589744E+006, +9.97452345170E-001, +8.39135704122E+000
+1.80112980300E+006, +9.97434725100E-001, +8.32602871080E+000
+1.80738370857E+006, +9.97417382891E-001, +8.26109022115E+000
+1.81363761413E+006, +9.97425521106E-001, +8.19625918428E+000
+1.81989151970E+006, +9.97405049680E-001, +8.13145113185E+000
+1.82614542527E+006, +9.97401339416E-001, +8.06802501248E+000
+1.83239933083E+006, +9.97394655422E-001, +8.00428011318E+000
+1.83865323640E+006, +9.97388995868E-001, +7.94124346478E+000
+1.84490714196E+006, +9.97370387543E-001, +7.87844183698E+000
+1.85116104753E+006, +9.97370128796E-001, +7.81514953715E+000
+1.85741495310E+006, +9.97366164104E-001, +7.75196574847E+000
+1.86366885866E+006, +9.97352311974E-001, +7.68915229433E+000
+1.86992276423E+006, +9.97337988225E-001, +7.62725691087E+000
+1.87617666979E+006, +9.97458435112E-001, +7.56467270368E+000
+1.88243057536E+006, +9.97437925563E-001, +7.50460962407E+000
+1.88868448093E+006, +9.97424084389E-001, +7.44471128563E+000
+1.89493838649E+006, +9.97408895748E-001, +7.38428613358E+000
+1.90119229206E+006, +9.97410875802E-001, +7.32429754131E+000
+1.90744619762E+006, +9.97375979505E-001, +7.26381309462E+000
+1.91370010319E+006, +9.97353373269E-001, +7.20461856002E+000
+1.91995400876E+006, +9.97357657489E-001, +7.14465659923E+000
+1.92620791432E+006, +9.97347602072E-001, +7.08546889880E+000
+1.93246181989E+006, +9.97306296642E-001, +7.02689285167E+000
+1.93871572545E+006, +9.97298731523E-001, +6.96810438908E+000
+1.94496963102E+006, +9.97279028266E-001, +6.90999941811E+000
+1.95122353659E+006, +9.97265661275E-001, +6.85120986752E+000
+1.95747744215E+006, +9.97251241774E-001, +6.79340771420E+000
+1.96373134772E+006, +9.97225379099E-001, +6.73507747324E+000
+1.96998525328E+006, +9.97224870617E-001, +6.67839111039E+000
+1.97623915885E+006, +9.97099807419E-001, +6.61645031120E+000
+1.98249306442E+006, +9.97103529685E-001, +6.55985959030E+000
+1.98874696998E+006, +9.97096943321E-001, +6.50373961820E+000
+1.99500087555E+006, +9.97079238347E-001, +6.44693228341E+000
+2.00125478111E+006, +9.97072117020E-001, +6.39110245846E+000
