!Keysight Technologies,E5061B,MY49912438,B.06.04
!Date: Thu Nov 06 17:20:49 2025
!Data & Calibration Information:
!Freq	S22:SOLT2(ON)
# Hz S MA R 50
5.000	1.003445e+000	-3.707100e-001
6254.997	1.003597e+000	-3.590242e-001
12504.994	1.003062e+000	-3.409881e-001
18754.991	1.003127e+000	-3.155893e-001
25004.987	1.003423e+000	-3.075103e-001
31254.984	1.003767e+000	-2.863878e-001
37504.981	1.003725e+000	-2.958717e-001
43754.978	1.003772e+000	-2.926104e-001
50004.975	1.004073e+000	-2.324431e-001
56254.972	1.003826e+000	-2.562760e-001
62504.969	1.003576e+000	-2.501067e-001
68754.966	1.004001e+000	-1.841137e-001
75004.962	1.003705e+000	-1.997316e-001
81254.959	1.003639e+000	-1.991617e-001
87504.956	1.003632e+000	-1.486262e-001
93754.953	1.003846e+000	-1.086833e-001
100004.950	1.003813e+000	-6.383365e-002
106254.947	1.003081e+000	-9.964021e-002
112504.944	1.003155e+000	-8.668553e-002
118754.941	1.003202e+000	-6.330257e-002
125004.938	1.004044e+000	-1.529019e-002
131254.934	1.003286e+000	1.722595e-003
137504.931	1.003299e+000	1.111194e-002
143754.928	1.003204e+000	1.959348e-002
150004.925	1.004006e+000	7.582279e-002
156254.922	1.003503e+000	7.103281e-002
162504.919	1.002958e+000	7.009670e-002
168754.916	1.003441e+000	1.256759e-001
175004.912	1.003878e+000	1.063790e-001
181254.909	1.003671e+000	1.658874e-001
187504.906	1.003465e+000	1.658663e-001
193754.903	1.003631e+000	1.731637e-001
200004.900	1.003574e+000	2.141378e-001
206254.897	1.003391e+000	2.316374e-001
212504.894	1.003115e+000	2.670683e-001
218754.891	1.003179e+000	2.531823e-001
225004.887	1.003847e+000	2.743965e-001
231254.884	1.003358e+000	3.194249e-001
237504.881	1.003272e+000	3.176587e-001
243754.878	1.003676e+000	3.390364e-001
250004.875	1.003910e+000	3.682905e-001
256254.872	1.003429e+000	3.759026e-001
262504.869	1.003511e+000	3.892110e-001
268754.866	1.003414e+000	4.306972e-001
275004.862	1.003850e+000	4.265463e-001
281254.859	1.003779e+000	4.745560e-001
287504.856	1.003432e+000	4.774478e-001
293754.853	1.003401e+000	5.098418e-001
300004.850	1.004242e+000	5.429415e-001
306254.847	1.003366e+000	5.259987e-001
312504.844	1.003410e+000	5.686038e-001
318754.841	1.003293e+000	6.152845e-001
325004.837	1.003628e+000	6.179886e-001
331254.834	1.003146e+000	6.436680e-001
337504.831	1.003226e+000	6.777760e-001
343754.828	1.003550e+000	6.984317e-001
350004.825	1.003976e+000	6.860867e-001
356254.822	1.003005e+000	7.117631e-001
362504.819	1.003351e+000	7.322039e-001
368754.816	1.003642e+000	7.610159e-001
375004.813	1.003498e+000	7.541385e-001
381254.809	1.003094e+000	7.819356e-001
387504.806	1.003354e+000	8.283085e-001
393754.803	1.003615e+000	8.410686e-001
400004.800	1.003751e+000	8.565130e-001
406254.797	1.003809e+000	8.895076e-001
412504.794	1.003088e+000	8.874871e-001
418754.791	1.003584e+000	9.107393e-001
425004.787	1.003696e+000	9.196713e-001
431254.784	1.002716e+000	9.737699e-001
437504.781	1.003352e+000	9.848827e-001
443754.778	1.002694e+000	1.010550e+000
450004.775	1.003388e+000	1.022899e+000
456254.772	1.003103e+000	1.031759e+000
462504.769	1.003569e+000	1.082181e+000
468754.766	1.003611e+000	1.075882e+000
475004.762	1.003484e+000	1.126634e+000
481254.759	1.003108e+000	1.083942e+000
487504.756	1.003465e+000	1.103226e+000
493754.753	1.003181e+000	1.137027e+000
500004.750	1.003793e+000	1.162184e+000
506254.747	1.003243e+000	1.176794e+000
512504.744	1.004017e+000	1.194979e+000
518754.741	1.003710e+000	1.202188e+000
525004.737	1.003566e+000	1.249278e+000
531254.734	1.003924e+000	1.273856e+000
537504.731	1.003574e+000	1.280870e+000
543754.728	1.003369e+000	1.300997e+000
550004.725	1.003376e+000	1.308438e+000
556254.722	1.003744e+000	1.322886e+000
562504.719	1.003485e+000	1.349122e+000
568754.716	1.003540e+000	1.372212e+000
575004.712	1.003034e+000	1.390497e+000
581254.709	1.003379e+000	1.410067e+000
587504.706	1.003382e+000	1.416428e+000
593754.703	1.003434e+000	1.453796e+000
600004.700	1.003805e+000	1.469200e+000
606254.697	1.003766e+000	1.504958e+000
612504.694	1.003687e+000	1.514735e+000
618754.691	1.003098e+000	1.516941e+000
625004.688	1.003847e+000	1.543094e+000
631254.684	1.003642e+000	1.574186e+000
637504.681	1.003195e+000	1.609304e+000
643754.678	1.003643e+000	1.617090e+000
650004.675	1.003044e+000	1.630253e+000
656254.672	1.003550e+000	1.661068e+000
662504.669	1.003614e+000	1.681151e+000
668754.666	1.003470e+000	1.702871e+000
675004.662	1.003328e+000	1.732718e+000
681254.659	1.003429e+000	1.769987e+000
687504.656	1.003073e+000	1.773745e+000
693754.653	1.003831e+000	1.780200e+000
700004.650	1.003416e+000	1.798471e+000
706254.647	1.003533e+000	1.817108e+000
712504.644	1.003960e+000	1.839387e+000
718754.641	1.003860e+000	1.836192e+000
725004.637	1.003905e+000	1.881886e+000
731254.634	1.003562e+000	1.900567e+000
737504.631	1.006784e+000	1.151394e+000
743754.628	1.006512e+000	1.212073e+000
750004.625	1.006637e+000	1.189622e+000
756254.622	1.006663e+000	1.246937e+000
762504.619	1.006550e+000	1.269483e+000
768754.616	1.007151e+000	1.243389e+000
775004.613	1.006720e+000	1.282512e+000
781254.609	1.006565e+000	1.313304e+000
787504.606	1.007367e+000	1.340404e+000
793754.603	1.007014e+000	1.380749e+000
800004.600	1.006496e+000	1.415105e+000
806254.597	1.007116e+000	1.446528e+000
812504.594	1.006300e+000	1.453151e+000
818754.591	1.007191e+000	1.465276e+000
825004.588	1.006891e+000	1.490376e+000
831254.584	1.007262e+000	1.483085e+000
837504.581	1.006733e+000	1.526667e+000
843754.578	1.006964e+000	1.537489e+000
850004.575	1.006952e+000	1.581535e+000
856254.572	1.007141e+000	1.618703e+000
862504.569	1.006968e+000	1.616255e+000
868754.566	1.006874e+000	1.666864e+000
875004.563	1.006775e+000	1.685245e+000
881254.559	1.006423e+000	1.677987e+000
887504.556	1.007530e+000	1.720594e+000
893754.553	1.006442e+000	1.706699e+000
900004.550	1.007044e+000	1.737799e+000
906254.547	1.006569e+000	1.787187e+000
912504.544	1.006655e+000	1.824939e+000
918754.541	1.006850e+000	1.851326e+000
925004.537	1.006657e+000	1.838153e+000
931254.534	1.005722e+000	1.861733e+000
937504.531	1.005731e+000	1.893966e+000
943754.528	1.006195e+000	1.944195e+000
950004.525	1.006701e+000	1.951996e+000
956254.522	1.006356e+000	1.960794e+000
962504.519	1.006591e+000	1.966411e+000
968754.516	1.006776e+000	2.024057e+000
975004.512	1.006193e+000	2.005219e+000
981254.509	1.006152e+000	2.059146e+000
987504.506	1.006062e+000	2.027859e+000
993754.503	1.005917e+000	2.076738e+000
1000004.500	1.005615e+000	2.110049e+000
1006254.497	1.005868e+000	2.135653e+000
1012504.494	1.005986e+000	2.154556e+000
1018754.491	1.005935e+000	2.176736e+000
1025004.488	1.006394e+000	2.186607e+000
1031254.484	1.005821e+000	2.214633e+000
1037504.481	1.006241e+000	2.223572e+000
1043754.478	1.005948e+000	2.238861e+000
1050004.475	1.006292e+000	2.278508e+000
1056254.472	1.006346e+000	2.277618e+000
1062504.469	1.006305e+000	2.288234e+000
1068754.466	1.006515e+000	2.316389e+000
1075004.462	1.006218e+000	2.377022e+000
1081254.459	1.006250e+000	2.358803e+000
1087504.456	1.005816e+000	2.403162e+000
1093754.453	1.005752e+000	2.398349e+000
1100004.450	1.006190e+000	2.420184e+000
1106254.447	1.005976e+000	2.476207e+000
1112504.444	1.005852e+000	2.477888e+000
1118754.441	1.006148e+000	2.500522e+000
1125004.438	1.006172e+000	2.497550e+000
1131254.434	1.006296e+000	2.537358e+000
1137504.431	1.005754e+000	2.558696e+000
1143754.428	1.006148e+000	2.567221e+000
1150004.425	1.005885e+000	2.646107e+000
1156254.422	1.005870e+000	2.635485e+000
1162504.419	1.005749e+000	2.672242e+000
1168754.416	1.005994e+000	2.707022e+000
1175004.413	1.006004e+000	2.701475e+000
1181254.409	1.005890e+000	2.732489e+000
1187504.406	1.006253e+000	2.762777e+000
1193754.403	1.006063e+000	2.778566e+000
1200004.400	1.006048e+000	2.775821e+000
1206254.397	1.005637e+000	2.800203e+000
1212504.394	1.006143e+000	2.830038e+000
1218754.391	1.006304e+000	2.882075e+000
1225004.388	1.005730e+000	2.894428e+000
1231254.384	1.005866e+000	2.924088e+000
1237504.381	1.005589e+000	2.929838e+000
1243754.378	1.006187e+000	2.951980e+000
1250004.375	1.006018e+000	2.931934e+000
1256254.372	1.005867e+000	2.959012e+000
1262504.369	1.005684e+000	2.980309e+000
1268754.366	1.006116e+000	2.998378e+000
1275004.363	1.006328e+000	3.017080e+000
1281254.359	1.006319e+000	3.036667e+000
1287504.356	1.006396e+000	3.027484e+000
1293754.353	1.005977e+000	3.067123e+000
1300004.350	1.006465e+000	3.105176e+000
1306254.347	1.005987e+000	3.111832e+000
1312504.344	1.006426e+000	3.143788e+000
1318754.341	1.006272e+000	3.152715e+000
1325004.337	1.006138e+000	3.164611e+000
1331254.334	1.006008e+000	3.197869e+000
1337504.331	1.006402e+000	3.211942e+000
1343754.328	1.005981e+000	3.239821e+000
1350004.325	1.006347e+000	3.234458e+000
1356254.322	1.006793e+000	3.281485e+000
1362504.319	1.006616e+000	3.300896e+000
1368754.316	1.006421e+000	3.322889e+000
1375004.313	1.006175e+000	3.322596e+000
1381254.309	1.006571e+000	3.353580e+000
1387504.306	1.006152e+000	3.372253e+000
1393754.303	1.006308e+000	3.384711e+000
1400004.300	1.005888e+000	3.390620e+000
1406254.297	1.006016e+000	3.436234e+000
1412504.294	1.006146e+000	3.437485e+000
1418754.291	1.005991e+000	3.462558e+000
1425004.288	1.005958e+000	3.506899e+000
1431254.284	1.005584e+000	3.535772e+000
1437504.281	1.006002e+000	3.545201e+000
1443754.278	1.006039e+000	3.562992e+000
1450004.275	1.005688e+000	3.590534e+000
1456254.272	1.005871e+000	3.613644e+000
1462504.269	1.005278e+000	3.641979e+000
1468754.266	1.006313e+000	3.688782e+000
1475004.263	1.006412e+000	3.709269e+000
1481254.259	1.006322e+000	3.721592e+000
1487504.256	1.006485e+000	3.773828e+000
1493754.253	1.006205e+000	3.751332e+000
1500004.250	1.006360e+000	3.790751e+000
1506254.247	1.006475e+000	3.793046e+000
1512504.244	1.006168e+000	3.838418e+000
1518754.241	1.006111e+000	3.846792e+000
1525004.238	1.006300e+000	3.853195e+000
1531254.234	1.007070e+000	3.879064e+000
1537504.231	1.006306e+000	3.887661e+000
1543754.228	1.006594e+000	3.931731e+000
1550004.225	1.005952e+000	3.925038e+000
1556254.222	1.006125e+000	3.963346e+000
1562504.219	1.006147e+000	3.957789e+000
1568754.216	1.006207e+000	4.001572e+000
1575004.212	1.006081e+000	4.030444e+000
1581254.209	1.006332e+000	4.041893e+000
1587504.206	1.006436e+000	4.077878e+000
1593754.203	1.006348e+000	4.069830e+000
1600004.200	1.006324e+000	4.111033e+000
1606254.197	1.006032e+000	4.131193e+000
1612504.194	1.006215e+000	4.135888e+000
1618754.191	1.006314e+000	4.144436e+000
1625004.188	1.006669e+000	4.188687e+000
1631254.184	1.006691e+000	4.226184e+000
1637504.181	1.006454e+000	4.233766e+000
1643754.178	1.006406e+000	4.237332e+000
1650004.175	1.006508e+000	4.271979e+000
1656254.172	1.006303e+000	4.280601e+000
1662504.169	1.006657e+000	4.313762e+000
1668754.166	1.006428e+000	4.288640e+000
1675004.163	1.006318e+000	4.351742e+000
1681254.159	1.006239e+000	4.360726e+000
1687504.156	1.006499e+000	4.384898e+000
1693754.153	1.006284e+000	4.396174e+000
1700004.150	1.005816e+000	4.388820e+000
1706254.147	1.006128e+000	4.388331e+000
1712504.144	1.005561e+000	4.417756e+000
1718754.141	1.005858e+000	4.451594e+000
1725004.138	1.006022e+000	4.466414e+000
1731254.134	1.005739e+000	4.510376e+000
1737504.131	1.005170e+000	4.505196e+000
1743754.128	1.005750e+000	4.524167e+000
1750004.125	1.005503e+000	4.543389e+000
1756254.122	1.005480e+000	4.557578e+000
1762504.119	1.005511e+000	4.581572e+000
1768754.116	1.005482e+000	4.610459e+000
1775004.113	1.005354e+000	4.618618e+000
1781254.109	1.005778e+000	4.668648e+000
1787504.106	1.005388e+000	4.662020e+000
1793754.103	1.005686e+000	4.660054e+000
1800004.100	1.005605e+000	4.705875e+000
1806254.097	1.005179e+000	4.708392e+000
1812504.094	1.005304e+000	4.731936e+000
1818754.091	1.005120e+000	4.776454e+000
1825004.087	1.005615e+000	4.786568e+000
1831254.084	1.005171e+000	4.792178e+000
1837504.081	1.005609e+000	4.841911e+000
1843754.078	1.005992e+000	4.849278e+000
1850004.075	1.005207e+000	4.864455e+000
1856254.072	1.005576e+000	4.910307e+000
1862504.069	1.005004e+000	4.928177e+000
1868754.066	1.005551e+000	4.914961e+000
1875004.063	1.005552e+000	4.925753e+000
1881254.059	1.006006e+000	4.934745e+000
1887504.056	1.005322e+000	4.991818e+000
1893754.053	1.005253e+000	5.002505e+000
1900004.050	1.005771e+000	5.018164e+000
1906254.047	1.005399e+000	5.048252e+000
1912504.044	1.005580e+000	5.050599e+000
1918754.041	1.005820e+000	5.077535e+000
1925004.038	1.005248e+000	5.070965e+000
1931254.034	1.005801e+000	5.126850e+000
1937504.031	1.005275e+000	5.121728e+000
1943754.028	1.005319e+000	5.144004e+000
1950004.025	1.004667e+000	5.130297e+000
1956254.022	1.005422e+000	5.184998e+000
1962504.019	1.004780e+000	5.189762e+000
1968754.016	1.005220e+000	5.225621e+000
1975004.013	1.004996e+000	5.282489e+000
1981254.009	1.004793e+000	5.289934e+000
1987504.006	1.005041e+000	5.293713e+000
1993754.003	1.004570e+000	5.358709e+000
2000004.000	1.004949e+000	5.357232e+000
2006253.997	1.004818e+000	5.375147e+000
2012503.994	1.005439e+000	5.371216e+000
2018753.991	1.005230e+000	5.385340e+000
2025003.988	1.005175e+000	5.400703e+000
2031253.984	1.004857e+000	5.472792e+000
2037503.981	1.004895e+000	5.445489e+000
2043753.978	1.004727e+000	5.476044e+000
2050003.975	1.004590e+000	5.479547e+000
2056253.972	1.004938e+000	5.508252e+000
2062503.969	1.004905e+000	5.506962e+000
2068753.966	1.004596e+000	5.556204e+000
2075003.962	1.005106e+000	5.562492e+000
2081253.959	1.004619e+000	5.596187e+000
2087503.956	1.005082e+000	5.594445e+000
2093753.953	1.004609e+000	5.612808e+000
2100003.950	1.004702e+000	5.639716e+000
2106253.947	1.004486e+000	5.685831e+000
2112503.944	1.004814e+000	5.696326e+000
2118753.941	1.004762e+000	5.724789e+000
2125003.938	1.005454e+000	5.727775e+000
2131253.934	1.004873e+000	5.731985e+000
2137503.931	1.004808e+000	5.796994e+000
2143753.928	1.004858e+000	5.790868e+000
2150003.925	1.004676e+000	5.798699e+000
2156253.922	1.004488e+000	5.831365e+000
2162503.919	1.004898e+000	5.837588e+000
2168753.916	1.004809e+000	5.879890e+000
2175003.913	1.004240e+000	5.864626e+000
2181253.909	1.004495e+000	5.893675e+000
2187503.906	1.004892e+000	5.901519e+000
2193753.903	1.004479e+000	5.937494e+000
2200003.900	1.004298e+000	5.981171e+000
2206253.897	1.004409e+000	5.986443e+000
2212503.894	1.004387e+000	6.024990e+000
2218753.891	1.004094e+000	6.060463e+000
2225003.888	1.004472e+000	6.069750e+000
2231253.884	1.004394e+000	6.113588e+000
2237503.881	1.003968e+000	6.109801e+000
2243753.878	1.004425e+000	6.159947e+000
2250003.875	1.004614e+000	6.170761e+000
2256253.872	1.004562e+000	6.176955e+000
2262503.869	1.004458e+000	6.198133e+000
2268753.866	1.004222e+000	6.192109e+000
2275003.862	1.004322e+000	6.233059e+000
2281253.859	1.004749e+000	6.279539e+000
2287503.856	1.004453e+000	6.315889e+000
2293753.853	1.004564e+000	6.310495e+000
2300003.850	1.004214e+000	6.312761e+000
2306253.847	1.004031e+000	6.354578e+000
2312503.844	1.004482e+000	6.338552e+000
2318753.841	1.004861e+000	6.352052e+000
2325003.837	1.005215e+000	6.393581e+000
2331253.834	1.004421e+000	6.414965e+000
2337503.831	1.004434e+000	6.415594e+000
2343753.828	1.004840e+000	6.475631e+000
2350003.825	1.004235e+000	6.461966e+000
2356253.822	1.004788e+000	6.447435e+000
2362503.819	1.005128e+000	6.510102e+000
2368753.816	1.004694e+000	6.510036e+000
2375003.813	1.005168e+000	6.518339e+000
2381253.809	1.004923e+000	6.563420e+000
2387503.806	1.004360e+000	6.545992e+000
2393753.803	1.004949e+000	6.596733e+000
2400003.800	1.004662e+000	6.579377e+000
2406253.797	1.004391e+000	6.618091e+000
2412503.794	1.004628e+000	6.657804e+000
2418753.791	1.004690e+000	6.667440e+000
2425003.788	1.004277e+000	6.665010e+000
2431253.784	1.004582e+000	6.712559e+000
2437503.781	1.004401e+000	6.712127e+000
2443753.778	1.004702e+000	6.720728e+000
2450003.775	1.004855e+000	6.778890e+000
2456253.772	1.004706e+000	6.799423e+000
2462503.769	1.004435e+000	6.788170e+000
2468753.766	1.004451e+000	6.789581e+000
2475003.763	1.004210e+000	6.884973e+000
2481253.759	1.004089e+000	6.879830e+000
2487503.756	1.004012e+000	6.878614e+000
2493753.753	1.004672e+000	6.915839e+000
2500003.750	1.004097e+000	6.937191e+000
2506253.747	1.003617e+000	6.947677e+000
2512503.744	1.003992e+000	6.956096e+000
2518753.741	1.003566e+000	7.012161e+000
2525003.737	1.004712e+000	7.015212e+000
2531253.734	1.004373e+000	7.040648e+000
2537503.731	1.003978e+000	7.014020e+000
2543753.728	1.004117e+000	7.049898e+000
2550003.725	1.004005e+000	7.080027e+000
2556253.722	1.004091e+000	7.082365e+000
2562503.719	1.004231e+000	7.116252e+000
2568753.716	1.004148e+000	7.133880e+000
2575003.712	1.004121e+000	7.172279e+000
2581253.709	1.004036e+000	7.182330e+000
2587503.706	1.003849e+000	7.216632e+000
2593753.703	1.004004e+000	7.242203e+000
2600003.700	1.003879e+000	7.264272e+000
2606253.697	1.003711e+000	7.254022e+000
2612503.694	1.004232e+000	7.270669e+000
2618753.691	1.004319e+000	7.326103e+000
2625003.688	1.004385e+000	7.311979e+000
2631253.684	1.004831e+000	7.360629e+000
2637503.681	1.004720e+000	7.343510e+000
2643753.678	1.004522e+000	7.379662e+000
2650003.675	1.004754e+000	7.389851e+000
2656253.672	1.003770e+000	7.455554e+000
2662503.669	1.003942e+000	7.436439e+000
2668753.666	1.003612e+000	7.464289e+000
2675003.662	1.003886e+000	7.450416e+000
2681253.659	1.003862e+000	7.487451e+000
2687503.656	1.004471e+000	7.523122e+000
2693753.653	1.003882e+000	7.521242e+000
2700003.650	1.004354e+000	7.542038e+000
2706253.647	1.003971e+000	7.579266e+000
2712503.644	1.003705e+000	7.611311e+000
2718753.641	1.003933e+000	7.601658e+000
2725003.638	1.004595e+000	7.658508e+000
2731253.634	1.004208e+000	7.654665e+000
2737503.631	1.004326e+000	7.669028e+000
2743753.628	1.003943e+000	7.669838e+000
2750003.625	1.004229e+000	7.717050e+000
2756253.622	1.003617e+000	7.717998e+000
2762503.619	1.003717e+000	7.769368e+000
2768753.616	1.003990e+000	7.764424e+000
2775003.612	1.004063e+000	7.769077e+000
2781253.609	1.004053e+000	7.772384e+000
2787503.606	1.003777e+000	7.825906e+000
2793753.603	1.004032e+000	7.825086e+000
2800003.600	1.003548e+000	7.840332e+000
2806253.597	1.004022e+000	7.890712e+000
2812503.594	1.003400e+000	7.899342e+000
2818753.591	1.003981e+000	7.877810e+000
2825003.587	1.004147e+000	7.922898e+000
2831253.584	1.004131e+000	7.988039e+000
2837503.581	1.003606e+000	7.990637e+000
2843753.578	1.003829e+000	7.982756e+000
2850003.575	1.003974e+000	8.007572e+000
2856253.572	1.004046e+000	8.041941e+000
2862503.569	1.003851e+000	8.083901e+000
2868753.566	1.003354e+000	8.114166e+000
2875003.563	1.003498e+000	8.111933e+000
2881253.559	1.003397e+000	8.146474e+000
2887503.556	1.003353e+000	8.172461e+000
2893753.553	1.003580e+000	8.195748e+000
2900003.550	1.003825e+000	8.201875e+000
2906253.547	1.003501e+000	8.210742e+000
2912503.544	1.003601e+000	8.217927e+000
2918753.541	1.004218e+000	8.259579e+000
2925003.537	1.004100e+000	8.241733e+000
2931253.534	1.003931e+000	8.296338e+000
2937503.531	1.003450e+000	8.301127e+000
2943753.528	1.003708e+000	8.293935e+000
2950003.525	1.003385e+000	8.328022e+000
2956253.522	1.003583e+000	8.344297e+000
2962503.519	1.003963e+000	8.359575e+000
2968753.516	1.003481e+000	8.389169e+000
2975003.513	1.003891e+000	8.406057e+000
2981253.509	1.003259e+000	8.451268e+000
2987503.506	1.003364e+000	8.453677e+000
2993753.503	1.003792e+000	8.475913e+000
3000003.500	1.003952e+000	8.476024e+000
3006253.497	1.003334e+000	8.538118e+000
3012503.494	1.003242e+000	8.550716e+000
3018753.491	1.003086e+000	8.578860e+000
3025003.487	1.003741e+000	8.589627e+000
3031253.484	1.003158e+000	8.601766e+000
3037503.481	1.003437e+000	8.606543e+000
3043753.478	1.003836e+000	8.605210e+000
3050003.475	1.003889e+000	8.646305e+000
3056253.472	1.003331e+000	8.677757e+000
3062503.469	1.003232e+000	8.678643e+000
3068753.466	1.003546e+000	8.697966e+000
3075003.462	1.003870e+000	8.727328e+000
3081253.459	1.003534e+000	8.724310e+000
3087503.456	1.003730e+000	8.787493e+000
3093753.453	1.003581e+000	8.788250e+000
3100003.450	1.003448e+000	8.777421e+000
3106253.447	1.003130e+000	8.840860e+000
3112503.444	1.003718e+000	8.877926e+000
3118753.441	1.003003e+000	8.856376e+000
