!Keysight Technologies,E5061B,MY49912438,B.06.30
!Date: Thu Nov 06 17:45:11 2025
!Data & Calibration Information:
!Freq	S11:SOLT2(ON)
# Hz S MA R 50
5.000	9.963393e-001	-1.799291e+002
6258.906	9.953708e-001	1.768143e+002
12512.811	9.959914e-001	1.735400e+002
18766.717	9.952602e-001	1.702692e+002
25020.622	9.950898e-001	1.670097e+002
31274.528	9.945669e-001	1.637762e+002
37528.433	9.951595e-001	1.605594e+002
43782.339	9.948136e-001	1.573838e+002
50036.245	9.936356e-001	1.542491e+002
56290.150	9.938699e-001	1.511370e+002
62544.056	9.937232e-001	1.480713e+002
68797.961	9.932272e-001	1.450497e+002
75051.867	9.929838e-001	1.420761e+002
81305.772	9.927981e-001	1.391545e+002
87559.678	9.925228e-001	1.362832e+002
93813.583	9.921752e-001	1.334762e+002
100067.489	9.919967e-001	1.307212e+002
106321.395	9.917549e-001	1.280278e+002
112575.300	9.915565e-001	1.253901e+002
118829.206	9.914035e-001	1.228082e+002
125083.111	9.913335e-001	1.202798e+002
131337.017	9.910951e-001	1.178333e+002
137590.922	9.909671e-001	1.154405e+002
143844.828	9.909228e-001	1.131030e+002
150098.734	9.909571e-001	1.108186e+002
156352.639	9.907989e-001	1.086126e+002
162606.545	9.907259e-001	1.064591e+002
168860.450	9.907364e-001	1.043568e+002
175114.356	9.908321e-001	1.023049e+002
181368.261	9.907803e-001	1.003234e+002
187622.167	9.907893e-001	9.839062e+001
193876.073	9.908635e-001	9.650467e+001
200129.978	9.910094e-001	9.466675e+001
206383.884	9.909161e-001	9.289531e+001
212637.789	9.908694e-001	9.116912e+001
218891.695	9.909038e-001	8.948627e+001
225145.600	9.909954e-001	8.784575e+001
231399.506	9.910133e-001	8.626203e+001
237653.412	9.910740e-001	8.471835e+001
243907.317	9.911756e-001	8.321318e+001
250161.223	9.913460e-001	8.174603e+001
256415.128	9.913345e-001	8.032895e+001
262669.034	9.913656e-001	7.894753e+001
268922.939	9.914284e-001	7.760021e+001
275176.845	9.915511e-001	7.628560e+001
281430.750	9.915700e-001	7.501882e+001
287684.656	9.916274e-001	7.378196e+001
293938.562	9.917017e-001	7.257505e+001
300192.467	9.918109e-001	7.139774e+001
306446.373	9.917667e-001	7.026352e+001
312700.278	9.917553e-001	6.915749e+001
318954.184	9.917683e-001	6.807695e+001
325208.089	9.917997e-001	6.702206e+001
331461.995	9.918555e-001	6.599218e+001
337715.901	9.919396e-001	6.498483e+001
343969.806	9.920549e-001	6.400142e+001
350223.712	9.921837e-001	6.304034e+001
356477.617	9.921737e-001	6.211980e+001
362731.523	9.921885e-001	6.122021e+001
368985.428	9.922071e-001	6.034025e+001
375239.334	9.922482e-001	5.948095e+001
381493.240	9.923119e-001	5.863976e+001
387747.145	9.923766e-001	5.781624e+001
394001.051	9.924784e-001	5.701024e+001
400254.956	9.925685e-001	5.622255e+001
406508.862	9.925637e-001	5.546645e+001
412762.767	9.925922e-001	5.472717e+001
419016.673	9.926153e-001	5.400213e+001
425270.578	9.926308e-001	5.329402e+001
431524.484	9.926671e-001	5.259898e+001
437778.390	9.927147e-001	5.191817e+001
444032.295	9.927735e-001	5.125122e+001
450286.201	9.928506e-001	5.059645e+001
456540.106	9.929173e-001	4.995616e+001
462794.012	9.930011e-001	4.932727e+001
469047.917	9.930957e-001	4.871036e+001
475301.823	9.932046e-001	4.810539e+001
481555.729	9.933152e-001	4.751147e+001
487809.634	9.932230e-001	4.692135e+001
494063.540	9.932590e-001	4.636243e+001
500317.445	9.933015e-001	4.581358e+001
506571.351	9.933445e-001	4.527534e+001
512825.256	9.933920e-001	4.474625e+001
519079.162	9.934607e-001	4.422777e+001
525333.068	9.935844e-001	4.373947e+001
531586.973	9.936039e-001	4.324487e+001
537840.879	9.936428e-001	4.275890e+001
544094.784	9.936692e-001	4.228117e+001
550348.690	9.937083e-001	4.181160e+001
556602.595	9.937451e-001	4.135046e+001
562856.501	9.937979e-001	4.089641e+001
569110.407	9.938366e-001	4.045079e+001
575364.312	9.935990e-001	3.999060e+001
581618.218	9.936224e-001	3.956512e+001
587872.123	9.936524e-001	3.914520e+001
594126.029	9.936902e-001	3.873277e+001
600379.934	9.937328e-001	3.832733e+001
606633.840	9.937935e-001	3.792850e+001
612887.745	9.938514e-001	3.753621e+001
619141.651	9.939150e-001	3.714938e+001
625395.557	9.940637e-001	3.679295e+001
631649.462	9.940555e-001	3.642393e+001
637903.368	9.940607e-001	3.606095e+001
644157.273	9.940717e-001	3.570392e+001
650411.179	9.940520e-001	3.535210e+001
656665.084	9.940711e-001	3.500577e+001
662918.990	9.940974e-001	3.466504e+001
669172.896	9.941057e-001	3.432888e+001
675426.801	9.941284e-001	3.399823e+001
681680.707	9.941473e-001	3.367166e+001
687934.612	9.941831e-001	3.335016e+001
694188.518	9.942002e-001	3.303289e+001
700442.423	9.942380e-001	3.272057e+001
706696.329	9.942701e-001	3.241244e+001
712950.235	9.943156e-001	3.210954e+001
719204.140	9.943651e-001	3.181009e+001
725458.046	9.944040e-001	3.151455e+001
731711.951	9.944526e-001	3.122339e+001
737965.857	1.000198e+000	3.038147e+001
744219.762	1.000190e+000	3.010157e+001
750473.668	1.000186e+000	2.982523e+001
756727.573	1.000164e+000	2.955337e+001
762981.479	1.000172e+000	2.928540e+001
769235.385	1.000164e+000	2.902052e+001
775489.290	1.000190e+000	2.875995e+001
781743.196	1.000404e+000	2.851728e+001
787997.101	1.000331e+000	2.826338e+001
794251.007	1.000299e+000	2.801230e+001
800504.912	1.000247e+000	2.776557e+001
806758.818	1.000195e+000	2.752108e+001
813012.724	1.000154e+000	2.728056e+001
819266.629	1.000101e+000	2.704350e+001
825520.535	1.000056e+000	2.680876e+001
831774.440	1.000033e+000	2.657734e+001
838028.346	9.999953e-001	2.634929e+001
844282.251	9.999642e-001	2.612401e+001
850536.157	9.999271e-001	2.590228e+001
856790.063	9.999149e-001	2.568300e+001
863043.968	9.998857e-001	2.546681e+001
869297.874	9.998688e-001	2.525374e+001
875551.779	9.998583e-001	2.504212e+001
881805.685	9.998535e-001	2.483454e+001
888059.590	9.998671e-001	2.462886e+001
894313.496	9.998634e-001	2.442497e+001
900567.402	9.998791e-001	2.422446e+001
906821.307	9.995573e-001	2.401134e+001
913075.213	9.994961e-001	2.381478e+001
919329.118	9.994327e-001	2.362076e+001
925583.024	9.993935e-001	2.342960e+001
931836.929	9.993395e-001	2.323944e+001
938090.835	9.992928e-001	2.305177e+001
944344.740	9.992474e-001	2.286599e+001
950598.646	9.992041e-001	2.268238e+001
956852.552	9.991799e-001	2.250084e+001
963106.457	9.991368e-001	2.232051e+001
969360.363	9.990784e-001	2.214374e+001
975614.268	9.990414e-001	2.196820e+001
981868.174	9.990326e-001	2.179538e+001
988122.079	9.990039e-001	2.162461e+001
994375.985	9.989926e-001	2.145439e+001
1000629.891	9.989815e-001	2.128761e+001
1006883.796	9.989717e-001	2.112240e+001
1013137.702	9.989573e-001	2.095810e+001
1019391.607	9.989646e-001	2.079579e+001
1025645.513	9.989563e-001	2.063575e+001
1031899.418	9.989633e-001	2.047674e+001
1038153.324	9.989864e-001	2.032064e+001
1044407.230	9.992743e-001	2.016698e+001
1050661.135	9.992054e-001	2.001373e+001
1056915.041	9.991588e-001	1.986144e+001
1063168.946	9.990981e-001	1.971056e+001
1069422.852	9.990448e-001	1.956107e+001
1075676.757	9.989949e-001	1.941282e+001
1081930.663	9.989258e-001	1.926660e+001
1088184.568	9.988798e-001	1.912173e+001
1094438.474	9.988448e-001	1.897834e+001
1100692.380	9.987717e-001	1.883554e+001
1106946.285	9.987209e-001	1.869528e+001
1113200.191	9.986573e-001	1.855788e+001
1119454.096	9.986274e-001	1.842148e+001
1125708.002	9.986135e-001	1.828679e+001
1131961.907	9.986176e-001	1.815268e+001
1138215.813	9.986149e-001	1.801868e+001
1144469.719	9.983747e-001	1.789042e+001
1150723.624	9.982817e-001	1.776127e+001
1156977.530	9.981888e-001	1.763480e+001
1163231.435	9.981068e-001	1.750974e+001
1169485.341	9.980528e-001	1.738528e+001
1175739.246	9.979992e-001	1.726205e+001
1181993.152	9.979690e-001	1.713905e+001
1188247.058	9.979452e-001	1.701759e+001
1194500.963	9.979377e-001	1.689550e+001
1200754.869	9.979111e-001	1.677337e+001
1207008.774	9.978849e-001	1.665319e+001
1213262.680	9.978741e-001	1.653516e+001
1219516.585	9.978835e-001	1.641747e+001
1225770.491	9.979062e-001	1.629926e+001
1232024.396	9.979234e-001	1.618220e+001
1238278.302	9.979790e-001	1.606608e+001
1244532.208	9.980335e-001	1.594975e+001
1250786.113	9.982276e-001	1.581025e+001
1257040.019	9.981272e-001	1.570451e+001
1263293.924	9.980227e-001	1.559859e+001
1269547.830	9.979229e-001	1.549400e+001
1275801.735	9.978294e-001	1.538963e+001
1282055.641	9.977390e-001	1.528669e+001
1288309.547	9.976496e-001	1.518464e+001
1294563.452	9.975751e-001	1.508336e+001
1300817.358	9.975080e-001	1.498222e+001
1307071.263	9.974560e-001	1.488219e+001
1313325.169	9.974087e-001	1.478246e+001
1319579.074	9.973799e-001	1.468466e+001
1325832.980	9.973555e-001	1.458568e+001
1332086.886	9.973460e-001	1.448673e+001
1338340.791	9.973200e-001	1.438750e+001
1344594.697	9.973058e-001	1.429014e+001
1350848.602	9.972995e-001	1.419244e+001
1357102.508	9.972859e-001	1.409643e+001
1363356.413	9.972905e-001	1.399901e+001
1369610.319	9.973059e-001	1.390300e+001
1375864.225	9.973279e-001	1.380599e+001
1382118.130	9.973575e-001	1.370966e+001
1388372.036	9.973908e-001	1.361365e+001
1394625.941	9.974183e-001	1.351815e+001
1400879.847	9.974675e-001	1.342188e+001
1407133.752	9.975155e-001	1.332503e+001
1413387.658	9.975519e-001	1.322784e+001
1419641.563	9.976142e-001	1.313046e+001
1425895.469	9.976587e-001	1.303413e+001
1432149.375	9.977185e-001	1.293623e+001
1438403.280	9.977599e-001	1.283782e+001
1444657.186	9.977983e-001	1.273947e+001
1450911.091	9.978365e-001	1.263964e+001
1457164.997	9.978608e-001	1.254091e+001
1463418.902	9.978777e-001	1.244001e+001
1469672.808	9.984793e-001	1.233037e+001
1475926.714	9.984354e-001	1.223391e+001
1482180.619	9.983576e-001	1.213959e+001
1488434.525	9.982968e-001	1.204734e+001
1494688.430	9.982468e-001	1.195652e+001
1500942.336	9.981985e-001	1.186736e+001
1507196.241	9.981554e-001	1.177984e+001
1513450.147	9.981102e-001	1.169455e+001
1519704.053	9.980889e-001	1.161063e+001
1525957.958	9.980789e-001	1.152696e+001
1532211.864	9.980723e-001	1.144607e+001
1538465.769	9.980832e-001	1.136571e+001
1544719.675	9.981164e-001	1.128610e+001
1550973.580	9.981396e-001	1.120833e+001
1557227.486	9.981981e-001	1.113147e+001
1563481.391	9.982577e-001	1.109106e+001
1569735.297	9.982506e-001	1.099864e+001
1575989.203	9.982125e-001	1.090703e+001
1582243.108	9.981764e-001	1.081775e+001
1588497.014	9.981195e-001	1.073012e+001
1594750.919	9.980564e-001	1.064368e+001
1601004.825	9.979832e-001	1.055969e+001
1607258.730	9.979122e-001	1.047658e+001
1613512.636	9.978457e-001	1.039638e+001
1619766.542	9.977743e-001	1.031679e+001
1626020.447	9.977156e-001	1.023943e+001
1632274.353	9.976689e-001	1.016322e+001
1638528.258	9.976195e-001	1.008825e+001
1644782.164	9.975779e-001	1.001454e+001
1651036.069	9.975554e-001	9.943000e+000
1657289.975	9.975244e-001	9.872179e+000
1663543.881	9.975216e-001	9.801652e+000
1669797.786	9.975235e-001	9.732064e+000
1676051.692	9.975587e-001	9.664383e+000
1682305.597	9.975990e-001	9.597267e+000
1688559.503	9.976354e-001	9.530312e+000
1694813.408	9.976994e-001	9.463608e+000
1701067.314	9.977758e-001	9.398652e+000
1707321.220	9.978607e-001	9.333748e+000
1713575.125	9.976433e-001	9.259718e+000
1719829.031	9.976218e-001	9.191724e+000
1726082.936	9.976021e-001	9.123810e+000
1732336.842	9.975761e-001	9.056035e+000
1738590.747	9.975512e-001	8.987684e+000
1744844.653	9.975460e-001	8.920614e+000
1751098.558	9.975309e-001	8.853879e+000
1757352.464	9.975351e-001	8.786754e+000
1763606.370	9.975073e-001	8.720318e+000
1769860.275	9.974937e-001	8.654551e+000
1776114.181	9.974819e-001	8.588458e+000
1782368.086	9.974739e-001	8.522649e+000
1788621.992	9.974641e-001	8.456921e+000
1794875.897	9.974523e-001	8.391357e+000
1801129.803	9.974347e-001	8.326029e+000
1807383.709	9.974174e-001	8.261090e+000
1813637.614	9.974255e-001	8.196259e+000
1819891.520	9.974050e-001	8.131451e+000
1826145.425	9.974013e-001	8.068025e+000
1832399.331	9.973947e-001	8.004280e+000
1838653.236	9.973890e-001	7.941243e+000
1844907.142	9.973704e-001	7.878442e+000
1851161.048	9.973701e-001	7.815150e+000
1857414.953	9.973662e-001	7.751966e+000
1863668.859	9.973523e-001	7.689152e+000
1869922.764	9.973380e-001	7.627257e+000
1876176.670	9.974584e-001	7.564673e+000
1882430.575	9.974379e-001	7.504610e+000
1888684.481	9.974241e-001	7.444711e+000
1894938.386	9.974089e-001	7.384286e+000
1901192.292	9.974109e-001	7.324298e+000
1907446.198	9.973760e-001	7.263813e+000
1913700.103	9.973534e-001	7.204619e+000
1919954.009	9.973577e-001	7.144657e+000
1926207.914	9.973476e-001	7.085469e+000
1932461.820	9.973063e-001	7.026893e+000
1938715.725	9.972987e-001	6.968104e+000
1944969.631	9.972790e-001	6.909999e+000
1951223.537	9.972657e-001	6.851210e+000
1957477.442	9.972512e-001	6.793408e+000
1963731.348	9.972254e-001	6.735077e+000
1969985.253	9.972249e-001	6.678391e+000
1976239.159	9.970998e-001	6.616450e+000
1982493.064	9.971035e-001	6.559860e+000
1988746.970	9.970969e-001	6.503740e+000
1995000.876	9.970792e-001	6.446932e+000
2001254.781	9.970721e-001	6.391102e+000
2007508.687	9.970618e-001	6.334027e+000
2013762.592	9.970710e-001	6.277794e+000
2020016.498	9.970533e-001	6.222047e+000
2026270.403	9.970289e-001	6.166084e+000
2032524.309	9.970262e-001	6.110488e+000
2038778.215	9.969976e-001	6.055747e+000
2045032.120	9.969881e-001	6.001001e+000
2051286.026	9.969624e-001	5.946218e+000
2057539.931	9.969547e-001	5.892017e+000
2063793.837	9.969232e-001	5.837755e+000
2070047.742	9.969352e-001	5.784306e+000
2076301.648	9.969199e-001	5.730443e+000
2082555.553	9.969045e-001	5.677356e+000
2088809.459	9.969435e-001	5.632075e+000
2095063.365	9.969208e-001	5.579063e+000
2101317.270	9.969201e-001	5.525867e+000
2107571.176	9.969143e-001	5.471919e+000
2113825.081	9.969023e-001	5.419091e+000
2120078.987	9.968991e-001	5.366152e+000
2126332.892	9.968858e-001	5.312964e+000
2132586.798	9.968494e-001	5.260684e+000
2138840.704	9.968329e-001	5.208549e+000
2145094.609	9.968300e-001	5.156922e+000
2151348.515	9.968062e-001	5.105328e+000
2157602.420	9.968045e-001	5.054017e+000
2163856.326	9.967893e-001	5.002592e+000
2170110.231	9.967872e-001	4.951245e+000
2176364.137	9.967688e-001	4.900793e+000
2182618.043	9.967548e-001	4.849421e+000
2188871.948	9.967620e-001	4.798243e+000
2195125.854	9.967572e-001	4.748222e+000
2201379.759	9.967462e-001	4.697215e+000
2207633.665	9.967338e-001	4.647060e+000
2213887.570	9.966012e-001	4.598437e+000
2220141.476	9.965898e-001	4.548939e+000
2226395.381	9.965900e-001	4.499547e+000
2232649.287	9.965920e-001	4.450178e+000
2238903.193	9.965923e-001	4.400979e+000
2245157.098	9.965861e-001	4.351972e+000
2251411.004	9.965958e-001	4.303079e+000
2257664.909	9.965879e-001	4.254712e+000
2263918.815	9.965941e-001	4.205709e+000
2270172.720	9.966066e-001	4.156894e+000
2276426.626	9.965752e-001	4.107842e+000
2282680.532	9.965824e-001	4.059566e+000
2288934.437	9.965840e-001	4.010661e+000
2295188.343	9.965848e-001	3.962339e+000
2301442.248	9.965778e-001	3.914508e+000
2307696.154	9.965674e-001	3.866831e+000
2313950.059	9.965621e-001	3.818378e+000
2320203.965	9.965548e-001	3.771415e+000
2326457.871	9.965473e-001	3.722804e+000
2332711.776	9.965325e-001	3.676191e+000
2338965.682	9.965224e-001	3.629327e+000
2345219.587	9.965037e-001	3.589953e+000
2351473.493	9.964745e-001	3.543213e+000
2357727.398	9.964572e-001	3.495690e+000
2363981.304	9.964224e-001	3.449976e+000
2370235.210	9.963871e-001	3.403440e+000
2376489.115	9.963562e-001	3.358066e+000
2382743.021	9.963273e-001	3.312340e+000
2388996.926	9.962959e-001	3.267687e+000
2395250.832	9.962748e-001	3.223894e+000
2401504.737	9.962526e-001	3.179174e+000
2407758.643	9.962579e-001	3.134919e+000
2414012.548	9.962567e-001	3.090954e+000
2420266.454	9.962371e-001	3.046104e+000
2426520.360	9.962560e-001	3.001766e+000
2432774.265	9.962792e-001	2.956184e+000
2439028.171	9.962886e-001	2.911223e+000
2445282.076	9.962767e-001	2.865649e+000
2451535.982	9.962832e-001	2.819987e+000
2457789.887	9.962741e-001	2.774595e+000
2464043.793	9.962569e-001	2.729188e+000
2470297.699	9.963005e-001	2.688639e+000
2476551.604	9.962718e-001	2.644183e+000
2482805.510	9.962474e-001	2.599595e+000
2489059.415	9.962047e-001	2.554881e+000
2495313.321	9.961881e-001	2.510818e+000
2501567.226	9.961652e-001	2.467295e+000
2507821.132	9.961436e-001	2.423889e+000
2514075.038	9.961222e-001	2.379867e+000
2520328.943	9.960909e-001	2.336241e+000
2526582.849	9.960810e-001	2.292617e+000
2532836.754	9.962283e-001	2.248200e+000
2539090.660	9.962409e-001	2.205651e+000
2545344.565	9.962247e-001	2.163325e+000
2551598.471	9.962274e-001	2.120508e+000
2557852.376	9.962141e-001	2.077790e+000
2564106.282	9.962157e-001	2.035087e+000
2570360.188	9.962170e-001	1.993335e+000
2576614.093	9.962174e-001	1.951340e+000
2582867.999	9.962078e-001	1.909622e+000
2589121.904	9.962086e-001	1.867453e+000
2595375.810	9.962134e-001	1.825240e+000
2601629.715	9.961985e-001	1.782349e+000
2607883.621	9.962077e-001	1.741358e+000
2614137.527	9.962055e-001	1.699215e+000
2620391.432	9.962122e-001	1.657515e+000
2626645.338	9.962073e-001	1.615787e+000
2632899.243	9.962329e-001	1.574163e+000
2639153.149	9.962290e-001	1.531817e+000
2645407.054	9.962300e-001	1.490084e+000
2651660.960	9.962283e-001	1.448104e+000
2657914.866	9.962228e-001	1.405094e+000
2664168.771	9.962071e-001	1.363033e+000
2670422.677	9.962003e-001	1.320813e+000
2676676.582	9.961822e-001	1.278984e+000
2682930.488	9.961530e-001	1.237248e+000
2689184.393	9.961456e-001	1.195702e+000
2695438.299	9.961238e-001	1.155726e+000
2701692.205	9.961127e-001	1.114404e+000
2707946.110	9.960978e-001	1.072975e+000
2714200.016	9.960814e-001	1.032621e+000
2720453.921	9.960879e-001	9.917693e-001
2726707.827	9.960808e-001	9.506072e-001
2732961.732	9.960612e-001	9.110181e-001
2739215.638	9.960606e-001	8.702305e-001
2745469.543	9.960304e-001	8.291640e-001
2751723.449	9.960441e-001	7.890437e-001
2757977.355	9.960364e-001	7.491758e-001
2764231.260	9.960126e-001	7.085490e-001
2770485.166	9.960083e-001	6.681507e-001
2776739.071	9.959971e-001	6.275189e-001
2782992.977	9.959775e-001	5.870178e-001
2789246.882	9.959832e-001	5.470879e-001
2795500.788	9.959689e-001	5.069941e-001
2801754.694	9.959418e-001	4.674345e-001
2808008.599	9.959337e-001	4.269512e-001
2814262.505	9.959173e-001	3.874784e-001
2820516.410	9.959115e-001	3.475521e-001
2826770.316	9.958910e-001	3.071477e-001
2833024.221	9.958676e-001	2.680326e-001
2839278.127	9.958599e-001	2.281870e-001
2845532.033	9.958532e-001	1.893457e-001
2851785.938	9.958337e-001	1.498994e-001
2858039.844	9.958124e-001	1.114298e-001
2864293.749	9.957094e-001	6.957388e-002
2870547.655	9.957110e-001	3.100206e-002
2876801.560	9.957031e-001	-8.522099e-003
2883055.466	9.956976e-001	-4.664273e-002
2889309.371	9.956825e-001	-8.574599e-002
2895563.277	9.956757e-001	-1.247960e-001
2901817.183	9.956693e-001	-1.634481e-001
2908071.088	9.956607e-001	-2.030443e-001
2914324.994	9.956598e-001	-2.417662e-001
2920578.899	9.956456e-001	-2.799584e-001
2926832.805	9.956362e-001	-3.187222e-001
2933086.710	9.956324e-001	-3.569680e-001
2939340.616	9.956343e-001	-3.958114e-001
2945594.522	9.956267e-001	-4.337880e-001
2951848.427	9.956070e-001	-4.729209e-001
2958102.333	9.956085e-001	-5.114665e-001
2964356.238	9.955880e-001	-5.502427e-001
2970610.144	9.955951e-001	-5.895738e-001
2976864.049	9.955801e-001	-6.277512e-001
2983117.955	9.955667e-001	-6.659339e-001
2989371.861	9.955694e-001	-7.040707e-001
2995625.766	9.955543e-001	-7.421914e-001
3001879.672	9.955580e-001	-7.805890e-001
3008133.577	9.955240e-001	-8.190010e-001
3014387.483	9.955071e-001	-8.569332e-001
3020641.388	9.955019e-001	-8.951059e-001
3026895.294	9.954854e-001	-9.330871e-001
3033149.199	9.954835e-001	-9.716191e-001
3039403.105	9.954693e-001	-1.009334e+000
3045657.011	9.954647e-001	-1.047308e+000
3051910.916	9.954453e-001	-1.084954e+000
3058164.822	9.954390e-001	-1.122726e+000
3064418.727	9.954227e-001	-1.160448e+000
3070672.633	9.954191e-001	-1.197884e+000
3076926.538	9.954132e-001	-1.236017e+000
3083180.444	9.953983e-001	-1.273283e+000
3089434.350	9.953851e-001	-1.311083e+000
3095688.255	9.953783e-001	-1.348995e+000
3101942.161	9.953682e-001	-1.386383e+000
3108196.066	9.953635e-001	-1.424276e+000
3114449.972	9.953438e-001	-1.461955e+000
