!Keysight Technologies,E5061B,MY49912438,B.06.04
!Date: Thu Nov 06 14:58:00 2025
!Data & Calibration Information:
!Freq	S11:SOLT2(ON)
# Hz S MA R 50
5.000	8.872041e-001	3.645047e-001
5.053	9.023165e-001	-3.939667e-001
5.107	8.968504e-001	1.300141e-001
5.160	8.944027e-001	3.514979e-001
5.213	8.940824e-001	-3.065340e-001
5.267	8.974697e-001	9.397632e-002
5.320	8.857859e-001	-5.111081e-001
5.374	8.984783e-001	4.942202e-001
5.427	8.880295e-001	-1.741268e-001
5.480	8.955557e-001	-1.573135e-001
5.534	8.958240e-001	-2.235214e-001
5.587	8.983604e-001	1.319421e-001
5.640	8.978698e-001	-2.556680e-001
5.694	8.986258e-001	-1.061477e-003
5.747	8.973039e-001	-1.029714e-001
5.800	8.990839e-001	2.866965e-001
5.854	8.995375e-001	3.367430e-001
5.907	8.982085e-001	6.641872e-003
5.960	8.966210e-001	2.384283e-001
6.014	8.980210e-001	-1.586197e-001
6.067	9.063684e-001	1.277179e-001
6.121	8.916352e-001	-1.049842e-001
6.174	9.009052e-001	2.988819e-001
6.227	8.934050e-001	4.142753e-001
6.281	9.012604e-001	-5.501508e-002
6.334	8.964133e-001	-2.628036e-001
6.387	8.969646e-001	3.803552e-002
6.441	9.023918e-001	-1.079020e-001
6.494	8.999988e-001	-2.531378e-001
6.547	8.898939e-001	3.121096e-001
6.601	8.981738e-001	-1.841794e-001
6.654	8.920844e-001	4.962787e-002
6.708	8.938210e-001	8.882597e-003
6.761	8.996204e-001	3.175850e-001
6.814	8.981274e-001	-1.529695e-001
6.868	8.902037e-001	-3.878320e-001
6.930	8.929542e-001	4.262576e-002
7.004	8.910019e-001	4.015467e-001
7.077	8.891074e-001	4.409339e-003
7.151	8.992278e-001	1.264752e-001
7.225	9.073030e-001	8.983487e-002
7.298	9.003365e-001	3.278889e-002
7.372	8.932677e-001	2.586171e-001
7.445	8.972347e-001	1.368867e-001
7.519	8.995599e-001	-1.923930e-002
7.593	8.953974e-001	-4.223731e-001
7.666	9.050586e-001	3.334648e-001
7.740	8.967537e-001	-2.623881e-002
7.813	9.048085e-001	2.222035e-001
7.887	8.963394e-001	4.978017e-002
7.961	8.950250e-001	2.972336e-002
8.034	8.921879e-001	3.759129e-001
8.108	8.947172e-001	8.075901e-002
8.181	8.987023e-001	-2.474160e-001
8.255	8.950522e-001	1.368710e-001
8.329	8.981294e-001	1.939728e-002
8.402	8.999724e-001	1.078154e-001
8.476	8.965885e-001	-2.797094e-001
8.550	9.015248e-001	1.795682e-001
8.623	8.959423e-001	-1.329874e-001
8.697	8.906456e-001	-1.160580e-001
8.770	8.962103e-001	-1.936550e-001
8.844	9.007575e-001	2.963380e-001
8.918	8.991499e-001	3.146168e-001
8.991	8.948707e-001	3.812207e-001
9.065	9.020471e-001	-1.538563e-001
9.138	8.975615e-001	1.187721e-001
9.212	8.982352e-001	1.149813e-001
9.286	8.964395e-001	-2.643504e-001
9.359	8.929241e-001	1.416871e-001
9.433	8.938540e-001	-9.045295e-002
9.519	9.015614e-001	1.992998e-002
9.620	9.003707e-001	-2.282254e-001
9.722	8.971479e-001	8.574911e-002
9.823	8.936888e-001	-8.480286e-002
9.925	8.954195e-001	-2.730277e-001
10.027	8.972729e-001	5.918513e-002
10.128	8.974066e-001	6.942655e-002
10.230	8.960446e-001	2.479559e-002
10.331	8.963182e-001	-1.105130e-001
10.433	8.940654e-001	7.772877e-003
10.535	9.025685e-001	1.031793e-001
10.636	8.990991e-001	-5.869176e-002
10.738	8.992900e-001	-3.004467e-001
10.839	8.988134e-001	-6.502922e-002
10.941	8.982134e-001	-5.118076e-002
11.042	8.990162e-001	-7.271808e-002
11.144	9.002437e-001	1.544208e-003
11.246	8.979287e-001	-2.622426e-001
11.347	9.008944e-001	-1.279399e-001
11.449	8.919730e-001	-4.767831e-002
11.550	9.004198e-001	1.567854e-001
11.652	8.997046e-001	-3.121677e-001
11.754	9.011763e-001	-3.367359e-001
11.855	9.001201e-001	1.455440e-001
11.957	8.965530e-001	-8.203030e-002
12.058	8.976662e-001	-7.584515e-003
12.160	9.003925e-001	1.256977e-001
12.261	9.011950e-001	-8.549500e-002
12.363	8.993314e-001	6.740668e-002
12.465	8.948158e-001	-1.063689e-001
12.566	8.952521e-001	1.885338e-002
12.668	8.991922e-001	3.240647e-002
12.769	8.979887e-001	3.325830e-002
12.871	8.979804e-001	7.849192e-002
12.973	8.988596e-001	2.182543e-001
13.074	9.022860e-001	2.560622e-002
13.193	8.971827e-001	-1.827312e-002
13.333	9.002712e-001	-1.538195e-001
13.473	9.006429e-001	-6.461133e-002
13.614	8.979958e-001	6.853743e-002
13.754	8.978973e-001	1.350687e-002
13.894	8.980237e-001	-1.144649e-001
14.034	8.981937e-001	1.146947e-001
14.174	8.953132e-001	-1.700247e-001
14.314	8.979518e-001	3.188370e-002
14.454	8.940093e-001	7.195787e-002
14.595	8.960887e-001	-1.969912e-001
14.735	8.954379e-001	4.170287e-002
14.875	8.982940e-001	-2.366225e-003
15.015	8.961147e-001	-1.260414e-001
15.155	9.037249e-001	-1.075401e-001
15.295	8.969848e-001	4.702950e-003
15.435	8.983463e-001	-3.037123e-002
15.575	8.995815e-001	4.938971e-002
15.716	8.959549e-001	-9.115537e-002
15.856	8.964413e-001	-1.624756e-001
15.996	8.952842e-001	1.777147e-001
16.136	8.990526e-001	1.484001e-001
16.276	8.984579e-001	5.990329e-002
16.416	9.007651e-001	-1.217869e-001
16.556	8.978109e-001	8.682852e-002
16.696	8.970261e-001	1.896803e-001
16.837	8.991156e-001	1.729470e-002
16.977	8.977093e-001	7.244861e-002
17.117	8.981370e-001	1.284200e-001
17.257	8.991844e-001	1.246642e-001
17.397	8.983451e-001	-1.652175e-002
17.537	8.959536e-001	-2.865120e-001
17.677	8.920409e-001	1.096046e-001
17.817	8.998189e-001	-7.516898e-002
17.958	8.988167e-001	-1.730140e-002
18.121	8.985014e-001	-3.801959e-003
18.315	8.984094e-001	1.937232e-002
18.508	8.976768e-001	9.035425e-002
18.701	8.970052e-001	-1.063917e-001
18.895	9.005582e-001	-6.368752e-002
19.088	8.960950e-001	5.120395e-002
19.282	8.958748e-001	-7.004687e-002
19.475	8.987561e-001	-5.821447e-002
19.668	8.965564e-001	-3.499100e-003
19.862	8.962190e-001	5.332565e-002
20.055	8.950886e-001	-8.665919e-002
20.248	8.987143e-001	-9.399524e-002
20.442	8.986048e-001	-7.370813e-002
20.635	8.952567e-001	6.223141e-002
20.829	8.969588e-001	-9.556271e-002
21.022	8.961091e-001	-7.840155e-002
21.215	8.993111e-001	-4.358558e-002
21.409	8.969133e-001	-3.939035e-002
21.602	8.967880e-001	-9.289598e-002
21.796	8.968499e-001	-1.620845e-002
21.989	8.982634e-001	-4.038579e-003
22.182	8.974028e-001	1.296785e-001
22.376	8.979936e-001	5.373726e-003
22.569	8.994890e-001	1.602305e-002
22.763	8.965934e-001	-8.746946e-002
22.956	8.977953e-001	-1.327912e-001
23.149	8.986633e-001	-7.230728e-003
23.343	8.978544e-001	-7.037307e-002
23.536	8.953101e-001	4.028961e-003
23.729	8.972564e-001	-1.701463e-001
23.923	8.988054e-001	-1.677338e-001
24.116	8.968326e-001	6.760061e-002
24.310	8.978926e-001	-2.764424e-001
24.503	8.977000e-001	-3.333804e-002
24.696	8.941825e-001	2.009970e-002
24.890	8.973970e-001	-1.254656e-001
25.117	8.981049e-001	-2.691911e-002
25.383	8.952631e-001	-2.280600e-002
25.650	8.984358e-001	-6.994649e-002
25.917	8.982353e-001	2.464324e-002
26.184	8.983628e-001	6.682323e-002
26.450	8.998523e-001	-4.451910e-002
26.717	8.962604e-001	-1.109135e-001
26.984	8.977234e-001	-3.020080e-002
27.251	9.005012e-001	1.436805e-002
27.517	9.000269e-001	-1.146627e-001
27.784	9.004003e-001	5.392061e-002
28.051	8.982969e-001	2.886691e-003
28.318	8.975256e-001	-9.537347e-003
28.585	8.951873e-001	-1.942390e-001
28.851	8.972039e-001	-8.337979e-002
29.118	8.954475e-001	6.847527e-002
29.385	8.955063e-001	1.078653e-002
29.652	8.967163e-001	1.914020e-001
29.918	8.973090e-001	-1.569191e-001
30.185	8.957265e-001	-2.198510e-001
30.452	8.981194e-001	-7.726843e-002
30.719	8.954327e-001	6.896388e-002
30.985	8.986249e-001	-2.145308e-001
31.252	8.971509e-001	-2.457066e-002
31.519	8.993310e-001	1.204039e-001
31.786	8.956095e-001	2.432236e-002
32.052	8.977284e-001	-5.372950e-002
32.319	8.967826e-001	-3.363743e-002
32.586	8.991855e-001	-1.235832e-001
32.853	8.960320e-001	-1.807211e-001
33.120	8.976579e-001	-1.627899e-002
33.386	8.985712e-001	6.480103e-002
33.653	8.978826e-001	7.182399e-003
33.920	8.964004e-001	-3.036528e-003
34.187	8.972223e-001	1.076370e-001
34.498	8.954822e-001	1.191775e-001
34.866	8.961056e-001	-3.666870e-002
35.234	8.973154e-001	8.267123e-002
35.603	8.983163e-001	-4.144788e-002
35.971	8.978028e-001	2.757142e-002
36.339	8.979784e-001	-1.292651e-001
36.707	8.964880e-001	-1.065954e-001
37.075	8.958151e-001	-1.588554e-002
37.443	8.988295e-001	-6.936583e-002
37.812	8.993350e-001	4.500688e-002
38.180	8.980242e-001	-7.247217e-003
38.548	8.964962e-001	-1.624633e-001
38.916	8.980378e-001	-6.893464e-002
39.284	8.982218e-001	-3.073130e-002
39.652	8.968174e-001	-2.354416e-003
40.021	8.954140e-001	-2.303251e-002
40.389	8.964631e-001	3.761592e-002
40.757	8.989723e-001	-1.220063e-001
41.125	8.975683e-001	5.050673e-002
41.493	8.988078e-001	7.783915e-002
41.861	8.969384e-001	-4.006878e-002
42.229	8.979026e-001	-8.114441e-002
42.598	8.964680e-001	-1.437131e-002
42.966	8.977706e-001	3.036084e-002
43.334	8.964128e-001	1.779028e-004
43.702	8.969282e-001	-1.982023e-002
44.070	8.963462e-001	-2.184640e-002
44.438	8.965068e-001	-4.165598e-002
44.807	8.958228e-001	5.879334e-002
45.175	8.962011e-001	-3.212602e-002
45.543	8.972061e-001	-1.466825e-001
45.911	8.942055e-001	6.112517e-003
46.279	8.954440e-001	1.640713e-001
46.647	8.975089e-001	-3.686601e-002
47.016	8.960899e-001	-6.395681e-002
47.384	8.981951e-001	-7.291412e-002
47.815	8.965593e-001	3.080940e-003
48.326	8.986263e-001	7.703889e-002
48.836	8.973499e-001	-4.649843e-002
49.346	8.963632e-001	-1.689088e-001
49.857	8.961787e-001	-4.218968e-002
50.367	8.935428e-001	3.846269e-002
50.877	8.974732e-001	-6.744740e-002
51.387	8.993320e-001	6.068042e-002
51.898	8.979822e-001	-6.869361e-002
52.408	8.981524e-001	-4.411852e-002
52.918	8.973853e-001	-4.936013e-003
53.429	8.960529e-001	-7.675618e-002
53.939	8.948690e-001	-7.721925e-002
54.449	8.951924e-001	-1.420429e-001
54.959	8.952067e-001	-2.359341e-002
55.470	8.964918e-001	-6.389372e-002
55.980	8.956198e-001	-5.100718e-002
56.490	8.985107e-001	-1.332965e-001
57.001	8.975390e-001	-1.090694e-001
57.511	8.974209e-001	-4.901092e-002
58.021	8.957317e-001	8.823138e-003
58.531	8.972520e-001	-4.460937e-002
59.042	8.956736e-001	-1.552689e-001
59.552	8.979404e-001	-1.089511e-001
60.062	8.969953e-001	-1.025962e-001
60.573	8.959168e-001	-1.214469e-002
61.083	8.963075e-001	-7.820961e-002
61.593	8.963102e-001	-7.072114e-002
62.103	8.959376e-001	-2.852883e-002
62.614	8.977871e-001	-1.557878e-001
63.124	8.965363e-001	-2.196114e-002
63.634	8.971080e-001	-1.106237e-001
64.145	8.953781e-001	-4.070512e-002
64.655	8.951480e-001	2.744606e-002
65.165	8.969643e-001	-1.424097e-001
65.675	8.967255e-001	1.315705e-001
66.274	8.954411e-001	-3.713586e-002
66.978	8.959843e-001	-1.722363e-001
67.681	8.972425e-001	-5.450054e-002
68.385	8.971727e-001	-3.295299e-002
69.089	8.958425e-001	-8.437134e-002
69.793	8.963950e-001	-5.508556e-002
70.497	8.954864e-001	3.866941e-002
71.201	8.964687e-001	-1.405147e-001
71.905	8.975483e-001	-4.878665e-002
72.609	8.963064e-001	-1.059063e-001
73.313	8.965007e-001	4.803476e-003
74.017	8.963971e-001	3.365614e-002
74.721	8.953060e-001	2.657632e-002
75.424	8.970815e-001	-5.534948e-002
76.128	8.963535e-001	-1.105190e-001
76.832	8.977118e-001	-1.447949e-001
77.536	8.960392e-001	-1.004843e-001
78.240	8.969805e-001	-7.349707e-002
78.944	8.966754e-001	-1.229633e-001
79.648	8.969868e-001	2.554068e-002
80.352	8.968627e-001	-1.137046e-002
81.056	8.959605e-001	-6.186323e-002
81.760	8.969787e-001	1.445561e-003
82.464	8.975570e-001	-1.047927e-002
83.167	8.963566e-001	-2.959965e-002
83.871	8.964239e-001	-9.888563e-002
84.575	8.950261e-001	-1.020854e-001
85.279	8.969455e-001	-1.235063e-001
85.983	8.958603e-001	-6.406233e-003
86.687	8.964842e-001	1.938394e-002
87.391	8.962700e-001	-4.182383e-002
88.095	8.965828e-001	-4.315789e-002
88.799	8.957960e-001	-4.750366e-002
89.503	8.959159e-001	-3.207782e-002
90.207	8.950216e-001	-7.104974e-002
91.028	8.968659e-001	-3.533980e-002
92.000	8.953315e-001	-4.593856e-002
92.971	8.963804e-001	-9.745198e-002
93.943	8.968921e-001	-4.125843e-002
94.914	8.955222e-001	-7.801126e-002
95.885	8.960157e-001	4.243736e-002
96.857	8.959248e-001	-7.828165e-002
97.828	8.953141e-001	-5.771234e-002
98.800	8.966469e-001	-5.798672e-002
99.771	8.948179e-001	-1.225105e-001
100.743	8.956938e-001	-3.429573e-002
101.714	8.956377e-001	-1.300524e-002
102.686	8.957087e-001	-3.795141e-002
103.657	8.960595e-001	-1.297299e-001
104.629	8.959524e-001	-5.563017e-002
105.600	8.964093e-001	-8.632482e-002
106.571	8.954029e-001	-1.006972e-002
107.543	8.954753e-001	-1.033086e-001
108.514	8.968977e-001	-9.623609e-003
109.486	8.965139e-001	-1.251098e-002
110.457	8.950882e-001	-1.961046e-002
111.429	8.959285e-001	-1.070784e-001
112.400	8.962711e-001	-5.413545e-002
113.372	8.955509e-001	2.327094e-002
114.343	8.961999e-001	-3.765092e-002
115.315	8.971725e-001	-4.766755e-002
116.286	8.953903e-001	-3.287451e-002
117.257	8.952016e-001	-2.882177e-002
118.229	8.954876e-001	-7.142522e-002
119.200	8.960815e-001	4.043310e-002
120.172	8.977842e-001	-7.364917e-002
121.143	8.949419e-001	-7.305074e-002
122.115	8.956281e-001	-1.288932e-001
123.086	8.961712e-001	-1.070953e-001
124.058	8.953278e-001	-2.044374e-002
125.029	8.966879e-001	-3.470150e-002
126.168	8.964110e-001	5.642843e-002
127.508	8.956892e-001	-5.113229e-002
128.848	8.959914e-001	-6.123954e-002
130.188	8.959273e-001	-2.647070e-002
131.528	8.963308e-001	-2.584903e-002
132.868	8.974780e-001	-4.643225e-002
134.208	8.952906e-001	-3.111810e-002
135.548	8.962010e-001	-1.798576e-004
136.888	8.962599e-001	-4.143211e-002
138.229	8.967944e-001	-6.413205e-002
139.569	8.961878e-001	-3.567493e-002
140.909	8.962371e-001	-1.349861e-001
142.249	8.963477e-001	-7.681229e-002
143.589	8.969720e-001	-7.893159e-002
144.929	8.956485e-001	-5.113891e-002
146.269	8.954060e-001	-9.627600e-003
147.609	8.958112e-001	-6.130091e-002
148.949	8.959261e-001	-1.854703e-002
150.289	8.962415e-001	-4.306342e-002
151.629	8.952949e-001	-1.714478e-001
152.969	8.963078e-001	-1.004266e-001
154.309	8.953363e-001	-4.305427e-002
155.649	8.949413e-001	-3.106150e-002
156.989	8.960733e-001	-9.299955e-002
158.329	8.963012e-001	-3.642866e-002
159.669	8.955733e-001	-6.702038e-002
161.009	8.955190e-001	-9.477332e-002
162.350	8.954459e-001	-1.714249e-002
163.690	8.959643e-001	-4.215865e-002
165.030	8.962892e-001	-6.700947e-002
166.370	8.951548e-001	-3.310217e-002
167.710	8.961158e-001	-5.209495e-002
169.050	8.957192e-001	-3.876340e-002
170.390	8.956599e-001	-8.690805e-002
171.730	8.960095e-001	-4.049527e-002
173.294	8.940856e-001	-5.523692e-002
175.144	8.942569e-001	-8.763275e-003
176.993	8.949526e-001	-7.097970e-002
178.842	8.961385e-001	-2.056727e-002
180.692	8.955378e-001	-6.007637e-002
182.541	8.954318e-001	-2.174657e-002
184.391	8.953182e-001	-1.009715e-001
186.240	8.946218e-001	-2.881519e-002
188.089	8.962733e-001	-5.782781e-002
189.939	8.960052e-001	-1.536414e-002
191.788	8.962894e-001	-9.408426e-002
193.638	8.951355e-001	-3.091774e-002
195.487	8.947060e-001	-4.688334e-002
197.336	8.940496e-001	-1.026933e-001
199.186	8.947960e-001	-7.319315e-002
201.035	8.952134e-001	-8.199260e-002
202.885	8.958560e-001	-6.219750e-002
204.734	8.953941e-001	-2.222609e-002
206.583	8.955376e-001	-4.800189e-002
208.433	8.967468e-001	-2.332671e-002
210.282	8.957851e-001	-3.896432e-002
212.132	8.953806e-001	-1.038966e-001
213.981	8.960826e-001	-5.055439e-002
215.830	8.952683e-001	-3.654732e-002
217.680	8.948187e-001	-1.269990e-001
219.529	8.949526e-001	-1.042706e-001
221.379	8.951662e-001	-5.289801e-002
223.228	8.955888e-001	-1.045295e-001
225.077	8.960503e-001	-3.056842e-002
226.927	8.959738e-001	-5.111479e-002
228.776	8.944877e-001	-4.292981e-002
230.626	8.945741e-001	-4.519503e-002
232.475	8.950367e-001	-7.104864e-002
234.324	8.948491e-001	4.680793e-003
236.174	8.948768e-001	-8.556006e-002
238.023	8.952465e-001	-5.960508e-002
240.191	8.954079e-001	-8.702650e-002
242.755	8.951606e-001	-1.069185e-001
245.318	8.949353e-001	-9.139037e-002
247.881	8.957625e-001	-2.024376e-002
250.445	8.954136e-001	-6.686644e-002
253.008	8.955994e-001	-9.746494e-002
255.571	8.952514e-001	-4.829581e-002
258.135	8.955604e-001	3.409521e-003
260.698	8.947333e-001	-2.225761e-002
263.261	8.955316e-001	-5.037237e-002
265.825	8.955685e-001	-1.046412e-001
268.388	8.953779e-001	-1.090674e-001
270.951	8.954540e-001	-3.013916e-002
273.515	8.961525e-001	-1.343190e-001
276.078	8.948393e-001	-1.131995e-001
278.641	8.955229e-001	-4.826096e-002
281.205	8.957846e-001	-1.796527e-002
283.768	8.948285e-001	-4.970345e-002
286.331	8.956602e-001	-1.009978e-001
288.895	8.958190e-001	-8.613812e-002
291.458	8.961344e-001	-5.701902e-002
294.021	8.949098e-001	-3.864707e-002
296.584	8.947864e-001	-7.489516e-002
299.148	8.952756e-001	-7.654336e-002
301.711	8.951093e-001	-9.054517e-002
304.274	8.954253e-001	-5.789469e-002
306.838	8.952939e-001	-8.779714e-002
309.401	8.957064e-001	-1.014671e-001
311.964	8.947513e-001	-6.787720e-002
314.528	8.950784e-001	-8.860981e-002
317.091	8.957047e-001	-9.344464e-002
319.654	8.946571e-001	-1.394639e-002
322.218	8.953973e-001	-7.152632e-002
324.781	8.956705e-001	-8.902597e-002
327.344	8.950421e-001	-1.063405e-001
329.908	8.949857e-001	-5.479302e-002
332.913	8.950614e-001	-1.029762e-001
336.449	8.954291e-001	-1.490602e-001
339.985	8.956094e-001	-1.128008e-001
343.521	8.946369e-001	-1.157805e-002
347.057	8.955166e-001	-8.980907e-002
350.593	8.952244e-001	-1.399634e-001
354.128	8.950923e-001	-7.941795e-002
357.664	8.958249e-001	-5.699530e-002
361.200	8.950607e-001	-9.842627e-002
364.736	8.949358e-001	-9.902755e-002
368.272	8.948799e-001	-8.200159e-002
371.808	8.957318e-001	-5.938542e-002
375.344	8.956001e-001	-3.909160e-002
378.880	8.952605e-001	-9.495571e-002
382.416	8.952596e-001	-6.261870e-002
385.952	8.951684e-001	-6.552993e-002
389.488	8.948306e-001	-5.514315e-002
393.024	8.952470e-001	-5.042729e-002
396.560	8.956949e-001	-9.936546e-003
400.096	8.947246e-001	-1.147789e-001
403.632	8.954077e-001	-7.593781e-002
407.168	8.948161e-001	-7.365246e-002
410.704	8.946324e-001	-4.364034e-002
414.239	8.951875e-001	-7.955405e-002
417.775	8.956748e-001	-8.889493e-002
421.311	8.952074e-001	-8.513679e-002
424.847	8.956814e-001	-8.116326e-002
428.383	8.950492e-001	-8.781701e-002
431.919	8.952852e-001	-6.986913e-002
435.455	8.947572e-001	-1.317798e-001
438.991	8.950161e-001	-7.273955e-002
442.527	8.950909e-001	-4.711921e-002
446.063	8.949920e-001	-1.057818e-001
449.599	8.948682e-001	-8.319204e-002
453.135	8.944929e-001	-8.659629e-002
457.263	8.943726e-001	-4.821225e-002
462.142	8.947921e-001	-6.406036e-002
467.022	8.949854e-001	-1.140733e-001
471.902	8.951501e-001	-1.151935e-001
476.782	8.950413e-001	-1.077360e-001
481.662	8.948038e-001	-6.864660e-002
486.542	8.950339e-001	-8.526827e-002
491.422	8.950721e-001	-5.388652e-002
496.302	8.954984e-001	-6.129196e-002
501.182	8.950034e-001	-8.243048e-002
506.062	8.948222e-001	-6.162939e-002
510.941	8.948124e-001	-1.035583e-001
515.821	8.955134e-001	-6.930047e-002
520.701	8.945993e-001	-1.095379e-001
525.581	8.950273e-001	-1.007594e-001
530.461	8.948176e-001	-1.029953e-001
535.341	8.949583e-001	-1.104251e-001
540.221	8.946422e-001	-4.042996e-002
545.101	8.946152e-001	-8.762365e-002
549.981	8.950774e-001	-4.671341e-002
554.861	8.947056e-001	-4.640757e-002
559.741	8.954298e-001	-5.779274e-002
564.620	8.946380e-001	-7.125360e-002
569.500	8.944176e-001	-1.244614e-001
574.380	8.950142e-001	-8.617155e-002
579.260	8.945934e-001	-1.138414e-001
584.140	8.953184e-001	-1.132572e-001
589.020	8.948394e-001	-9.958760e-002
593.900	8.949882e-001	-1.185581e-001
598.780	8.954154e-001	-1.052426e-001
603.660	8.944998e-001	-9.868409e-002
608.540	8.947380e-001	-9.646576e-002
613.420	8.948498e-001	-1.014436e-001
618.299	8.949342e-001	-7.356212e-002
623.179	8.948097e-001	-9.058986e-002
628.059	8.955161e-001	-1.236999e-001
633.780	8.953450e-001	-1.241923e-001
640.512	8.944879e-001	-7.052631e-002
647.243	8.944970e-001	-7.420512e-002
653.975	8.942772e-001	-6.623146e-002
660.706	8.949205e-001	-6.651986e-002
667.438	8.951351e-001	-1.354789e-001
674.169	8.944950e-001	-2.369952e-002
680.901	8.950574e-001	-7.459115e-002
687.633	8.948474e-001	-1.112077e-001
694.364	8.944384e-001	-8.195858e-002
701.096	8.953223e-001	-8.773801e-002
707.827	8.950447e-001	-1.123843e-001
714.559	8.950782e-001	-8.147065e-002
721.290	8.952392e-001	-9.784510e-002
728.022	8.952531e-001	-7.043953e-002
734.753	8.952280e-001	-1.008259e-001
741.485	8.949251e-001	-1.144956e-001
