"# Channel 1"
"# Trace 4"
Frequency, Formatted Data, Formatted Data
+1.00000000000E+001, -3.76722403004E+003, -1.39246206339E+004
+6.25999375000E+003, -7.38217082708E+000, -2.50818453527E+002
+1.25099875000E+004, -1.42205447933E+000, -1.24574566451E+002
+1.87599812500E+004, -4.47423039767E-001, -8.18182787967E+001
+2.50099750000E+004, -1.03649101843E-001, -6.00486986433E+001
+3.12599687500E+004, +5.89439227317E-002, -4.66816586161E+001
+3.75099625000E+004, +1.52346317982E-001, -3.75230092664E+001
+4.37599562500E+004, +2.11738872844E-001, -3.07695989606E+001
+5.00099500000E+004, +2.51544167801E-001, -2.55292473953E+001
+5.62599437500E+004, +2.80028862596E-001, -2.12847869093E+001
+6.25099375000E+004, +3.01579484211E-001, -1.77440876370E+001
+6.87599312500E+004, +3.17833138170E-001, -1.47120105666E+001
+7.50099250000E+004, +3.27345844470E-001, -1.20658639131E+001
+8.12599187500E+004, +3.36812750536E-001, -9.71030413536E+000
+8.75099125000E+004, +3.41733545364E-001, -7.58666496662E+000
+9.37599062500E+004, +3.35631985623E-001, -5.64133502862E+000
+1.00009900000E+005, +3.38657550499E-001, -3.84922952392E+000
+1.06259893750E+005, +3.39430338316E-001, -2.18039685838E+000
+1.12509887500E+005, +3.42597222457E-001, -6.13330384463E-001
+1.18759881250E+005, +3.42648872316E-001, +8.67453482925E-001
+1.25009875000E+005, +3.43384770714E-001, +2.27466230782E+000
+1.31259868750E+005, +3.44292593013E-001, +3.61915685639E+000
+1.37509862500E+005, +3.42696350378E-001, +4.91123260160E+000
+1.43759856250E+005, +3.44316516110E-001, +6.15538668563E+000
+1.50009850000E+005, +3.43931665879E-001, +7.35800431384E+000
+1.56259843750E+005, +3.44841498213E-001, +8.52565590688E+000
+1.62509837500E+005, +3.44998912951E-001, +9.66007379471E+000
+1.68759831250E+005, +3.44129106809E-001, +1.07690654083E+001
+1.75009825000E+005, +3.45483610003E-001, +1.18486506595E+001
+1.81259818750E+005, +3.45972540382E-001, +1.29078322939E+001
+1.87509812500E+005, +3.48597603403E-001, +1.39449283373E+001
+1.93759806250E+005, +3.49708244065E-001, +1.49648014624E+001
+2.00009800000E+005, +3.50780501706E-001, +1.59679747323E+001
+2.06259793750E+005, +3.53292178633E-001, +1.69546854178E+001
+2.12509787500E+005, +3.54594158825E-001, +1.79287576479E+001
+2.18759781250E+005, +3.54946287602E-001, +1.88924012729E+001
+2.25009775000E+005, +3.57418157159E-001, +1.98403061918E+001
+2.31259768750E+005, +3.58684673987E-001, +2.07809833058E+001
+2.37509762500E+005, +3.60912048729E-001, +2.17083389462E+001
+2.43759756250E+005, +3.62706349914E-001, +2.26307839224E+001
+2.50009750000E+005, +3.64267290535E-001, +2.35446311630E+001
+2.56259743750E+005, +3.67177932339E-001, +2.44498165755E+001
+2.62509737500E+005, +3.69888221155E-001, +2.53438418434E+001
+2.68759731250E+005, +3.72038553980E-001, +2.62350309067E+001
+2.75009725000E+005, +3.74612408335E-001, +2.71197281882E+001
+2.81259718750E+005, +3.75952499759E-001, +2.80044363555E+001
+2.87509712500E+005, +3.79280530853E-001, +2.88786565637E+001
+2.93759706250E+005, +3.82114440057E-001, +2.97527084269E+001
+3.00009700000E+005, +3.84770149965E-001, +3.06223997656E+001
+3.06259693750E+005, +3.87833921912E-001, +3.14819523628E+001
+3.12509687500E+005, +3.90606610962E-001, +3.23373173128E+001
+3.18759681250E+005, +3.94141351836E-001, +3.31947854157E+001
+3.25009675000E+005, +3.97711535398E-001, +3.40427739790E+001
+3.31259668750E+005, +4.01251536768E-001, +3.48868451202E+001
+3.37509662500E+005, +4.05318304534E-001, +3.57283069865E+001
+3.43759656250E+005, +4.08171809495E-001, +3.65723148633E+001
+3.50009650000E+005, +4.12936728689E-001, +3.74079487865E+001
+3.56259643750E+005, +4.16390522858E-001, +3.82403059872E+001
+3.62509637500E+005, +4.20430357451E-001, +3.90714031312E+001
+3.68759631250E+005, +4.25271130410E-001, +3.99067380987E+001
+3.75009625000E+005, +4.28991996848E-001, +4.07323298315E+001
+3.81259618750E+005, +4.31466519354E-001, +4.15555540077E+001
+3.87509612500E+005, +4.34941136868E-001, +4.23776471256E+001
+3.93759606250E+005, +4.40406490923E-001, +4.32029819930E+001
+4.00009600000E+005, +4.44407972057E-001, +4.40214612264E+001
+4.06259593750E+005, +4.47843846153E-001, +4.48372090382E+001
+4.12509587500E+005, +4.53368646679E-001, +4.56592435463E+001
+4.18759581250E+005, +4.58591772947E-001, +4.64722266793E+001
+4.25009575000E+005, +4.61923872735E-001, +4.72838616876E+001
+4.31259568750E+005, +4.68312509295E-001, +4.81021459321E+001
+4.37509562500E+005, +4.72714225726E-001, +4.89111365104E+001
+4.43759556250E+005, +4.75746310986E-001, +4.97181309551E+001
+4.50009550000E+005, +4.83296069426E-001, +5.05364336652E+001
+4.56259543750E+005, +4.86182828474E-001, +5.13402471417E+001
+4.62509537500E+005, +4.90092697522E-001, +5.21451263257E+001
+4.68759531250E+005, +4.95608382312E-001, +5.29488897881E+001
+4.75009525000E+005, +5.02947183227E-001, +5.37600419974E+001
+4.81259518750E+005, +5.06449712485E-001, +5.45618766234E+001
+4.87509512500E+005, +5.12297014486E-001, +5.53643688237E+001
+4.93759506250E+005, +5.15360029873E-001, +5.61639696731E+001
+5.00009500000E+005, +5.22914120148E-001, +5.69727345993E+001
+5.06259493750E+005, +5.26508048366E-001, +5.77710221549E+001
+5.12509487500E+005, +5.34195061684E-001, +5.85798140716E+001
+5.18759481250E+005, +5.38285938504E-001, +5.93766187932E+001
+5.25009475000E+005, +5.42835132422E-001, +6.01780793573E+001
+5.31259468750E+005, +5.51091622187E-001, +6.09833659768E+001
+5.37509462500E+005, +5.55392523879E-001, +6.17816342490E+001
+5.43759456250E+005, +5.58702529208E-001, +6.25760504624E+001
+5.50009450000E+005, +5.62665083170E-001, +6.33731742423E+001
+5.56259443750E+005, +5.67101156971E-001, +6.41670346194E+001
+5.62509437500E+005, +5.69774446713E-001, +6.49647615857E+001
+5.68759431250E+005, +5.76037768079E-001, +6.57589429776E+001
+5.75009425000E+005, +5.86648995661E-001, +6.65670530912E+001
+5.81259418750E+005, +5.95467938700E-001, +6.73722694790E+001
+5.87509412500E+005, +6.00373842212E-001, +6.81669466372E+001
+5.93759406250E+005, +6.03292870827E-001, +6.89600519295E+001
+6.00009400000E+005, +6.08447587977E-001, +6.97541531830E+001
+6.06259393750E+005, +6.11866218093E-001, +7.05479235498E+001
+6.12509387500E+005, +6.22929722224E-001, +7.13527984104E+001
+6.18759381250E+005, +6.28024877226E-001, +7.21483978686E+001
+6.25009375000E+005, +6.31994134448E-001, +7.29461915409E+001
+6.31259368750E+005, +6.35294284865E-001, +7.37390572114E+001
+6.37509362500E+005, +6.39063598478E-001, +7.45333559379E+001
+6.43759356250E+005, +6.52234505920E-001, +7.53399060964E+001
+6.50009350000E+005, +6.57847043263E-001, +7.61353172936E+001
+6.56259343750E+005, +6.60552264284E-001, +7.69275481426E+001
+6.62509337500E+005, +6.64254105750E-001, +7.77233898189E+001
+6.68759331250E+005, +6.68265607862E-001, +7.85173375439E+001
+6.75009325000E+005, +6.73172803003E-001, +7.93119560369E+001
+6.81259318750E+005, +6.87584362674E-001, +8.01196898452E+001
+6.87509312500E+005, +6.90069084578E-001, +8.09156078680E+001
+6.93759306250E+005, +6.93684527504E-001, +8.17098389329E+001
+7.00009300000E+005, +6.98325627986E-001, +8.25062296999E+001
+7.06259293750E+005, +7.03937928196E-001, +8.32999410337E+001
+7.12509287500E+005, +7.18105339781E-001, +8.41119292625E+001
+7.18759281250E+005, +7.21561494691E-001, +8.49061312576E+001
+7.25009275000E+005, +7.25220593905E-001, +8.57040663323E+001
+7.31259268750E+005, +7.28996457273E-001, +8.64994650883E+001
+7.37509262500E+005, +5.37838252387E-001, +8.71519781176E+001
+7.43759256250E+005, +5.42274068762E-001, +8.79510245841E+001
+7.50009250000E+005, +5.58032272404E-001, +8.87677416732E+001
+7.56259243750E+005, +5.65411920222E-001, +8.95709065695E+001
+7.62509237500E+005, +5.71597166148E-001, +9.03753714185E+001
+7.68759231250E+005, +5.78595726249E-001, +9.11808690043E+001
+7.75009225000E+005, +5.94976453101E-001, +9.20011401497E+001
+7.81259218750E+005, +6.02354595811E-001, +9.28076978523E+001
+7.87509212500E+005, +6.06090226351E-001, +9.36018316903E+001
+7.93759206250E+005, +6.13382794621E-001, +9.44057228120E+001
+8.00009200000E+005, +6.20182987470E-001, +9.52110205638E+001
+8.06259193750E+005, +6.26055424123E-001, +9.60153416141E+001
+8.12509187500E+005, +6.31748666902E-001, +9.68190203896E+001
+8.18759181250E+005, +6.57207843409E-001, +9.76401224019E+001
+8.25009175000E+005, +6.63522479627E-001, +9.84481362489E+001
+8.31259168750E+005, +6.68580103162E-001, +9.92523718475E+001
+8.37509162500E+005, +6.76023913271E-001, +1.00061460158E+002
+8.43759156250E+005, +6.84746682776E-001, +1.00867211477E+002
+8.50009150000E+005, +6.89312141855E-001, +1.01678903130E+002
+8.56259143750E+005, +6.97321973963E-001, +1.02486848935E+002
+8.62509137500E+005, +7.05543827772E-001, +1.03298436482E+002
+8.68759131250E+005, +7.11601494743E-001, +1.04108704647E+002
+8.75009125000E+005, +7.20814725104E-001, +1.04917094073E+002
+8.81259118750E+005, +7.43312601336E-001, +1.05747878794E+002
+8.87509112500E+005, +7.49590740051E-001, +1.06558383106E+002
+8.93759106250E+005, +7.57407631053E-001, +1.07370877303E+002
+9.00009100000E+005, +7.66463389507E-001, +1.08184517211E+002
+9.06259093750E+005, +7.75884766650E-001, +1.08998359063E+002
+9.12509087500E+005, +7.87243888475E-001, +1.09817336539E+002
+9.18759081250E+005, +7.96340281459E-001, +1.10631092530E+002
+9.25009075000E+005, +8.07925351257E-001, +1.11440149171E+002
+9.31259068750E+005, +8.16951418455E-001, +1.12257539558E+002
+9.37509062500E+005, +8.23921713144E-001, +1.13070556166E+002
+9.43759056250E+005, +8.34191522998E-001, +1.13884595267E+002
+9.50009050000E+005, +8.41435833339E-001, +1.14695811994E+002
+9.56259043750E+005, +8.52255766587E-001, +1.15513807489E+002
+9.62509037500E+005, +8.57526467622E-001, +1.16326862912E+002
+9.68759031250E+005, +8.63198842281E-001, +1.17146903508E+002
+9.75009025000E+005, +8.96175536119E-001, +1.17983376629E+002
+9.81259018750E+005, +9.03457671509E-001, +1.18800405966E+002
+9.87509012500E+005, +9.10891346590E-001, +1.19625259020E+002
+9.93759006250E+005, +9.18482103765E-001, +1.20444270162E+002
+1.00000900000E+006, +9.23991039282E-001, +1.21265938730E+002
+1.00625899375E+006, +9.35746297659E-001, +1.22086987016E+002
+1.01250898750E+006, +9.42352925566E-001, +1.22909944033E+002
+1.01875898125E+006, +9.51791147476E-001, +1.23733603132E+002
+1.02500897500E+006, +9.55930555625E-001, +1.24558453038E+002
+1.03125896875E+006, +9.64956774390E-001, +1.25382936945E+002
+1.03750896250E+006, +9.70835651626E-001, +1.26205574657E+002
+1.04375895625E+006, +9.93424060263E-001, +1.27042158526E+002
+1.05000895000E+006, +9.98180028133E-001, +1.27866226823E+002
+1.05625894375E+006, +1.00253979352E+000, +1.28696547999E+002
+1.06250893750E+006, +1.01082575916E+000, +1.29520847812E+002
+1.06875893125E+006, +1.04751384402E+000, +1.30374615518E+002
+1.07500892500E+006, +1.05013101403E+000, +1.31200869342E+002
+1.08125891875E+006, +1.05607630732E+000, +1.32032004881E+002
+1.08750891250E+006, +1.06362265826E+000, +1.32868490687E+002
+1.09375890625E+006, +1.06780370103E+000, +1.33700647406E+002
+1.10000890000E+006, +1.07358192692E+000, +1.34536807822E+002
+1.10625889375E+006, +1.08444353185E+000, +1.35374582771E+002
+1.11250888750E+006, +1.08538171810E+000, +1.36211295948E+002
+1.11875888125E+006, +1.12906849878E+000, +1.37067659761E+002
+1.12500887500E+006, +1.13617677407E+000, +1.37907918809E+002
+1.13125886875E+006, +1.14351447989E+000, +1.38743599189E+002
+1.13750886250E+006, +1.15048594836E+000, +1.39587545295E+002
+1.14375885625E+006, +1.13090592098E+000, +1.40396877295E+002
+1.15000885000E+006, +1.13460137352E+000, +1.41232900873E+002
+1.15625884375E+006, +1.13775875634E+000, +1.42072291782E+002
+1.16250883750E+006, +1.18286766281E+000, +1.42930839962E+002
+1.16875883125E+006, +1.19021087865E+000, +1.43771905645E+002
+1.17500882500E+006, +1.19011047457E+000, +1.44618702814E+002
+1.18125881875E+006, +1.19842072857E+000, +1.45458754548E+002
+1.18750881250E+006, +1.20058903985E+000, +1.46305744100E+002
+1.19375880625E+006, +1.20468060309E+000, +1.47153393499E+002
+1.20000880000E+006, +1.25014677374E+000, +1.48020470566E+002
+1.20625879375E+006, +1.25781107604E+000, +1.48873884152E+002
+1.21250878750E+006, +1.25755001884E+000, +1.49721039778E+002
+1.21875878125E+006, +1.26227273899E+000, +1.50577198357E+002
+1.22500877500E+006, +1.26570477661E+000, +1.51426576736E+002
+1.23125876875E+006, +1.27193758565E+000, +1.52278662617E+002
+1.23750876250E+006, +1.31654157362E+000, +1.53157182142E+002
+1.24375875625E+006, +1.32471670123E+000, +1.54012542768E+002
+1.25000875000E+006, +1.32252122474E+000, +1.54878769143E+002
+1.25625874375E+006, +1.32207228544E+000, +1.55731995028E+002
+1.26250873750E+006, +1.33020932084E+000, +1.56592987244E+002
+1.26875873125E+006, +1.37182760329E+000, +1.57480928520E+002
+1.27500872500E+006, +1.38265437500E+000, +1.58334030675E+002
+1.28125871875E+006, +1.39124244546E+000, +1.59192763615E+002
+1.28750871250E+006, +1.39362824422E+000, +1.60054387152E+002
+1.29375870625E+006, +1.40132639691E+000, +1.60916392249E+002
+1.30000870000E+006, +1.40844145958E+000, +1.61784089963E+002
+1.30625869375E+006, +1.45905881955E+000, +1.62676154006E+002
+1.31250868750E+006, +1.45693481836E+000, +1.63540867273E+002
+1.31875868125E+006, +1.46519520517E+000, +1.64413785309E+002
+1.32500867500E+006, +1.46957369357E+000, +1.65281628000E+002
+1.33125866875E+006, +1.47392937736E+000, +1.66152784101E+002
+1.33750866250E+006, +1.48276158390E+000, +1.67018179881E+002
+1.34375865625E+006, +1.53361462223E+000, +1.67917953289E+002
+1.35000865000E+006, +1.54144386169E+000, +1.68793724545E+002
+1.35625864375E+006, +1.54648143684E+000, +1.69665620174E+002
+1.36250863750E+006, +1.54936314031E+000, +1.70547233272E+002
+1.36875863125E+006, +1.55875551965E+000, +1.71423880339E+002
+1.37500862500E+006, +1.56042597835E+000, +1.72303218953E+002
+1.38125861875E+006, +1.61323167539E+000, +1.73203620298E+002
+1.38750861250E+006, +1.61567948875E+000, +1.74088222760E+002
+1.39375860625E+006, +1.62087308359E+000, +1.74976003318E+002
+1.40000860000E+006, +1.62846105667E+000, +1.75855115978E+002
+1.40625859375E+006, +1.63445031498E+000, +1.76744225218E+002
+1.41250858750E+006, +1.68637470923E+000, +1.77653393442E+002
+1.41875858125E+006, +1.68507128341E+000, +1.78552312931E+002
+1.42500857500E+006, +1.68812671582E+000, +1.79437589257E+002
+1.43125856875E+006, +1.68567539117E+000, +1.80328965096E+002
+1.43750856250E+006, +1.69627366608E+000, +1.81226075416E+002
+1.44375855625E+006, +1.70314833796E+000, +1.82111638420E+002
+1.45000855000E+006, +1.76215028701E+000, +1.83033505646E+002
+1.45625854375E+006, +1.77275499340E+000, +1.83932164472E+002
+1.46250853750E+006, +1.77851079102E+000, +1.84832220220E+002
+1.46875853125E+006, +1.75241669665E+000, +1.85725722983E+002
+1.47500852500E+006, +1.75637018053E+000, +1.86625576352E+002
+1.48125851875E+006, +1.75665635016E+000, +1.87536128567E+002
+1.48750851250E+006, +1.75399062753E+000, +1.88438550520E+002
+1.49375850625E+006, +1.82797781393E+000, +1.89373838681E+002
+1.50000850000E+006, +1.82930568321E+000, +1.90280805063E+002
+1.50625849375E+006, +1.83002959457E+000, +1.91190659822E+002
+1.51250848750E+006, +1.84093488324E+000, +1.92097412530E+002
+1.51875848125E+006, +1.84856506980E+000, +1.93011542228E+002
+1.52500847500E+006, +1.85094123899E+000, +1.93920935860E+002
+1.53125846875E+006, +1.86130170834E+000, +1.94843328786E+002
+1.53750846250E+006, +1.86295123805E+000, +1.95750485882E+002
+1.54375845625E+006, +1.93833095499E+000, +1.96709551543E+002
+1.55000845000E+006, +1.94495071238E+000, +1.97630845248E+002
+1.55625844375E+006, +1.94754890439E+000, +1.98551048121E+002
+1.56250843750E+006, +1.98617229740E+000, +1.99469605116E+002
+1.56875843125E+006, +1.97936783775E+000, +2.00384649248E+002
+1.57500842500E+006, +1.97771456387E+000, +2.01314684643E+002
+1.58125841875E+006, +1.97256001418E+000, +2.02247502371E+002
+1.58750841250E+006, +2.04622650033E+000, +2.03207494228E+002
+1.59375840625E+006, +2.04842144412E+000, +2.04140007809E+002
+1.60000840000E+006, +2.05013057225E+000, +2.05069184111E+002
+1.60625839375E+006, +2.06477701046E+000, +2.06006827502E+002
+1.61250838750E+006, +2.06141370688E+000, +2.06951167729E+002
+1.61875838125E+006, +2.06488929281E+000, +2.07890671602E+002
+1.62500837500E+006, +2.06632859261E+000, +2.08828192295E+002
+1.63125836875E+006, +2.07683405453E+000, +2.09770241865E+002
+1.63750836250E+006, +2.16580887901E+000, +2.10751577579E+002
+1.64375835625E+006, +2.17106411451E+000, +2.11706639482E+002
+1.65000835000E+006, +2.17207537323E+000, +2.12656385927E+002
+1.65625834375E+006, +2.18035532848E+000, +2.13598432086E+002
+1.66250833750E+006, +2.18937197004E+000, +2.14555970882E+002
+1.66875833125E+006, +2.20183878019E+000, +2.15508943399E+002
+1.67500832500E+006, +2.20807735859E+000, +2.16465192526E+002
+1.68125831875E+006, +2.21386828388E+000, +2.17419614281E+002
+1.68750831250E+006, +2.30696987145E+000, +2.18402566748E+002
+1.69375830625E+006, +2.31110707091E+000, +2.19362477769E+002
+1.70000830000E+006, +2.32021558549E+000, +2.20326616087E+002
+1.70625829375E+006, +2.32611145903E+000, +2.21295836292E+002
+1.71250828750E+006, +2.49013508342E+000, +2.22319052533E+002
+1.71875828125E+006, +2.49619974689E+000, +2.23281129883E+002
+1.72500827500E+006, +2.50162432907E+000, +2.24259012239E+002
+1.73125826875E+006, +2.50024274816E+000, +2.25227828526E+002
+1.73750826250E+006, +2.60099512005E+000, +2.26229223215E+002
+1.74375825625E+006, +2.60534639597E+000, +2.27203479465E+002
+1.75000825000E+006, +2.62758359373E+000, +2.28182613003E+002
+1.75625824375E+006, +2.62607070480E+000, +2.29157938733E+002
+1.76250823750E+006, +2.62924512782E+000, +2.30148413050E+002
+1.76875823125E+006, +2.64215904173E+000, +2.31121778890E+002
+1.77500822500E+006, +2.73987593645E+000, +2.32140686361E+002
+1.78125821875E+006, +2.74807866487E+000, +2.33126662503E+002
+1.78750821250E+006, +2.75438553240E+000, +2.34110083470E+002
+1.79375820625E+006, +2.76817169566E+000, +2.35106598105E+002
+1.80000820000E+006, +2.76949598599E+000, +2.36096967952E+002
+1.80625819375E+006, +2.78278171854E+000, +2.37093216194E+002
+1.81250818750E+006, +2.79189750176E+000, +2.38081824558E+002
+1.81875818125E+006, +2.88948497350E+000, +2.39116973741E+002
+1.82500817500E+006, +2.90506892944E+000, +2.40125495472E+002
+1.83125816875E+006, +2.90189765969E+000, +2.41123463564E+002
+1.83750816250E+006, +2.92016957904E+000, +2.42128781050E+002
+1.84375815625E+006, +2.91881944994E+000, +2.43143743100E+002
+1.85000815000E+006, +2.93148601340E+000, +2.44139139180E+002
+1.85625814375E+006, +3.05271267096E+000, +2.45194716327E+002
+1.86250813750E+006, +3.04623888234E+000, +2.46208260023E+002
+1.86875813125E+006, +3.06006851966E+000, +2.47218291535E+002
+1.87500812500E+006, +3.10992956602E+000, +2.48244627232E+002
+1.88125811875E+006, +3.11974829419E+000, +2.49250987858E+002
+1.88750811250E+006, +3.12664655134E+000, +2.50282751155E+002
+1.89375810625E+006, +3.12566914128E+000, +2.51307005869E+002
+1.90000810000E+006, +3.25487794458E+000, +2.52368529227E+002
+1.90625809375E+006, +3.26686740523E+000, +2.53401150874E+002
+1.91250808750E+006, +3.26279954721E+000, +2.54442990544E+002
+1.91875808125E+006, +3.27734278260E+000, +2.55459819759E+002
+1.92500807500E+006, +3.29362912459E+000, +2.56491314082E+002
+1.93125806875E+006, +3.29941901414E+000, +2.57529969850E+002
+1.93750806250E+006, +3.30865350084E+000, +2.58568105276E+002
+1.94375805625E+006, +3.31606399181E+000, +2.59598309345E+002
+1.95000805000E+006, +3.44603814705E+000, +2.60686615767E+002
+1.95625804375E+006, +3.45145524112E+000, +2.61734573998E+002
+1.96250803750E+006, +3.45236707758E+000, +2.62781214849E+002
+1.96875803125E+006, +3.46428803405E+000, +2.63834914860E+002
+1.97500802500E+006, +3.63998902643E+000, +2.64940050488E+002
+1.98125801875E+006, +3.63794859386E+000, +2.65983741256E+002
+1.98750801250E+006, +3.63079744152E+000, +2.67053194334E+002
+1.99375800625E+006, +3.77706952450E+000, +2.68148515168E+002
+2.00000800000E+006, +3.77795040962E+000, +2.69210322205E+002
