"# Channel 1"
"# Trace 4"
Frequency, Formatted Data, Formatted Data
+1.00000000000E+001, +1.00178959784E+000, -6.70378507060E-003
+6.25999375000E+003, +9.34156732544E-001, -3.87506985665E-001
+1.25099875000E+004, +7.28290590573E-001, -6.96778785461E-001
+1.87599812500E+004, +4.58423352189E-001, -8.94219269282E-001
+2.50099750000E+004, +1.81422097565E-001, -9.85132918433E-001
+3.12599687500E+004, -6.84768688655E-002, -9.96390824955E-001
+3.75099625000E+004, -2.78341936254E-001, -9.56430552930E-001
+4.37599562500E+004, -4.47864127792E-001, -8.87246678998E-001
+5.00099500000E+004, -5.81749269005E-001, -8.03574677645E-001
+5.62599437500E+004, -6.86613439576E-001, -7.13985422679E-001
+6.25099375000E+004, -7.68006473384E-001, -6.23671505511E-001
+6.87599312500E+004, -8.30852820562E-001, -5.35307750000E-001
+7.50099250000E+004, -8.78989025359E-001, -4.50483241144E-001
+8.12599187500E+004, -9.15342084881E-001, -3.69482157316E-001
+8.75099125000E+004, -9.42310694676E-001, -2.92712615634E-001
+9.37599062500E+004, -9.62019957620E-001, -2.19892181287E-001
+1.00009900000E+005, -9.74996726502E-001, -1.51021423280E-001
+1.06259893750E+005, -9.82794427405E-001, -8.58825519333E-002
+1.12509887500E+005, -9.86094577051E-001, -2.41968475552E-002
+1.18759881250E+005, -9.85797735398E-001, +3.42172531748E-002
+1.25009875000E+005, -9.82311410704E-001, +8.95666643954E-002
+1.31259868750E+005, -9.76110132821E-001, +1.42058854496E-001
+1.37509862500E+005, -9.67658904648E-001, +1.91956952287E-001
+1.43759856250E+005, -9.57065520218E-001, +2.39282125167E-001
+1.50009850000E+005, -9.44793577108E-001, +2.84240802345E-001
+1.56259843750E+005, -9.30926131302E-001, +3.26993020281E-001
+1.62509837500E+005, -9.15762029143E-001, +3.67591676913E-001
+1.68759831250E+005, -8.99417133756E-001, +4.06302536442E-001
+1.75009825000E+005, -8.82033176417E-001, +4.42930567710E-001
+1.81259818750E+005, -8.63748212294E-001, +4.77832647746E-001
+1.87509812500E+005, -8.44647804973E-001, +5.10907605622E-001
+1.93759806250E+005, -8.24900595367E-001, +5.42391923424E-001
+2.00009800000E+005, -8.04572786317E-001, +5.72292472278E-001
+2.06259793750E+005, -7.83733665627E-001, +6.00609053775E-001
+2.12509787500E+005, -7.62483187275E-001, +6.27532292753E-001
+2.18759781250E+005, -7.40853588072E-001, +6.53141487936E-001
+2.25009775000E+005, -7.18972263002E-001, +6.77257438550E-001
+2.31259768750E+005, -6.96809001179E-001, +7.00204140655E-001
+2.37509762500E+005, -6.74525578261E-001, +7.21813155245E-001
+2.43759756250E+005, -6.52019183626E-001, +7.42344720724E-001
+2.50009750000E+005, -6.29432184740E-001, +7.61738070635E-001
+2.56259743750E+005, -6.06789909530E-001, +7.79986494701E-001
+2.62509737500E+005, -5.84239747992E-001, +7.97117544490E-001
+2.68759731250E+005, -5.61623885581E-001, +8.13333191965E-001
+2.75009725000E+005, -5.39057812294E-001, +8.28568748024E-001
+2.81259718750E+005, -5.16441278469E-001, +8.43003083066E-001
+2.87509712500E+005, -4.94025882711E-001, +8.56412793304E-001
+2.93759706250E+005, -4.71620293478E-001, +8.69052241923E-001
+3.00009700000E+005, -4.49355702089E-001, +8.80876296148E-001
+3.06259693750E+005, -4.27398333195E-001, +8.91828102751E-001
+3.12509687500E+005, -4.05628921023E-001, +9.02038524642E-001
+3.18759681250E+005, -3.83898112779E-001, +9.11578204502E-001
+3.25009675000E+005, -3.62527560568E-001, +9.20363571510E-001
+3.31259668750E+005, -3.41394183434E-001, +9.28489069136E-001
+3.37509662500E+005, -3.20476061618E-001, +9.35980084735E-001
+3.43759656250E+005, -2.99676108612E-001, +9.42945601045E-001
+3.50009650000E+005, -2.79250303185E-001, +9.49243050136E-001
+3.56259643750E+005, -2.59108652019E-001, +9.55020770527E-001
+3.62509637500E+005, -2.39198301592E-001, +9.60269796544E-001
+3.68759631250E+005, -2.19399104065E-001, +9.65036768129E-001
+3.75009625000E+005, -2.00059989184E-001, +9.69308276081E-001
+3.81259618750E+005, -1.81010334820E-001, +9.73153115297E-001
+3.87509612500E+005, -1.62216389260E-001, +9.76545127593E-001
+3.93759606250E+005, -1.43583503076E-001, +9.79496814718E-001
+4.00009600000E+005, -1.25356391586E-001, +9.82067879268E-001
+4.06259593750E+005, -1.07439169086E-001, +9.84273612820E-001
+4.12509587500E+005, -8.96328823869E-002, +9.86094972198E-001
+4.18759581250E+005, -7.22781185498E-002, +9.87565249794E-001
+4.25009575000E+005, -5.52098915017E-002, +9.88753395273E-001
+4.31259568750E+005, -3.82574219186E-002, +9.89579550832E-001
+4.37509562500E+005, -2.17574382915E-002, +9.90145236123E-001
+4.43759556250E+005, -5.55434703711E-003, +9.90461486204E-001
+4.50009550000E+005, +1.06153381854E-002, +9.90426066126E-001
+4.56259543750E+005, +2.62422106875E-002, +9.90230648439E-001
+4.62509537500E+005, +4.16361520430E-002, +9.89778414887E-001
+4.68759531250E+005, +5.67547812216E-002, +9.89071896195E-001
+4.75009525000E+005, +7.17547014295E-002, +9.88110774090E-001
+4.81259518750E+005, +8.63356582986E-002, +9.87027228618E-001
+4.87509512500E+005, +1.00677485227E-001, +9.85708952913E-001
+4.93759506250E+005, +1.14727468079E-001, +9.84263392478E-001
+5.00009500000E+005, +1.28683524476E-001, +9.82549862305E-001
+5.06259493750E+005, +1.42225571596E-001, +9.80762522907E-001
+5.12509487500E+005, +1.55694795728E-001, +9.78728202272E-001
+5.18759481250E+005, +1.68737340288E-001, +9.76637120673E-001
+5.25009475000E+005, +1.81622351555E-001, +9.74389247128E-001
+5.31259468750E+005, +1.94325796546E-001, +9.71941915212E-001
+5.37509462500E+005, +2.06702714921E-001, +9.69455487747E-001
+5.43759456250E+005, +2.18801975441E-001, +9.66881754486E-001
+5.50009450000E+005, +2.30721932053E-001, +9.64181634030E-001
+5.56259443750E+005, +2.42376877033E-001, +9.61384537527E-001
+5.62509437500E+005, +2.53882470487E-001, +9.58504322988E-001
+5.68759431250E+005, +2.65115405959E-001, +9.55496639263E-001
+5.75009425000E+005, +2.76318530904E-001, +9.52293613649E-001
+5.81259418750E+005, +2.87279770358E-001, +9.49049022192E-001
+5.87509412500E+005, +2.97912335351E-001, +9.45826458121E-001
+5.93759406250E+005, +3.08337425295E-001, +9.42568840157E-001
+6.00009400000E+005, +3.18575157890E-001, +9.39214994426E-001
+6.06259393750E+005, +3.28627806973E-001, +9.35826273290E-001
+6.12509387500E+005, +3.38599787800E-001, +9.32240711247E-001
+6.18759381250E+005, +3.48298256302E-001, +9.28719554239E-001
+6.25009375000E+005, +3.57848735738E-001, +9.25155920122E-001
+6.31259368750E+005, +3.67168110379E-001, +9.21579060081E-001
+6.37509362500E+005, +3.76330566637E-001, +9.17950936712E-001
+6.43759356250E+005, +3.85418963276E-001, +9.14125073594E-001
+6.50009350000E+005, +3.94248065551E-001, +9.10404180641E-001
+6.56259343750E+005, +4.02893366744E-001, +9.06700523840E-001
+6.62509337500E+005, +4.11414050340E-001, +9.02942242314E-001
+6.68759331250E+005, +4.19756739698E-001, +8.99165491066E-001
+6.75009325000E+005, +4.27949020585E-001, +8.95355068975E-001
+6.81259318750E+005, +4.36077528476E-001, +8.91368055576E-001
+6.87509312500E+005, +4.43993889205E-001, +8.87542140813E-001
+6.93759306250E+005, +4.51743675927E-001, +8.83698558341E-001
+7.00009300000E+005, +4.59367689266E-001, +8.79822618600E-001
+7.06259293750E+005, +4.66822640225E-001, +8.75940695033E-001
+7.12509287500E+005, +4.74268121558E-001, +8.71884355189E-001
+7.18759281250E+005, +4.81466241134E-001, +8.68007492167E-001
+7.25009275000E+005, +4.88566053899E-001, +8.64106027101E-001
+7.31259268750E+005, +4.95514397345E-001, +8.60212853041E-001
+7.37509262500E+005, +5.02067716023E-001, +8.58679061429E-001
+7.43759256250E+005, +5.08816864388E-001, +8.54731229084E-001
+7.50009250000E+005, +5.15533993966E-001, +8.50605756200E-001
+7.56259243750E+005, +5.22057384883E-001, +8.46621271311E-001
+7.62509237500E+005, +5.28478494394E-001, +8.42645547874E-001
+7.68759231250E+005, +5.34787342222E-001, +8.38664929283E-001
+7.75009225000E+005, +5.41049578060E-001, +8.34548507593E-001
+7.81259218750E+005, +5.47136597625E-001, +8.30578145062E-001
+7.87509212500E+005, +5.53039727714E-001, +8.26704848994E-001
+7.93759206250E+005, +5.58892286908E-001, +8.22768410113E-001
+8.00009200000E+005, +5.64652737759E-001, +8.18840523509E-001
+8.06259193750E+005, +5.70308105557E-001, +8.14936373930E-001
+8.12509187500E+005, +5.75859579152E-001, +8.11049610874E-001
+8.18759181250E+005, +5.81336608489E-001, +8.06960085891E-001
+8.25009175000E+005, +5.86718058933E-001, +8.03079510702E-001
+8.31259168750E+005, +5.91985829594E-001, +7.99240359167E-001
+8.37509162500E+005, +5.97181295179E-001, +7.95378655839E-001
+8.43759156250E+005, +6.02258508928E-001, +7.91541394974E-001
+8.50009150000E+005, +6.07303302373E-001, +7.87719694558E-001
+8.56259143750E+005, +6.12221175228E-001, +7.83911817964E-001
+8.62509137500E+005, +6.17074443571E-001, +7.80104270305E-001
+8.68759131250E+005, +6.21845570686E-001, +7.76334539473E-001
+8.75009125000E+005, +6.26509010114E-001, +7.72574130238E-001
+8.81259118750E+005, +6.31158849399E-001, +7.68656346789E-001
+8.87509112500E+005, +6.35686821322E-001, +7.64944558136E-001
+8.93759106250E+005, +6.40141394001E-001, +7.61235374981E-001
+9.00009100000E+005, +6.44520522889E-001, +7.57535054483E-001
+9.06259093750E+005, +6.48824454665E-001, +7.53853100943E-001
+9.12509087500E+005, +6.53073438325E-001, +7.50159844495E-001
+9.18759081250E+005, +6.57233260881E-001, +7.46523442859E-001
+9.25009075000E+005, +6.61288448927E-001, +7.42916887797E-001
+9.31259068750E+005, +6.65328257517E-001, +7.39308937712E-001
+9.37509062500E+005, +6.69287805951E-001, +7.35752190143E-001
+9.43759056250E+005, +6.73172221502E-001, +7.32197132698E-001
+9.50009050000E+005, +6.76991756216E-001, +7.28690922949E-001
+9.56259043750E+005, +6.80764608435E-001, +7.25161450735E-001
+9.62509037500E+005, +6.84475871236E-001, +7.21701085789E-001
+9.68759031250E+005, +6.88155989397E-001, +7.18231669481E-001
+9.75009025000E+005, +6.91734458804E-001, +7.14596117795E-001
+9.81259018750E+005, +6.95274609167E-001, +7.11179589660E-001
+9.87509012500E+005, +6.98789933042E-001, +7.07752925281E-001
+9.93759006250E+005, +7.02222636264E-001, +7.04372474671E-001
+1.00000900000E+006, +7.05619221792E-001, +7.01012640308E-001
+1.00625899375E+006, +7.08933314291E-001, +6.97652577255E-001
+1.01250898750E+006, +7.12222250568E-001, +6.94328884420E-001
+1.01875898125E+006, +7.15449925779E-001, +6.91014097087E-001
+1.02500897500E+006, +7.18651404799E-001, +6.87738314275E-001
+1.03125896875E+006, +7.21781304143E-001, +6.84467905149E-001
+1.03750896250E+006, +7.24866756849E-001, +6.81239548368E-001
+1.04375895625E+006, +7.27890517547E-001, +6.77918312865E-001
+1.05000895000E+006, +7.30888642996E-001, +6.74734937530E-001
+1.05625894375E+006, +7.33863605221E-001, +6.71551562795E-001
+1.06250893750E+006, +7.36755741638E-001, +6.68399678252E-001
+1.06875893125E+006, +7.39598526881E-001, +6.65061613810E-001
+1.07500892500E+006, +7.42428418831E-001, +6.61969219194E-001
+1.08125891875E+006, +7.45218649024E-001, +6.58869521684E-001
+1.08750891250E+006, +7.47977451704E-001, +6.55767332359E-001
+1.09375890625E+006, +7.50691549618E-001, +6.52714603020E-001
+1.10000890000E+006, +7.53370940137E-001, +6.49664370076E-001
+1.10625889375E+006, +7.55995928835E-001, +6.46614645179E-001
+1.11250888750E+006, +7.58612586143E-001, +6.43622331108E-001
+1.11875888125E+006, +7.61098376397E-001, +6.40451457884E-001
+1.12500887500E+006, +7.63625069818E-001, +6.37473834310E-001
+1.13125886875E+006, +7.66098912831E-001, +6.34533606422E-001
+1.13750886250E+006, +7.68560885826E-001, +6.31587701152E-001
+1.14375885625E+006, +7.70976881972E-001, +6.28859004555E-001
+1.15000885000E+006, +7.73354398968E-001, +6.25991302250E-001
+1.15625884375E+006, +7.75707713028E-001, +6.23134842321E-001
+1.16250883750E+006, +7.77938021610E-001, +6.20119710838E-001
+1.16875883125E+006, +7.80212727422E-001, +6.17290581007E-001
+1.17500882500E+006, +7.82493656939E-001, +6.14483635524E-001
+1.18125881875E+006, +7.84695383035E-001, +6.11697411492E-001
+1.18750881250E+006, +7.86902801948E-001, +6.08925496979E-001
+1.19375880625E+006, +7.89073178835E-001, +6.06167193093E-001
+1.20000880000E+006, +7.91128074113E-001, +6.03263067602E-001
+1.20625879375E+006, +7.93238547567E-001, +6.00520776647E-001
+1.21250878750E+006, +7.95327781347E-001, +5.97838511190E-001
+1.21875878125E+006, +7.97392838114E-001, +5.95135899634E-001
+1.22500877500E+006, +7.99415672334E-001, +5.92477919062E-001
+1.23125876875E+006, +8.01407054572E-001, +5.89824952186E-001
+1.23750876250E+006, +8.03313381731E-001, +5.87022571970E-001
+1.24375875625E+006, +8.05249519350E-001, +5.84397122050E-001
+1.25000875000E+006, +8.07213538478E-001, +5.81782210919E-001
+1.25625874375E+006, +8.09115186927E-001, +5.79221988449E-001
+1.26250873750E+006, +8.10981300078E-001, +5.76639044676E-001
+1.26875873125E+006, +8.12780160112E-001, +5.73924573031E-001
+1.27500872500E+006, +8.14568940674E-001, +5.71399967413E-001
+1.28125871875E+006, +8.16350943125E-001, +5.68882936237E-001
+1.28750871250E+006, +8.18131737641E-001, +5.66389536382E-001
+1.29375870625E+006, +8.19873145512E-001, +5.63903027474E-001
+1.30000870000E+006, +8.21603272868E-001, +5.61420485274E-001
+1.30625869375E+006, +8.23235001705E-001, +5.58802487747E-001
+1.31250868750E+006, +8.24937299419E-001, +5.56385761825E-001
+1.31875868125E+006, +8.26603013097E-001, +5.53944366951E-001
+1.32500867500E+006, +8.28246590310E-001, +5.51543001640E-001
+1.33125866875E+006, +8.29873754749E-001, +5.49150796122E-001
+1.33750866250E+006, +8.31455755795E-001, +5.46784050242E-001
+1.34375865625E+006, +8.32965901916E-001, +5.44266574066E-001
+1.35000865000E+006, +8.34526436668E-001, +5.41911459514E-001
+1.35625864375E+006, +8.36066140706E-001, +5.39589495333E-001
+1.36250863750E+006, +8.37607555961E-001, +5.37263320977E-001
+1.36875863125E+006, +8.39102395992E-001, +5.34956504250E-001
+1.37500862500E+006, +8.40601532211E-001, +5.32673432675E-001
+1.38125861875E+006, +8.41984605281E-001, +5.30267870072E-001
+1.38750861250E+006, +8.43450743574E-001, +5.28005871384E-001
+1.39375860625E+006, +8.44895338103E-001, +5.25748446581E-001
+1.40000860000E+006, +8.46300499802E-001, +5.23526033507E-001
+1.40625859375E+006, +8.47706821370E-001, +5.21298081004E-001
+1.41250858750E+006, +8.49012449339E-001, +5.18965605408E-001
+1.41875858125E+006, +8.50414853395E-001, +5.16759931700E-001
+1.42500857500E+006, +8.51766986662E-001, +5.14597379544E-001
+1.43125856875E+006, +8.53123737927E-001, +5.12444582302E-001
+1.43750856250E+006, +8.54439818312E-001, +5.10274698607E-001
+1.44375855625E+006, +8.55730386815E-001, +5.08154270599E-001
+1.45000855000E+006, +8.56933902097E-001, +5.05888748690E-001
+1.45625854375E+006, +8.58201353754E-001, +5.03765579531E-001
+1.46250853750E+006, +8.59465417303E-001, +5.01662147881E-001
+1.46875853125E+006, +8.60777144265E-001, +4.99633972430E-001
+1.47500852500E+006, +8.62011815965E-001, +4.97564343975E-001
+1.48125851875E+006, +8.63253268645E-001, +4.95490906889E-001
+1.48750851250E+006, +8.64474224746E-001, +4.93455293734E-001
+1.49375850625E+006, +8.65551560428E-001, +4.91260091176E-001
+1.50000850000E+006, +8.66738941565E-001, +4.89241002717E-001
+1.50625849375E+006, +8.67916058817E-001, +4.87231361126E-001
+1.51250848750E+006, +8.69051837917E-001, +4.85230506902E-001
+1.51875848125E+006, +8.70189483042E-001, +4.83232815447E-001
+1.52500847500E+006, +8.71317975527E-001, +4.81266839481E-001
+1.53125846875E+006, +8.72430960366E-001, +4.79277910764E-001
+1.53750846250E+006, +8.73529730969E-001, +4.77346853997E-001
+1.54375845625E+006, +8.74521568290E-001, +4.75232946000E-001
+1.55000845000E+006, +8.75599516328E-001, +4.73296680433E-001
+1.55625844375E+006, +8.76670860539E-001, +4.71381815318E-001
+1.56250843750E+006, +8.77652780331E-001, +4.69443132971E-001
+1.56875843125E+006, +8.78711184408E-001, +4.67578152276E-001
+1.57500842500E+006, +8.79762724536E-001, +4.65690525171E-001
+1.58125841875E+006, +8.80811093732E-001, +4.63815109290E-001
+1.58750841250E+006, +8.81718754475E-001, +4.61813221314E-001
+1.59375840625E+006, +8.82726760347E-001, +4.59959387707E-001
+1.60000840000E+006, +8.83719564039E-001, +4.58126307628E-001
+1.60625839375E+006, +8.84683740109E-001, +4.56276550553E-001
+1.61250838750E+006, +8.85677744814E-001, +4.54446441684E-001
+1.61875838125E+006, +8.86641191159E-001, +4.52632075514E-001
+1.62500837500E+006, +8.87594564608E-001, +4.50836932651E-001
+1.63125836875E+006, +8.88523558171E-001, +4.49037284796E-001
+1.63750836250E+006, +8.89332675873E-001, +4.47099616539E-001
+1.64375835625E+006, +8.90262105897E-001, +4.45308930895E-001
+1.65000835000E+006, +8.91182727955E-001, +4.43545472053E-001
+1.65625834375E+006, +8.92071339815E-001, +4.41802138901E-001
+1.66250833750E+006, +8.92962432583E-001, +4.40042643378E-001
+1.66875833125E+006, +8.93832102149E-001, +4.38301255729E-001
+1.67500832500E+006, +8.94705399634E-001, +4.36572597449E-001
+1.68125831875E+006, +8.95567202024E-001, +4.34860304369E-001
+1.68750831250E+006, +8.96289791551E-001, +4.33031693077E-001
+1.69375830625E+006, +8.97139475138E-001, +4.31337451294E-001
+1.70000830000E+006, +8.97973931168E-001, +4.29643843148E-001
+1.70625829375E+006, +8.98808269351E-001, +4.27956674695E-001
+1.71250828750E+006, +8.99407524139E-001, +4.26053845923E-001
+1.71875828125E+006, +9.00216904622E-001, +4.24405621485E-001
+1.72500827500E+006, +9.01030944399E-001, +4.22743161472E-001
+1.73125826875E+006, +9.01839073811E-001, +4.21113714800E-001
+1.73750826250E+006, +9.02494193975E-001, +4.19358278408E-001
+1.74375825625E+006, +9.03278982080E-001, +4.17739893649E-001
+1.75000825000E+006, +9.04029004414E-001, +4.16110926058E-001
+1.75625824375E+006, +9.04805817383E-001, +4.14518932838E-001
+1.76250823750E+006, +9.05577661780E-001, +4.12910184159E-001
+1.76875823125E+006, +9.06311462686E-001, +4.11333079794E-001
+1.77500822500E+006, +9.06936407007E-001, +4.09630208052E-001
+1.78125821875E+006, +9.07670735482E-001, +4.08060612505E-001
+1.78750821250E+006, +9.08397506722E-001, +4.06507764823E-001
+1.79375820625E+006, +9.09113775176E-001, +4.04940145666E-001
+1.80000820000E+006, +9.09836419454E-001, +4.03402526192E-001
+1.80625819375E+006, +9.10536468105E-001, +4.01858254123E-001
+1.81250818750E+006, +9.11229273423E-001, +4.00339778470E-001
+1.81875818125E+006, +9.11812974336E-001, +3.98699565907E-001
+1.82500817500E+006, +9.12494593011E-001, +3.97169489329E-001
+1.83125816875E+006, +9.13188959340E-001, +3.95679167016E-001
+1.83750816250E+006, +9.13848529933E-001, +3.94173915141E-001
+1.84375815625E+006, +9.14535798264E-001, +3.92678561750E-001
+1.85000815000E+006, +9.15181596111E-001, +3.91213126095E-001
+1.85625814375E+006, +9.15702423778E-001, +3.89599687712E-001
+1.86250813750E+006, +9.16373604213E-001, +3.88142681416E-001
+1.86875813125E+006, +9.17005791677E-001, +3.86687898480E-001
+1.87500812500E+006, +9.17590105707E-001, +3.85197526266E-001
+1.88125811875E+006, +9.18211580873E-001, +3.83771477035E-001
+1.88750811250E+006, +9.18845883431E-001, +3.82321808000E-001
+1.89375810625E+006, +9.19479170088E-001, +3.80897765664E-001
+1.90000810000E+006, +9.19948722737E-001, +3.79353476812E-001
+1.90625809375E+006, +9.20555909475E-001, +3.77931441248E-001
+1.91250808750E+006, +9.21183414050E-001, +3.76516593272E-001
+1.91875808125E+006, +9.21763942545E-001, +3.75134496061E-001
+1.92500807500E+006, +9.22344196013E-001, +3.73741468502E-001
+1.93125806875E+006, +9.22935971577E-001, +3.72354845201E-001
+1.93750806250E+006, +9.23516203707E-001, +3.70976736293E-001
+1.94375805625E+006, +9.24087832999E-001, +3.69619749407E-001
+1.95000805000E+006, +9.24526159776E-001, +3.68128689592E-001
+1.95625804375E+006, +9.25098201682E-001, +3.66770000666E-001
+1.96250803750E+006, +9.25668846103E-001, +3.65424994065E-001
+1.96875803125E+006, +9.26222870666E-001, +3.64074475731E-001
+1.97500802500E+006, +9.26591436206E-001, +3.62581517089E-001
+1.98125801875E+006, +9.27146485321E-001, +3.61271280985E-001
+1.98750801250E+006, +9.27715131640E-001, +3.59940666902E-001
+1.99375800625E+006, +9.28101292107E-001, +3.58508411380E-001
+2.00000800000E+006, +9.28644533426E-001, +3.57202682533E-001
