!Keysight Technologies,E5061B,MY49912438,B.06.30
!Date: Thu Nov 06 22:20:38 2025
!Data & Calibration Information:
!Freq	S11:SOLT1(ON)
# Hz S dB R 50
10.000	1.572483e-002	-3.834067e-001
6259.994	9.795163e-002	-2.252966e+001
12509.987	6.854321e-002	-4.373326e+001
18759.981	4.226795e-002	-6.285796e+001
25009.975	1.474462e-002	-7.956532e+001
31259.969	-1.094167e-002	-9.393147e+001
37509.962	-3.386055e-002	-1.062261e+002
43759.956	-5.335838e-002	-1.167837e+002
50009.950	-6.932316e-002	-1.259027e+002
56259.944	-8.236618e-002	-1.338804e+002
62509.938	-9.305999e-002	-1.409211e+002
68759.931	-1.016287e-001	-1.472068e+002
75009.925	-1.074741e-001	-1.528648e+002
81259.919	-1.127690e-001	-1.580183e+002
87509.912	-1.160600e-001	-1.627435e+002
93759.906	-1.151463e-001	-1.671249e+002
100009.900	-1.169702e-001	-1.711952e+002
106259.894	-1.177081e-001	-1.750058e+002
112509.888	-1.190144e-001	-1.785944e+002
118759.881	-1.190145e-001	1.780120e+002
125009.875	-1.190595e-001	1.747902e+002
131259.869	-1.189979e-001	1.717196e+002
137509.862	-1.179289e-001	1.687798e+002
143759.856	-1.178436e-001	1.659629e+002
150009.850	-1.169628e-001	1.632561e+002
156259.844	-1.164268e-001	1.606459e+002
162509.837	-1.155532e-001	1.581292e+002
168759.831	-1.142636e-001	1.556894e+002
175009.825	-1.136524e-001	1.533356e+002
181259.819	-1.126940e-001	1.510483e+002
187509.813	-1.123754e-001	1.488312e+002
193759.806	-1.115132e-001	1.466741e+002
200009.800	-1.105951e-001	1.445758e+002
206259.794	-1.100888e-001	1.425355e+002
212509.787	-1.091638e-001	1.405452e+002
218759.781	-1.079150e-001	1.386004e+002
225009.775	-1.072876e-001	1.367113e+002
231259.769	-1.062645e-001	1.348608e+002
237509.762	-1.055063e-001	1.330604e+002
243759.756	-1.045911e-001	1.312936e+002
250009.750	-1.035899e-001	1.295673e+002
256259.744	-1.029532e-001	1.278811e+002
262509.737	-1.022438e-001	1.262392e+002
268759.731	-1.013554e-001	1.246259e+002
275009.725	-1.005677e-001	1.230476e+002
281259.719	-9.942865e-002	1.214925e+002
287509.712	-9.881259e-002	1.199787e+002
293759.706	-9.804379e-002	1.184880e+002
300009.700	-9.721721e-002	1.170272e+002
306259.694	-9.649289e-002	1.156055e+002
312509.688	-9.568647e-002	1.142125e+002
318759.681	-9.504604e-002	1.128377e+002
325009.675	-9.441240e-002	1.114993e+002
331259.669	-9.376176e-002	1.101879e+002
337509.662	-9.322179e-002	1.089010e+002
343759.656	-9.238524e-002	1.076307e+002
350009.650	-9.198189e-002	1.063929e+002
356259.644	-9.127723e-002	1.051796e+002
362509.637	-9.069208e-002	1.039874e+002
368759.631	-9.025742e-002	1.028084e+002
375009.625	-8.958967e-002	1.016618e+002
381259.619	-8.866232e-002	1.005368e+002
387509.612	-8.794069e-002	9.943143e+001
393759.606	-8.760527e-002	9.833954e+001
400009.600	-8.697910e-002	9.727420e+001
406259.594	-8.624287e-002	9.622950e+001
412509.587	-8.589013e-002	9.519373e+001
418759.581	-8.548305e-002	9.418591e+001
425009.575	-8.472058e-002	9.319596e+001
431259.569	-8.449956e-002	9.221397e+001
437509.563	-8.392544e-002	9.125881e+001
443759.556	-8.311157e-002	9.032130e+001
450009.550	-8.305990e-002	8.938593e+001
456259.544	-8.222370e-002	8.848195e+001
462509.537	-8.156212e-002	8.759121e+001
468759.531	-8.116634e-002	8.671586e+001
475009.525	-8.104546e-002	8.584658e+001
481259.519	-8.031563e-002	8.500104e+001
487509.512	-7.995509e-002	8.416820e+001
493759.506	-7.916456e-002	8.335151e+001
500009.500	-7.904575e-002	8.253850e+001
506259.494	-7.834012e-002	8.174875e+001
512509.487	-7.822284e-002	8.096120e+001
518759.481	-7.759236e-002	8.019756e+001
525009.475	-7.702326e-002	7.944146e+001
531259.469	-7.696792e-002	7.869362e+001
537509.463	-7.636520e-002	7.796390e+001
543759.456	-7.563739e-002	7.724893e+001
550009.450	-7.500018e-002	7.654257e+001
556259.444	-7.443487e-002	7.584991e+001
562509.438	-7.363940e-002	7.516454e+001
568759.431	-7.331625e-002	7.449261e+001
575009.425	-7.351479e-002	7.381933e+001
581259.419	-7.347656e-002	7.315879e+001
587509.412	-7.296538e-002	7.251684e+001
593759.406	-7.222109e-002	7.188581e+001
600009.400	-7.174885e-002	7.126342e+001
606259.394	-7.107728e-002	7.065060e+001
612509.387	-7.127369e-002	7.003844e+001
618759.381	-7.079194e-002	6.944242e+001
625009.375	-7.018498e-002	6.885361e+001
631259.369	-6.951772e-002	6.827707e+001
637509.362	-6.890774e-002	6.770794e+001
643759.356	-6.928806e-002	6.713844e+001
650009.350	-6.886939e-002	6.658511e+001
656259.344	-6.815643e-002	6.604198e+001
662509.337	-6.755071e-002	6.550423e+001
668759.331	-6.698576e-002	6.497546e+001
675009.325	-6.651491e-002	6.445380e+001
681259.319	-6.695788e-002	6.393107e+001
687509.313	-6.624784e-002	6.342344e+001
693759.306	-6.565758e-002	6.292404e+001
700009.300	-6.516809e-002	6.243031e+001
706259.294	-6.477590e-002	6.194512e+001
712509.287	-6.514135e-002	6.145568e+001
718759.281	-6.454990e-002	6.098375e+001
725009.275	-6.398013e-002	6.051616e+001
731259.269	-6.343076e-002	6.005647e+001
737509.262	-4.627338e-002	5.968527e+001
743759.256	-4.601725e-002	5.923489e+001
750009.250	-4.669598e-002	5.878084e+001
756259.244	-4.666947e-002	5.834051e+001
762509.237	-4.653976e-002	5.790547e+001
768759.231	-4.647248e-002	5.747576e+001
775009.225	-4.713321e-002	5.704409e+001
781259.219	-4.707765e-002	5.662543e+001
787509.212	-4.674692e-002	5.621871e+001
793759.206	-4.668284e-002	5.581241e+001
800009.200	-4.657716e-002	5.541079e+001
806259.194	-4.640109e-002	5.501493e+001
812509.188	-4.621191e-002	5.462457e+001
818759.181	-4.743626e-002	5.423090e+001
825009.175	-4.726964e-002	5.384869e+001
831259.169	-4.701679e-002	5.347318e+001
837509.162	-4.692753e-002	5.310027e+001
843759.156	-4.692584e-002	5.273366e+001
850009.150	-4.663379e-002	5.236908e+001
856259.144	-4.657721e-002	5.201080e+001
862509.137	-4.652877e-002	5.165546e+001
868759.131	-4.633699e-002	5.130520e+001
875009.125	-4.634974e-002	5.096012e+001
881259.119	-4.718495e-002	5.060991e+001
887509.112	-4.699248e-002	5.027263e+001
893759.106	-4.689419e-002	4.993870e+001
900009.100	-4.686889e-002	4.960844e+001
906259.094	-4.686183e-002	4.928216e+001
912509.087	-4.696264e-002	4.895785e+001
918759.081	-4.692707e-002	4.863957e+001
925009.075	-4.703637e-002	4.832694e+001
931259.069	-4.698597e-002	4.801492e+001
937509.063	-4.681889e-002	4.770832e+001
943759.056	-4.683633e-002	4.740498e+001
950009.050	-4.668348e-002	4.710631e+001
956259.044	-4.672175e-002	4.680871e+001
962509.037	-4.645795e-002	4.651642e+001
968759.031	-4.621336e-002	4.622509e+001
975009.025	-4.740403e-002	4.593133e+001
981259.019	-4.723272e-002	4.564791e+001
987509.012	-4.706421e-002	4.536510e+001
993759.006	-4.690774e-002	4.508757e+001
1000009.000	-4.664437e-002	4.481236e+001
1006258.994	-4.669549e-002	4.454050e+001
1012508.987	-4.648666e-002	4.427115e+001
1018758.981	-4.641667e-002	4.400465e+001
1025008.975	-4.608855e-002	4.374082e+001
1031258.969	-4.599755e-002	4.348007e+001
1037508.962	-4.575802e-002	4.322286e+001
1043758.956	-4.629040e-002	4.296417e+001
1050008.950	-4.599368e-002	4.271229e+001
1056258.944	-4.567834e-002	4.246133e+001
1062508.938	-4.554729e-002	4.221495e+001
1068758.931	-4.666314e-002	4.196250e+001
1075008.925	-4.626687e-002	4.172106e+001
1081258.919	-4.601810e-002	4.148084e+001
1087508.912	-4.583735e-002	4.124172e+001
1093758.906	-4.551656e-002	4.100645e+001
1100008.900	-4.526460e-002	4.077262e+001
1106258.894	-4.522609e-002	4.054087e+001
1112508.888	-4.477666e-002	4.031195e+001
1118758.881	-4.606670e-002	4.008005e+001
1125008.875	-4.585897e-002	3.985511e+001
1131258.869	-4.566452e-002	3.963379e+001
1137508.863	-4.545203e-002	3.941267e+001
1143758.856	-4.422276e-002	3.920293e+001
1150008.850	-4.390190e-002	3.898842e+001
1156258.844	-4.356257e-002	3.877531e+001
1162508.837	-4.480623e-002	3.855949e+001
1168758.831	-4.461518e-002	3.835042e+001
1175008.825	-4.414615e-002	3.814216e+001
1181258.819	-4.399652e-002	3.793766e+001
1187508.813	-4.362050e-002	3.773362e+001
1193758.806	-4.331841e-002	3.753152e+001
1200008.800	-4.448181e-002	3.732680e+001
1206258.794	-4.429473e-002	3.712752e+001
1212508.787	-4.383597e-002	3.693175e+001
1218758.781	-4.355121e-002	3.673590e+001
1225008.775	-4.322913e-002	3.654358e+001
1231258.769	-4.300437e-002	3.635257e+001
1237508.763	-4.405215e-002	3.615753e+001
1243758.756	-4.388151e-002	3.596968e+001
1250008.750	-4.336626e-002	3.578139e+001
1256258.744	-4.292211e-002	3.559777e+001
1262508.737	-4.275650e-002	3.541430e+001
1268758.731	-4.364365e-002	3.522688e+001
1275008.725	-4.355820e-002	3.504871e+001
1281258.719	-4.339952e-002	3.487113e+001
1287508.712	-4.304865e-002	3.469471e+001
1293758.706	-4.286464e-002	3.451992e+001
1300008.700	-4.266158e-002	3.434570e+001
1306258.694	-4.375295e-002	3.416821e+001
1312508.688	-4.326789e-002	3.399802e+001
1318758.681	-4.309139e-002	3.382784e+001
1325008.675	-4.280544e-002	3.366030e+001
1331258.669	-4.252059e-002	3.349373e+001
1337508.662	-4.236961e-002	3.332982e+001
1343758.656	-4.339232e-002	3.316092e+001
1350008.650	-4.319885e-002	3.299824e+001
1356258.644	-4.293124e-002	3.283783e+001
1362508.638	-4.260283e-002	3.267717e+001
1368758.631	-4.245811e-002	3.251891e+001
1375008.625	-4.210451e-002	3.236167e+001
1381258.619	-4.311250e-002	3.220204e+001
1387508.612	-4.277360e-002	3.204684e+001
1393758.606	-4.250956e-002	3.189254e+001
1400008.600	-4.231448e-002	3.174116e+001
1406258.594	-4.207547e-002	3.158947e+001
1412508.587	-4.300132e-002	3.143569e+001
1418758.581	-4.256794e-002	3.128522e+001
1425008.575	-4.225563e-002	3.113839e+001
1431258.569	-4.180790e-002	3.099191e+001
1437508.563	-4.168465e-002	3.084581e+001
1443758.556	-4.147599e-002	3.070291e+001
1450008.550	-4.251141e-002	3.055537e+001
1456258.544	-4.237903e-002	3.041300e+001
1462508.537	-4.213174e-002	3.027172e+001
1468758.531	-4.114216e-002	3.013282e+001
1475008.525	-4.086487e-002	2.999410e+001
1481258.519	-4.050190e-002	2.985500e+001
1487508.513	-4.007948e-002	2.971839e+001
1493758.506	-4.138513e-002	2.957789e+001
1500008.500	-4.104679e-002	2.944307e+001
1506258.494	-4.069812e-002	2.930902e+001
1512508.487	-4.057950e-002	2.917658e+001
1518758.481	-4.038685e-002	2.904425e+001
1525008.475	-4.008398e-002	2.891378e+001
1531258.469	-3.995112e-002	2.878259e+001
1537508.462	-3.963944e-002	2.865473e+001
1543758.456	-4.086627e-002	2.852056e+001
1550008.450	-4.064737e-002	2.839300e+001
1556258.444	-4.034773e-002	2.826671e+001
1562508.438	-4.079205e-002	2.814165e+001
1568758.431	-4.030363e-002	2.801825e+001
1575008.425	-3.992035e-002	2.789390e+001
1581258.419	-3.947102e-002	2.777027e+001
1587508.412	-4.058094e-002	2.764396e+001
1593758.406	-4.027515e-002	2.752251e+001
1600008.400	-3.996477e-002	2.740253e+001
1606258.394	-3.990504e-002	2.728247e+001
1612508.388	-3.949732e-002	2.716263e+001
1618758.381	-3.922665e-002	2.704440e+001
1625008.375	-3.892142e-002	2.692743e+001
1631258.369	-3.878757e-002	2.681088e+001
1637508.362	-4.009323e-002	2.669033e+001
1643758.356	-3.984784e-002	2.657421e+001
1650008.350	-3.952974e-002	2.645973e+001
1656258.344	-3.934933e-002	2.634711e+001
1662508.337	-3.917829e-002	2.623360e+001
1668758.331	-3.907143e-002	2.612157e+001
1675008.325	-3.885423e-002	2.601012e+001
1681258.319	-3.863201e-002	2.589981e+001
1687508.313	-3.991281e-002	2.578696e+001
1693758.306	-3.965248e-002	2.567787e+001
1700008.300	-3.947814e-002	2.556921e+001
1706258.294	-3.924934e-002	2.546089e+001
1712508.287	-4.164912e-002	2.534715e+001
1718758.281	-4.140869e-002	2.524145e+001
1725008.275	-4.115468e-002	2.513490e+001
1731258.269	-4.079548e-002	2.503022e+001
1737508.263	-4.208165e-002	2.492269e+001
1743758.256	-4.180801e-002	2.481915e+001
1750008.250	-4.182026e-002	2.471590e+001
1756258.244	-4.145734e-002	2.461395e+001
1762508.237	-4.116705e-002	2.451125e+001
1768758.231	-4.103706e-002	2.441111e+001
1775008.225	-4.219822e-002	2.430696e+001
1781258.219	-4.198302e-002	2.420721e+001
1787508.212	-4.174199e-002	2.410851e+001
1793758.206	-4.161139e-002	2.400929e+001
1800008.200	-4.129776e-002	2.391150e+001
1806258.194	-4.116269e-002	2.381390e+001
1812508.188	-4.096974e-002	2.371782e+001
1818758.181	-4.205048e-002	2.361785e+001
1825008.175	-4.193760e-002	2.352141e+001
1831258.169	-4.156009e-002	2.342679e+001
1837508.162	-4.148935e-002	2.333218e+001
1843758.156	-4.113874e-002	2.323746e+001
1850008.150	-4.099456e-002	2.314528e+001
1856258.144	-4.233727e-002	2.304807e+001
1862508.138	-4.191419e-002	2.295576e+001
1868758.131	-4.177462e-002	2.286444e+001
1875008.125	-4.211848e-002	2.277230e+001
1881258.119	-4.192414e-002	2.268275e+001
1887508.112	-4.168442e-002	2.259167e+001
1893758.106	-4.134536e-002	2.250197e+001
1900008.100	-4.270625e-002	2.240947e+001
1906258.094	-4.252800e-002	2.232045e+001
1912508.087	-4.214089e-002	2.223138e+001
1918758.081	-4.200482e-002	2.214507e+001
1925008.075	-4.188710e-002	2.205820e+001
1931258.069	-4.163524e-002	2.197142e+001
1937508.063	-4.142926e-002	2.188534e+001
1943758.056	-4.120493e-002	2.180059e+001
1950008.050	-4.247539e-002	2.171150e+001
1956258.044	-4.221417e-002	2.162664e+001
1962508.037	-4.190141e-002	2.154255e+001
1968758.031	-4.172254e-002	2.145852e+001
1975008.025	-4.348554e-002	2.137074e+001
1981258.019	-4.313244e-002	2.128884e+001
1987508.013	-4.271530e-002	2.120557e+001
1993758.006	-4.408549e-002	2.112063e+001
2000008.000	-4.376024e-002	2.103922e+001
2006257.994	-4.352058e-002	2.095770e+001
2012507.987	-4.345227e-002	2.087629e+001
2018757.981	-4.317224e-002	2.079725e+001
2025007.975	-4.282861e-002	2.071670e+001
2031257.969	-4.408609e-002	2.063390e+001
2037507.962	-4.396900e-002	2.055459e+001
2043757.956	-4.361254e-002	2.047644e+001
2050007.950	-4.354775e-002	2.039929e+001
2056257.944	-4.328806e-002	2.032028e+001
2062507.937	-4.304866e-002	2.024205e+001
2068757.931	-4.440158e-002	2.016252e+001
2075007.925	-4.431445e-002	2.008609e+001
2081257.919	-4.403378e-002	2.000934e+001
2087507.912	-4.450638e-002	1.993286e+001
2093757.906	-4.419138e-002	1.985727e+001
2100007.900	-4.392909e-002	1.978212e+001
2106257.894	-4.511970e-002	1.970505e+001
2112507.887	-4.498179e-002	1.963086e+001
2118757.881	-4.464273e-002	1.955759e+001
2125007.875	-4.454170e-002	1.948378e+001
2131257.869	-4.419457e-002	1.941021e+001
2137507.862	-4.396663e-002	1.933755e+001
2143757.856	-4.389215e-002	1.926438e+001
2150007.850	-4.525897e-002	1.918958e+001
2156257.844	-4.518630e-002	1.911871e+001
2162507.837	-4.479707e-002	1.904680e+001
2168757.831	-4.464312e-002	1.897576e+001
2175007.825	-4.447940e-002	1.890455e+001
2181257.819	-4.425348e-002	1.883453e+001
2187507.813	-4.552199e-002	1.876135e+001
2193757.806	-4.537553e-002	1.869208e+001
2200007.800	-4.508632e-002	1.862317e+001
2206257.794	-4.500369e-002	1.855346e+001
2212507.788	-4.381861e-002	1.848633e+001
2218757.781	-4.335529e-002	1.841827e+001
2225007.775	-4.319472e-002	1.834976e+001
2231257.769	-4.445554e-002	1.827980e+001
2237507.762	-4.430821e-002	1.821272e+001
2243757.756	-4.402093e-002	1.814509e+001
2250007.750	-4.385702e-002	1.807930e+001
2256257.744	-4.371447e-002	1.801279e+001
2262507.737	-4.504187e-002	1.794241e+001
2268757.731	-4.488842e-002	1.787645e+001
2275007.725	-4.461702e-002	1.781128e+001
2281257.719	-4.458183e-002	1.774498e+001
2287507.712	-4.444737e-002	1.768004e+001
2293757.706	-4.569978e-002	1.761341e+001
2300007.700	-4.570095e-002	1.754755e+001
2306257.694	-4.556304e-002	1.748483e+001
2312507.688	-4.542150e-002	1.742050e+001
2318757.681	-4.517608e-002	1.735615e+001
2325007.675	-4.506249e-002	1.729297e+001
2331257.669	-4.643209e-002	1.722731e+001
2337507.663	-4.627584e-002	1.716451e+001
2343757.656	-4.622811e-002	1.710182e+001
2350007.650	-4.535912e-002	1.704118e+001
2356257.644	-4.506365e-002	1.697989e+001
2362507.637	-4.490299e-002	1.691874e+001
2368757.631	-4.618695e-002	1.685469e+001
2375007.625	-4.597329e-002	1.679321e+001
2381257.619	-4.583674e-002	1.673282e+001
2387507.612	-4.562699e-002	1.667170e+001
2393757.606	-4.549036e-002	1.661214e+001
2400007.600	-4.540348e-002	1.655214e+001
2406257.594	-4.536111e-002	1.649254e+001
2412507.587	-4.668045e-002	1.643013e+001
2418757.581	-4.643434e-002	1.636991e+001
2425007.575	-4.634932e-002	1.631150e+001
2431257.569	-4.623676e-002	1.625321e+001
2437507.563	-4.608842e-002	1.619415e+001
2443757.556	-4.617025e-002	1.613598e+001
2450007.550	-4.736136e-002	1.607508e+001
2456257.544	-4.732381e-002	1.601788e+001
2462507.537	-4.714903e-002	1.595969e+001
2468757.531	-4.702742e-002	1.590221e+001
2475007.525	-4.877829e-002	1.584285e+001
2481257.519	-4.845528e-002	1.578563e+001
2487507.512	-4.830733e-002	1.572955e+001
2493757.506	-4.829500e-002	1.567331e+001
2500007.500	-4.790908e-002	1.561679e+001
2506257.494	-4.802117e-002	1.556025e+001
2512507.487	-4.785411e-002	1.550580e+001
2518757.481	-4.771454e-002	1.544977e+001
2525007.475	-4.778821e-002	1.539473e+001
2531257.469	-4.812176e-002	1.533804e+001
2537507.462	-4.791104e-002	1.528424e+001
2543757.456	-4.767057e-002	1.522974e+001
2550007.450	-4.750808e-002	1.517564e+001
2556257.444	-4.747875e-002	1.512207e+001
2562507.438	-4.894478e-002	1.506534e+001
2568757.431	-4.872461e-002	1.501127e+001
2575007.425	-4.855974e-002	1.495785e+001
2581257.419	-4.861083e-002	1.490493e+001
2587507.412	-4.843207e-002	1.485142e+001
2593757.406	-4.844899e-002	1.479844e+001
2600007.400	-4.831323e-002	1.474556e+001
2606257.394	-4.804101e-002	1.469325e+001
2612507.387	-4.939402e-002	1.463843e+001
2618757.381	-4.917600e-002	1.458674e+001
2625007.375	-4.924565e-002	1.453522e+001
2631257.369	-4.939422e-002	1.448315e+001
2637507.362	-4.910083e-002	1.443150e+001
2643757.356	-4.889783e-002	1.438034e+001
2650007.350	-4.898949e-002	1.432910e+001
2656257.344	-4.882256e-002	1.427784e+001
2662507.337	-4.880998e-002	1.422745e+001
2668757.331	-5.012884e-002	1.417453e+001
2675007.325	-4.992873e-002	1.412441e+001
2681257.319	-4.993023e-002	1.407316e+001
2687507.313	-4.979839e-002	1.402285e+001
2693757.306	-4.970042e-002	1.397388e+001
2700007.300	-4.960065e-002	1.392418e+001
2706257.294	-4.964157e-002	1.387380e+001
2712507.287	-4.961106e-002	1.382404e+001
2718757.281	-4.958778e-002	1.377537e+001
2725007.275	-5.079108e-002	1.372388e+001
2731257.269	-5.066735e-002	1.367521e+001
2737507.262	-5.065896e-002	1.362640e+001
2743757.256	-5.060179e-002	1.357859e+001
2750007.250	-5.052294e-002	1.353032e+001
2756257.244	-5.059779e-002	1.348143e+001
2762507.237	-5.037522e-002	1.343327e+001
2768757.231	-5.042358e-002	1.338553e+001
2775007.225	-5.049230e-002	1.333735e+001
2781257.219	-5.174141e-002	1.328731e+001
2787507.212	-5.161998e-002	1.324052e+001
2793757.206	-5.166271e-002	1.319378e+001
2800007.200	-5.163015e-002	1.314689e+001
2806257.194	-5.145938e-002	1.310010e+001
2812507.188	-5.146878e-002	1.305227e+001
2818757.181	-5.150355e-002	1.300688e+001
2825007.175	-5.153021e-002	1.296037e+001
2831257.169	-5.158002e-002	1.291342e+001
2837507.162	-5.273785e-002	1.286624e+001
2843757.156	-5.278122e-002	1.281977e+001
2850007.150	-5.267480e-002	1.277470e+001
2856257.144	-5.276094e-002	1.272920e+001
2862507.137	-5.569958e-002	1.267928e+001
2868757.131	-5.791446e-002	1.263049e+001
2875007.125	-5.922764e-002	1.258335e+001
2881257.119	-6.013612e-002	1.253715e+001
2887507.112	-6.046833e-002	1.249297e+001
2893757.106	-6.188231e-002	1.244663e+001
2900007.100	-6.175064e-002	1.240119e+001
2906257.094	-6.185906e-002	1.235742e+001
2912507.087	-6.181429e-002	1.231333e+001
2918757.081	-6.170452e-002	1.226980e+001
2925007.075	-6.167396e-002	1.222569e+001
2931257.069	-6.182564e-002	1.218143e+001
2937507.063	-6.169850e-002	1.213743e+001
2943757.056	-6.179820e-002	1.209423e+001
2950007.050	-6.186978e-002	1.205095e+001
2956257.044	-6.194112e-002	1.200779e+001
2962507.037	-6.294058e-002	1.196384e+001
2968757.031	-6.291723e-002	1.192027e+001
2975007.025	-6.301757e-002	1.187775e+001
2981257.019	-6.292931e-002	1.183522e+001
2987507.012	-6.300865e-002	1.179284e+001
2993757.006	-6.298102e-002	1.175149e+001
3000007.000	-6.302261e-002	1.170797e+001
3006256.994	-6.306898e-002	1.166647e+001
3012506.987	-6.305791e-002	1.162399e+001
3018756.981	-6.313671e-002	1.158155e+001
3025006.975	-6.321748e-002	1.154026e+001
3031256.969	-6.424041e-002	1.149759e+001
3037506.962	-6.430822e-002	1.145647e+001
3043756.956	-6.439022e-002	1.141443e+001
