!Keysight Technologies,E5061B,MY49912438,B.06.30
!Date: Thu Nov 06 21:33:09 2025
!Data & Calibration Information:
!Freq	S11:SOLT1(ON)
# Hz S dB R 50
10.000	1.496469e-002	-3.822225e-001
6259.994	9.912405e-002	-2.258980e+001
12509.987	7.015587e-002	-4.417201e+001
18759.981	4.356462e-002	-6.415954e+001
25009.975	1.470367e-002	-8.219925e+001
31259.969	-1.334893e-002	-9.825544e+001
37509.962	-3.874529e-002	-1.124657e+002
43759.956	-6.027908e-002	-1.250555e+002
50009.950	-7.737282e-002	-1.362456e+002
56259.944	-9.090478e-002	-1.462799e+002
62509.938	-1.009202e-001	-1.553348e+002
68759.931	-1.079025e-001	-1.635677e+002
75009.925	-1.115236e-001	-1.711027e+002
81259.919	-1.138050e-001	-1.780458e+002
87509.912	-1.137574e-001	1.755219e+002
93759.906	-1.099806e-001	1.695104e+002
100009.900	-1.081427e-001	1.639108e+002
106259.894	-1.052331e-001	1.586548e+002
112509.888	-1.027374e-001	1.537134e+002
118759.881	-9.898220e-002	1.490485e+002
125009.875	-9.534080e-002	1.446367e+002
131259.869	-9.156206e-002	1.404584e+002
137509.862	-8.735330e-002	1.364850e+002
143759.856	-8.384860e-002	1.327158e+002
150009.850	-7.985645e-002	1.291244e+002
156259.844	-7.654284e-002	1.256995e+002
162509.837	-7.282985e-002	1.224345e+002
168759.831	-6.919905e-002	1.193067e+002
175009.825	-6.592316e-002	1.163292e+002
181259.819	-6.263103e-002	1.134717e+002
187509.813	-5.974206e-002	1.107433e+002
193759.806	-5.698821e-002	1.081227e+002
200009.800	-5.411588e-002	1.056099e+002
206259.794	-5.137365e-002	1.032011e+002
212509.787	-4.870544e-002	1.008867e+002
218759.781	-4.641594e-002	9.865376e+001
225009.775	-4.385422e-002	9.651802e+001
231259.769	-4.175144e-002	9.445301e+001
237509.762	-3.910418e-002	9.247689e+001
243759.756	-3.745972e-002	9.056155e+001
250009.750	-3.552752e-002	8.871724e+001
256259.744	-3.378677e-002	8.694069e+001
262509.737	-3.162528e-002	8.523588e+001
268759.731	-2.969225e-002	8.358101e+001
275009.725	-2.818664e-002	8.198455e+001
281259.719	-2.713639e-002	8.042982e+001
287509.712	-2.577901e-002	7.893853e+001
293759.706	-2.515923e-002	7.748679e+001
300009.700	-2.455276e-002	7.608205e+001
306259.694	-2.315396e-002	7.473251e+001
312509.688	-2.169408e-002	7.342531e+001
318759.681	-2.141822e-002	7.215046e+001
325009.675	-2.009023e-002	7.092381e+001
331259.669	-1.892690e-002	6.973446e+001
337509.662	-1.776040e-002	6.858195e+001
343759.656	-1.727401e-002	6.745308e+001
350009.650	-1.639866e-002	6.636727e+001
356259.644	-1.523901e-002	6.531313e+001
362509.637	-1.423601e-002	6.428764e+001
368759.631	-1.434372e-002	6.328244e+001
375009.625	-1.321202e-002	6.231454e+001
381259.619	-1.174099e-002	6.137368e+001
387509.612	-1.068833e-002	6.045753e+001
393759.606	-1.073335e-002	5.956042e+001
400009.600	-9.665341e-003	5.869219e+001
406259.594	-8.605162e-003	5.784709e+001
412509.587	-8.786317e-003	5.701798e+001
418759.581	-7.970477e-003	5.621767e+001
425009.575	-6.887656e-003	5.543606e+001
431259.569	-7.009854e-003	5.466726e+001
437509.563	-6.155341e-003	5.392423e+001
443759.556	-5.200917e-003	5.320098e+001
450009.550	-5.665053e-003	5.248404e+001
456259.544	-4.696248e-003	5.179572e+001
462509.537	-3.815964e-003	5.112245e+001
468759.531	-3.112576e-003	5.046477e+001
475009.525	-3.410492e-003	4.981493e+001
481259.519	-2.403843e-003	4.918789e+001
487509.512	-1.890309e-003	4.857173e+001
493759.506	-1.037963e-003	4.797279e+001
500009.500	-1.325401e-003	4.737913e+001
506259.494	-4.988851e-004	4.680665e+001
512509.487	-9.003590e-004	4.623849e+001
518759.481	-1.022877e-004	4.568988e+001
525009.475	3.073833e-004	4.514976e+001
531259.469	-6.825443e-005	4.461773e+001
537509.463	7.611901e-004	4.410178e+001
543759.456	1.621857e-003	4.359778e+001
550009.450	2.282776e-003	4.310323e+001
556259.444	3.057542e-003	4.261997e+001
562509.438	3.696953e-003	4.214363e+001
568759.431	4.362636e-003	4.167777e+001
575009.425	3.518718e-003	4.121328e+001
581259.419	3.007625e-003	4.075963e+001
587509.412	3.709154e-003	4.032123e+001
593759.406	4.402944e-003	3.989067e+001
600009.400	5.156070e-003	3.946789e+001
606259.394	5.756951e-003	3.905372e+001
612509.387	5.019845e-003	3.864008e+001
618759.381	5.592611e-003	3.824060e+001
625009.375	5.926259e-003	3.784658e+001
631259.369	6.613991e-003	3.746087e+001
637509.362	7.245351e-003	3.708307e+001
643759.356	6.474968e-003	3.670461e+001
650009.350	6.869664e-003	3.633907e+001
656259.344	7.702193e-003	3.598028e+001
662509.337	8.124842e-003	3.562662e+001
668759.331	8.788017e-003	3.527964e+001
675009.325	9.337729e-003	3.493849e+001
681259.319	8.388318e-003	3.459775e+001
687509.313	8.997543e-003	3.426733e+001
693759.306	9.670086e-003	3.394292e+001
700009.300	1.013731e-002	3.362296e+001
706259.294	1.053494e-002	3.330885e+001
712509.287	9.543080e-003	3.299335e+001
718759.281	1.014126e-002	3.268927e+001
725009.275	1.053335e-002	3.238887e+001
731259.269	1.113867e-002	3.209446e+001
737509.262	2.074812e-002	3.184532e+001
743759.256	2.094836e-002	3.155787e+001
750009.250	1.985713e-002	3.126891e+001
756259.244	1.992141e-002	3.098788e+001
762509.237	2.007239e-002	3.071225e+001
768759.231	1.999468e-002	3.043960e+001
775009.225	1.876064e-002	3.016572e+001
781259.219	1.883568e-002	2.990090e+001
787509.212	1.954452e-002	2.964550e+001
793759.206	1.975578e-002	2.938894e+001
800009.200	1.971455e-002	2.913625e+001
806259.194	1.999542e-002	2.888755e+001
812509.188	2.021749e-002	2.864227e+001
818759.181	1.865352e-002	2.839643e+001
825009.175	1.878117e-002	2.815676e+001
831259.169	1.903435e-002	2.792189e+001
837509.162	1.901458e-002	2.768896e+001
843759.156	1.915361e-002	2.746000e+001
850009.150	1.899401e-002	2.723181e+001
856259.144	1.916862e-002	2.700917e+001
862509.137	1.916861e-002	2.678885e+001
868759.131	1.920839e-002	2.657080e+001
875009.125	1.925575e-002	2.635730e+001
881259.119	1.807592e-002	2.614123e+001
887509.112	1.816054e-002	2.593177e+001
893759.106	1.818551e-002	2.572476e+001
900009.100	1.809824e-002	2.552183e+001
906259.094	1.814949e-002	2.532023e+001
912509.087	1.769980e-002	2.512030e+001
918759.081	1.784461e-002	2.492423e+001
925009.075	1.785742e-002	2.473204e+001
931259.069	1.790296e-002	2.453977e+001
937509.063	1.805889e-002	2.435182e+001
943759.056	1.795189e-002	2.416580e+001
950009.050	1.812954e-002	2.398243e+001
956259.044	1.809361e-002	2.380010e+001
962509.037	1.845160e-002	2.361997e+001
968759.031	1.855734e-002	2.344153e+001
975009.025	1.723675e-002	2.326391e+001
981259.019	1.735688e-002	2.309043e+001
987509.012	1.752225e-002	2.291707e+001
993759.006	1.765569e-002	2.274691e+001
1000009.000	1.781967e-002	2.257988e+001
1006258.994	1.787155e-002	2.241278e+001
1012508.987	1.798426e-002	2.224691e+001
1018758.981	1.833288e-002	2.208441e+001
1025008.975	1.837764e-002	2.192289e+001
1031258.969	1.846114e-002	2.176403e+001
1037508.962	1.867132e-002	2.160779e+001
1043758.956	1.827255e-002	2.144952e+001
1050008.950	1.856836e-002	2.129586e+001
1056258.944	1.884401e-002	2.114295e+001
1062508.938	1.909458e-002	2.099325e+001
1068758.931	1.776701e-002	2.083922e+001
1075008.925	1.796998e-002	2.069157e+001
1081258.919	1.821838e-002	2.054472e+001
1087508.912	1.839782e-002	2.039922e+001
1093758.906	1.864696e-002	2.025599e+001
1100008.900	1.891259e-002	2.011249e+001
1106258.894	1.905487e-002	1.997236e+001
1112508.888	1.932652e-002	1.983234e+001
1118758.881	1.779861e-002	1.969097e+001
1125008.875	1.800066e-002	1.955371e+001
1131258.869	1.815249e-002	1.941817e+001
1137508.863	1.827756e-002	1.928340e+001
1143758.856	1.966954e-002	1.915467e+001
1150008.850	1.997741e-002	1.902360e+001
1156258.844	2.023155e-002	1.889455e+001
1162508.837	1.886268e-002	1.876349e+001
1168758.831	1.897543e-002	1.863665e+001
1175008.825	1.931397e-002	1.850932e+001
1181258.819	1.950907e-002	1.838358e+001
1187508.813	1.992082e-002	1.825991e+001
1193758.806	2.017647e-002	1.813721e+001
1200008.800	1.870179e-002	1.801124e+001
1206258.794	1.910291e-002	1.789061e+001
1212508.787	1.934515e-002	1.777119e+001
1218758.781	1.960545e-002	1.765172e+001
1225008.775	1.991738e-002	1.753367e+001
1231258.769	2.007918e-002	1.741789e+001
1237508.763	1.876566e-002	1.729806e+001
1243758.756	1.907600e-002	1.718355e+001
1250008.750	1.985068e-002	1.706807e+001
1256258.744	2.028867e-002	1.695549e+001
1262508.737	2.048153e-002	1.684288e+001
1268758.731	1.933333e-002	1.672954e+001
1275008.725	1.951873e-002	1.661974e+001
1281258.719	1.960336e-002	1.651064e+001
1287508.712	1.998368e-002	1.640275e+001
1293758.706	2.030101e-002	1.629591e+001
1300008.700	2.033569e-002	1.618944e+001
1306258.694	1.905779e-002	1.608125e+001
1312508.688	1.939022e-002	1.597619e+001
1318758.681	1.960050e-002	1.587168e+001
1325008.675	1.973915e-002	1.576869e+001
1331258.669	2.012247e-002	1.566574e+001
1337508.662	2.014685e-002	1.556551e+001
1343758.656	1.885587e-002	1.546208e+001
1350008.650	1.911118e-002	1.536253e+001
1356258.644	1.940116e-002	1.526371e+001
1362508.638	1.965421e-002	1.516429e+001
1368758.631	1.987233e-002	1.506697e+001
1375008.625	2.016053e-002	1.496923e+001
1381258.619	1.887807e-002	1.487123e+001
1387508.612	1.915666e-002	1.477465e+001
1393758.606	1.936731e-002	1.468036e+001
1400008.600	1.969281e-002	1.458596e+001
1406258.594	1.985330e-002	1.449367e+001
1412508.587	1.861996e-002	1.439803e+001
1418758.581	1.899471e-002	1.430525e+001
1425008.575	1.920516e-002	1.421370e+001
1431258.569	1.959910e-002	1.412316e+001
1437508.563	1.967098e-002	1.403287e+001
1443758.556	1.998561e-002	1.394370e+001
1450008.550	1.861062e-002	1.385328e+001
1456258.544	1.883097e-002	1.376517e+001
1462508.537	1.904306e-002	1.367717e+001
1468758.531	1.927842e-002	1.359005e+001
1475008.525	1.964063e-002	1.350436e+001
1481258.519	1.979186e-002	1.341786e+001
1487508.513	2.014875e-002	1.333221e+001
1493758.506	1.883096e-002	1.324622e+001
1500008.500	1.906989e-002	1.316234e+001
1506258.494	1.932572e-002	1.307771e+001
1512508.487	1.947456e-002	1.299537e+001
1518758.481	1.975046e-002	1.291328e+001
1525008.475	2.015636e-002	1.283079e+001
1531258.469	2.035782e-002	1.274923e+001
1537508.462	2.066692e-002	1.266881e+001
1543758.456	1.932953e-002	1.258530e+001
1550008.450	1.951372e-002	1.250495e+001
1556258.444	1.979678e-002	1.242578e+001
1562508.438	1.930255e-002	1.234747e+001
1568758.431	1.978272e-002	1.226908e+001
1575008.425	2.011991e-002	1.219036e+001
1581258.419	2.047921e-002	1.211316e+001
1587508.412	1.917981e-002	1.203383e+001
1593758.406	1.950191e-002	1.195775e+001
1600008.400	1.975763e-002	1.188232e+001
1606258.394	1.979470e-002	1.180621e+001
1612508.388	2.018048e-002	1.173010e+001
1618758.381	2.050633e-002	1.165431e+001
1625008.375	2.068262e-002	1.158003e+001
1631258.369	2.089735e-002	1.150682e+001
1637508.362	1.942722e-002	1.143049e+001
1643758.356	1.967422e-002	1.135638e+001
1650008.350	1.985253e-002	1.128347e+001
1656258.344	2.005503e-002	1.121229e+001
1662508.337	2.032616e-002	1.114002e+001
1668758.331	2.037218e-002	1.106830e+001
1675008.325	2.059336e-002	1.099671e+001
1681258.319	2.087277e-002	1.092592e+001
1687508.313	1.945030e-002	1.085438e+001
1693758.306	1.973114e-002	1.078433e+001
1700008.300	1.983018e-002	1.071530e+001
1706258.294	2.001268e-002	1.064571e+001
1712508.287	1.778603e-002	1.057404e+001
1718758.281	1.816984e-002	1.050552e+001
1725008.275	1.827555e-002	1.043659e+001
1731258.269	1.868046e-002	1.036900e+001
1737508.263	1.729223e-002	1.030021e+001
1743758.256	1.742950e-002	1.023391e+001
1750008.250	1.750191e-002	1.016735e+001
1756258.244	1.792413e-002	1.010088e+001
1762508.237	1.818241e-002	1.003413e+001
1768758.231	1.831885e-002	9.969967e+000
1775008.225	1.704243e-002	9.903019e+000
1781258.219	1.726689e-002	9.838054e+000
1787508.212	1.746671e-002	9.773621e+000
1793758.206	1.768417e-002	9.709549e+000
1800008.200	1.783827e-002	9.645798e+000
1806258.194	1.790561e-002	9.581510e+000
1812508.188	1.810561e-002	9.519342e+000
1818758.181	1.687400e-002	9.454440e+000
1825008.175	1.695506e-002	9.391080e+000
1831258.169	1.732808e-002	9.329504e+000
1837508.162	1.737763e-002	9.267965e+000
1843758.156	1.771723e-002	9.204723e+000
1850008.150	1.776390e-002	9.144364e+000
1856258.144	1.636874e-002	9.081527e+000
1862508.138	1.668365e-002	9.020915e+000
1868758.131	1.676578e-002	8.960350e+000
1875008.125	1.650189e-002	8.899889e+000
1881258.119	1.672743e-002	8.840832e+000
1887508.112	1.685619e-002	8.780852e+000
1893758.106	1.708368e-002	8.721086e+000
1900008.100	1.567708e-002	8.660334e+000
1906258.094	1.581835e-002	8.601682e+000
1912508.087	1.616079e-002	8.542604e+000
1918758.081	1.626504e-002	8.484642e+000
1925008.075	1.654613e-002	8.427313e+000
1931258.069	1.682349e-002	8.369784e+000
1937508.063	1.678075e-002	8.312611e+000
1943758.056	1.707434e-002	8.255166e+000
1950008.050	1.575029e-002	8.197308e+000
1956258.044	1.595845e-002	8.139871e+000
1962508.037	1.602715e-002	8.084437e+000
1968758.031	1.633966e-002	8.028371e+000
1975008.025	1.434158e-002	7.970321e+000
1981258.019	1.470635e-002	7.914212e+000
1987508.013	1.496701e-002	7.858784e+000
1993758.006	1.360718e-002	7.802050e+000
2000008.000	1.392491e-002	7.746473e+000
2006257.994	1.409851e-002	7.691869e+000
2012507.987	1.419803e-002	7.636688e+000
2018757.981	1.434747e-002	7.582340e+000
2025007.975	1.450536e-002	7.527002e+000
2031257.969	1.304142e-002	7.472360e+000
2037507.962	1.343891e-002	7.417533e+000
2043757.956	1.354885e-002	7.365253e+000
2050007.950	1.363489e-002	7.312135e+000
2056257.944	1.381034e-002	7.258210e+000
2062507.937	1.395144e-002	7.205010e+000
2068757.931	1.255565e-002	7.151900e+000
2075007.925	1.258208e-002	7.098760e+000
2081257.919	1.284848e-002	7.046919e+000
2087507.912	1.234472e-002	6.994764e+000
2093757.906	1.262118e-002	6.942351e+000
2100007.900	1.271144e-002	6.891100e+000
2106257.894	1.149345e-002	6.838498e+000
2112507.887	1.153904e-002	6.786666e+000
2118757.881	1.187665e-002	6.735899e+000
2125007.875	1.197301e-002	6.685417e+000
2131257.869	1.219246e-002	6.634067e+000
2137507.862	1.230458e-002	6.584666e+000
2143757.856	1.244609e-002	6.533610e+000
2150007.850	1.101416e-002	6.482777e+000
2156257.844	1.108121e-002	6.433705e+000
2162507.837	1.115792e-002	6.382819e+000
2168757.831	1.141451e-002	6.333207e+000
2175007.825	1.151902e-002	6.284087e+000
2181257.819	1.171098e-002	6.234231e+000
2187507.813	1.035962e-002	6.184053e+000
2193757.806	1.052383e-002	6.135023e+000
2200007.800	1.072720e-002	6.086671e+000
2206257.794	1.079682e-002	6.037246e+000
2212507.788	1.189110e-002	5.990273e+000
2218757.781	1.230533e-002	5.941367e+000
2225007.775	1.230365e-002	5.892765e+000
2231257.769	1.097650e-002	5.843926e+000
2237507.762	1.119209e-002	5.796352e+000
2243757.756	1.135535e-002	5.747601e+000
2250007.750	1.145198e-002	5.700356e+000
2256257.744	1.159184e-002	5.653441e+000
2262507.737	1.015872e-002	5.604613e+000
2268757.731	1.016457e-002	5.557163e+000
2275007.725	1.049092e-002	5.509725e+000
2281257.719	1.033905e-002	5.463125e+000
2287507.712	1.055003e-002	5.416103e+000
2293757.706	9.130405e-003	5.368834e+000
2300007.700	9.098713e-003	5.321375e+000
2306257.694	9.401658e-003	5.276167e+000
2312507.688	9.410006e-003	5.229660e+000
2318757.681	9.456762e-003	5.182640e+000
2325007.675	9.524448e-003	5.137469e+000
2331257.669	7.838400e-003	5.091141e+000
2337507.663	8.027568e-003	5.045650e+000
2343757.656	8.090908e-003	5.000287e+000
2350007.650	9.102007e-003	4.955670e+000
2356257.644	9.334149e-003	4.910447e+000
2362507.637	9.398048e-003	4.866185e+000
2368757.631	8.031390e-003	4.819796e+000
2375007.625	8.205159e-003	4.774402e+000
2381257.619	8.176359e-003	4.730668e+000
2387507.612	8.214971e-003	4.685723e+000
2393757.606	8.231897e-003	4.642366e+000
2400007.600	8.333618e-003	4.597924e+000
2406257.594	8.296461e-003	4.553973e+000
2412507.587	6.973070e-003	4.508517e+000
2418757.581	7.076439e-003	4.465124e+000
2425007.575	7.078710e-003	4.421306e+000
2431257.569	7.278722e-003	4.378160e+000
2437507.563	7.260129e-003	4.333980e+000
2443757.556	7.261874e-003	4.290133e+000
2450007.550	5.828724e-003	4.246223e+000
2456257.544	5.882580e-003	4.202860e+000
2462507.537	6.037223e-003	4.159965e+000
2468757.531	5.906446e-003	4.116310e+000
2475007.525	4.147616e-003	4.073036e+000
2481257.519	4.386063e-003	4.030003e+000
2487507.512	4.462452e-003	3.988539e+000
2493757.506	4.489606e-003	3.945499e+000
2500007.500	4.576517e-003	3.903144e+000
2506257.494	4.331349e-003	3.860368e+000
2512507.487	4.479459e-003	3.818670e+000
2518757.481	4.669876e-003	3.775829e+000
2525007.475	4.514236e-003	3.734642e+000
2531257.469	4.118119e-003	3.691502e+000
2537507.462	4.247848e-003	3.650803e+000
2543757.456	4.341512e-003	3.608699e+000
2550007.450	4.429940e-003	3.567553e+000
2556257.444	4.409590e-003	3.526002e+000
2562507.438	2.998977e-003	3.483815e+000
2568757.431	3.011019e-003	3.441949e+000
2575007.425	3.091448e-003	3.402254e+000
2581257.419	3.023749e-003	3.360683e+000
2587507.412	3.229309e-003	3.318902e+000
2593757.406	3.117094e-003	3.278330e+000
2600007.400	3.153377e-003	3.237059e+000
2606257.394	3.322942e-003	3.196807e+000
2612507.387	1.986970e-003	3.155469e+000
2618757.381	2.108344e-003	3.114999e+000
2625007.375	1.899576e-003	3.075081e+000
2631257.369	1.793986e-003	3.034287e+000
2637507.362	1.980723e-003	2.993954e+000
2643757.356	1.937178e-003	2.953749e+000
2650007.350	1.882361e-003	2.913786e+000
2656257.344	1.883860e-003	2.872700e+000
2662507.337	1.789260e-003	2.832898e+000
2668757.331	4.263491e-004	2.792289e+000
2675007.325	3.062051e-004	2.753333e+000
2681257.319	3.733384e-004	2.712231e+000
2687507.313	5.250212e-004	2.673019e+000
2693757.306	3.151171e-004	2.633725e+000
2700007.300	3.253136e-004	2.594116e+000
2706257.294	3.543703e-004	2.553588e+000
2712507.287	1.865243e-004	2.514313e+000
2718757.281	1.198110e-004	2.474611e+000
2725007.275	-1.182179e-003	2.435130e+000
2731257.269	-1.220913e-003	2.395735e+000
2737507.262	-1.282825e-003	2.357174e+000
2743757.256	-1.253831e-003	2.318292e+000
2750007.250	-1.363049e-003	2.280251e+000
2756257.244	-1.472556e-003	2.240189e+000
2762507.237	-1.333306e-003	2.201770e+000
2768757.231	-1.471098e-003	2.162443e+000
2775007.225	-1.644308e-003	2.123986e+000
2781257.219	-3.024138e-003	2.084466e+000
2787507.212	-3.206384e-003	2.046499e+000
2793757.206	-3.142990e-003	2.008110e+000
2800007.200	-3.220572e-003	1.969260e+000
2806257.194	-3.112853e-003	1.930403e+000
2812507.188	-3.294617e-003	1.891684e+000
2818757.181	-3.491424e-003	1.854038e+000
2825007.175	-3.459051e-003	1.815668e+000
2831257.169	-3.484876e-003	1.777684e+000
2837507.162	-4.959754e-003	1.739934e+000
2843757.156	-5.026244e-003	1.701728e+000
2850007.150	-5.119070e-003	1.663540e+000
2856257.144	-5.285663e-003	1.625608e+000
2862507.137	-8.352970e-003	1.586836e+000
2868757.131	-1.085885e-002	1.548890e+000
2875007.125	-1.230207e-002	1.511464e+000
2881257.119	-1.314944e-002	1.473442e+000
2887507.112	-1.367827e-002	1.436145e+000
2893757.106	-1.518173e-002	1.398956e+000
2900007.100	-1.532760e-002	1.360287e+000
2906257.094	-1.541492e-002	1.322124e+000
2912507.087	-1.544405e-002	1.285828e+000
2918757.081	-1.551692e-002	1.249243e+000
2925007.075	-1.567079e-002	1.211876e+000
2931257.069	-1.583575e-002	1.173812e+000
2937507.063	-1.564204e-002	1.136402e+000
2943757.056	-1.607337e-002	1.099606e+000
2950007.050	-1.615480e-002	1.062699e+000
2956257.044	-1.616947e-002	1.026539e+000
2962507.037	-1.727233e-002	9.888853e-001
2968757.031	-1.746945e-002	9.518251e-001
2975007.025	-1.760831e-002	9.155731e-001
2981257.019	-1.777341e-002	8.784277e-001
2987507.012	-1.779234e-002	8.420159e-001
2993757.006	-1.806820e-002	8.056822e-001
3000007.000	-1.828003e-002	7.676547e-001
3006256.994	-1.831510e-002	7.317395e-001
3012506.987	-1.842366e-002	6.948985e-001
3018756.981	-1.860667e-002	6.586703e-001
3025006.975	-1.863737e-002	6.223340e-001
3031256.969	-1.988293e-002	5.855459e-001
3037506.962	-2.002042e-002	5.494795e-001
3043756.956	-2.033275e-002	5.130516e-001
3050006.950	-2.030359e-002	4.766077e-001
3056256.944	-2.057866e-002	4.402710e-001
3062506.938	-2.070323e-002	4.046206e-001
3068756.931	-2.089149e-002	3.686685e-001
3075006.925	-2.097628e-002	3.325950e-001
3081256.919	-2.106280e-002	2.963393e-001
3087506.912	-2.121630e-002	2.593592e-001
3093756.906	-2.243334e-002	2.245099e-001
