"# Channel 1"
"# Trace 1"
Frequency, Formatted Data, Formatted Data
+5.00000000000E+000, +1.19402679956E-001, -2.10625639403E-002
+6.25499687500E+003, +2.61674732789E-001, +1.15457212975E+000
+1.25049937500E+004, +2.62963919670E-001, +2.33601159303E+000
+1.87549906250E+004, +2.74733281167E-001, +3.51467388416E+000
+2.50049875000E+004, +2.86129775561E-001, +4.69135931195E+000
+3.12549843750E+004, +2.96784540970E-001, +5.86724855703E+000
+3.75049812500E+004, +3.04914559910E-001, +7.04048875133E+000
+4.37549781250E+004, +3.10468742568E-001, +8.21272895282E+000
+5.00049750000E+004, +3.11163235660E-001, +9.38750099640E+000
+5.62549718750E+004, +3.12865007165E-001, +1.05608489631E+001
+6.25049687500E+004, +3.13084591786E-001, +1.17336168436E+001
+6.87549656250E+004, +3.12662899627E-001, +1.29070836299E+001
+7.50049625000E+004, +3.09178991352E-001, +1.40845608476E+001
+8.12549593750E+004, +3.06699256244E-001, +1.52589449044E+001
+8.75049562500E+004, +3.03132101946E-001, +1.64372237548E+001
+9.37549531250E+004, +2.96001004829E-001, +1.76320808212E+001
+1.00004950000E+005, +2.92419025968E-001, +1.88106632510E+001
+1.06254946875E+005, +2.88449870257E-001, +1.99937642093E+001
+1.12504943750E+005, +2.86134432158E-001, +2.11727811201E+001
+1.18754940625E+005, +2.82608481747E-001, +2.23554363923E+001
+1.25004937500E+005, +2.79089374101E-001, +2.35383746588E+001
+1.31254934375E+005, +2.75798819413E-001, +2.47210536447E+001
+1.37504931250E+005, +2.71992482374E-001, +2.59086182280E+001
+1.43754928125E+005, +2.69301708870E-001, +2.70914022462E+001
+1.50004925000E+005, +2.65543994629E-001, +2.82776204477E+001
+1.56254921875E+005, +2.64011515985E-001, +2.94644175386E+001
+1.62504918750E+005, +2.60980319467E-001, +3.06511295811E+001
+1.68754915625E+005, +2.58021621520E-001, +3.18441099648E+001
+1.75004912500E+005, +2.55519519933E-001, +3.30279512841E+001
+1.81254909375E+005, +2.52855916196E-001, +3.42186257815E+001
+1.87504906250E+005, +2.51425087588E-001, +3.54052167142E+001
+1.93754903125E+005, +2.49367121652E-001, +3.65956629076E+001
+2.00004900000E+005, +2.46966971948E-001, +3.77863716315E+001
+2.06254896875E+005, +2.44855340642E-001, +3.89760981453E+001
+2.12504893750E+005, +2.42652684271E-001, +4.01666508148E+001
+2.18754890625E+005, +2.41359077719E-001, +4.13647420450E+001
+2.25004887500E+005, +2.38992908539E-001, +4.25540117646E+001
+2.31254884375E+005, +2.38002379094E-001, +4.37527827341E+001
+2.37504881250E+005, +2.33761717309E-001, +4.49423873822E+001
+2.43754878125E+005, +2.34132105503E-001, +4.61420097082E+001
+2.50004875000E+005, +2.33237062616E-001, +4.73408851206E+001
+2.56254871875E+005, +2.31589499536E-001, +4.85402800132E+001
+2.62504868750E+005, +2.27502453963E-001, +4.97319691439E+001
+2.68754865625E+005, +2.24121649441E-001, +5.09318156781E+001
+2.75004862500E+005, +2.23888775037E-001, +5.21323423522E+001
+2.81254859375E+005, +2.24711676501E-001, +5.33431642988E+001
+2.87504856250E+005, +2.24090157240E-001, +5.45460791037E+001
+2.93754853125E+005, +2.26391393254E-001, +5.57580122060E+001
+3.00004850000E+005, +2.28308646877E-001, +5.69720018422E+001
+3.06254846875E+005, +2.26379676238E-001, +5.81760307899E+001
+3.12504843750E+005, +2.23428958886E-001, +5.93809970529E+001
+3.18754840625E+005, +2.27535590041E-001, +6.05969713987E+001
+3.25004837500E+005, +2.26020865727E-001, +6.18029139271E+001
+3.31254834375E+005, +2.22829155345E-001, +6.30106149936E+001
+3.37504831250E+005, +2.20599571304E-001, +6.42176734836E+001
+3.43754828125E+005, +2.22498173419E-001, +6.54397555548E+001
+3.50004825000E+005, +2.22399802864E-001, +6.66484161464E+001
+3.56254821875E+005, +2.18497412402E-001, +6.78595821545E+001
+3.62504818750E+005, +2.16452251186E-001, +6.90732747346E+001
+3.68754815625E+005, +2.22222263312E-001, +7.03003490346E+001
+3.75004812500E+005, +2.18209920609E-001, +7.15145928035E+001
+3.81254809375E+005, +2.11702049985E-001, +7.27304793910E+001
+3.87504806250E+005, +2.07435808539E-001, +7.39479467442E+001
+3.93754803125E+005, +2.12518555074E-001, +7.51748527705E+001
+4.00004800000E+005, +2.07686524629E-001, +7.63947448144E+001
+4.06254796875E+005, +2.03597138600E-001, +7.76165421301E+001
+4.12504793750E+005, +2.08654758528E-001, +7.88493385276E+001
+4.18754790625E+005, +2.04375093853E-001, +8.00715738376E+001
+4.25004787500E+005, +1.98631702039E-001, +8.12960542788E+001
+4.31254784375E+005, +2.04341508773E-001, +8.25342094951E+001
+4.37504781250E+005, +1.99680394430E-001, +8.37607836850E+001
+4.43754778125E+005, +1.94392569272E-001, +8.49881780047E+001
+4.50004775000E+005, +2.02425266826E-001, +8.62349123356E+001
+4.56254771875E+005, +1.93774834493E-001, +8.74636760932E+001
+4.62504768750E+005, +1.88923721188E-001, +8.86964204372E+001
+4.68754765625E+005, +1.83516332252E-001, +8.99303932572E+001
+4.75004762500E+005, +1.90768691112E-001, +9.11785876619E+001
+4.81254759375E+005, +1.81841322980E-001, +9.24140978322E+001
+4.87504756250E+005, +1.80228227291E-001, +9.36553439038E+001
+4.93754753125E+005, +1.70008908137E-001, +9.48930459869E+001
+5.00004750000E+005, +1.78245604556E-001, +9.61502678840E+001
+5.06254746875E+005, +1.69606483451E-001, +9.73904604405E+001
+5.12504743750E+005, +1.77472491273E-001, +9.86513984132E+001
+5.18754740625E+005, +1.69141748542E-001, +9.98966656837E+001
+5.25004737500E+005, +1.65489928868E-001, +1.01149904267E+002
+5.31254734375E+005, +1.72454621372E-001, +1.02413614927E+002
+5.37504731250E+005, +1.65358894172E-001, +1.03665188415E+002
+5.43754728125E+005, +1.55128796537E-001, +1.04917679091E+002
+5.50004725000E+005, +1.47512164454E-001, +1.06174136617E+002
+5.56254721875E+005, +1.37058919397E-001, +1.07425476567E+002
+5.62504718750E+005, +1.27489266452E-001, +1.08688946450E+002
+5.68754715625E+005, +1.21818835184E-001, +1.09949043498E+002
+5.75004712500E+005, +1.34464554821E-001, +1.11233285011E+002
+5.81254709375E+005, +1.42201617493E-001, +1.12514712396E+002
+5.87504706250E+005, +1.32976989389E-001, +1.13780255215E+002
+5.93754703125E+005, +1.22173875758E-001, +1.15047817662E+002
+6.00004700000E+005, +1.11396033720E-001, +1.16317816899E+002
+6.06254696875E+005, +1.01797861317E-001, +1.17588868708E+002
+6.12504693750E+005, +1.15495319252E-001, +1.18881801847E+002
+6.18754690625E+005, +1.06623788253E-001, +1.20160539480E+002
+6.25004687500E+005, +9.91362867614E-002, +1.21447736924E+002
+6.31254684375E+005, +8.67382814397E-002, +1.22724051586E+002
+6.37504681250E+005, +7.46631928029E-002, +1.24005500858E+002
+6.43754678125E+005, +8.92987363579E-002, +1.25313956641E+002
+6.50004675000E+005, +8.06374381219E-002, +1.26601443390E+002
+6.56254671875E+005, +6.54026725830E-002, +1.27887531731E+002
+6.62504668750E+005, +5.51370277795E-002, +1.29182706489E+002
+6.68754665625E+005, +4.30979749428E-002, +1.30475983486E+002
+6.75004662500E+005, +2.96764327988E-002, +1.31770083227E+002
+6.81254659375E+005, +4.72860014152E-002, +1.33091906523E+002
+6.87504656250E+005, +3.50194514696E-002, +1.34394474170E+002
+6.93754653125E+005, +2.04982700857E-002, +1.35697083831E+002
+7.00004650000E+005, +1.18394908678E-002, +1.37005723799E+002
+7.06254646875E+005, -1.62012854822E-004, +1.38308412952E+002
+7.12504643750E+005, +1.94702187786E-002, +1.39647371567E+002
+7.18754640625E+005, +5.81889011675E-003, +1.40960725231E+002
+7.25004637500E+005, -8.24098927440E-003, +1.42280081631E+002
+7.31254634375E+005, -2.30252117974E-002, +1.43595307295E+002
+7.37504631250E+005, -3.34942583025E-001, +1.44707962895E+002
+7.43754628125E+005, -3.48276376737E-001, +1.46037105161E+002
+7.50004625000E+005, -3.21250961984E-001, +1.47397572840E+002
+7.56254621875E+005, -3.27919427916E-001, +1.48735086095E+002
+7.62504618750E+005, -3.38301628342E-001, +1.50069108186E+002
+7.68754615625E+005, -3.45347370889E-001, +1.51413510830E+002
+7.75004612500E+005, -3.19637364664E-001, +1.52793136073E+002
+7.81254609375E+005, -3.26303480602E-001, +1.54145446952E+002
+7.87504606250E+005, -3.48344430879E-001, +1.55477067471E+002
+7.93754603125E+005, -3.59981962504E-001, +1.56828645975E+002
+8.00004600000E+005, -3.70795418179E-001, +1.58186227353E+002
+8.06254596875E+005, -3.81788464610E-001, +1.59549396085E+002
+8.12504593750E+005, -3.91341767945E-001, +1.60915330551E+002
+8.18754590625E+005, -3.49544499755E-001, +1.62301912843E+002
+8.25004587500E+005, -3.55475641874E-001, +1.63673539098E+002
+8.31254584375E+005, -3.67078704756E-001, +1.65040949394E+002
+8.37504581250E+005, -3.73056728791E-001, +1.66412765760E+002
+8.43754578125E+005, -3.74768143769E-001, +1.67787913630E+002
+8.50004575000E+005, -3.85524227816E-001, +1.69171804043E+002
+8.56254571875E+005, -3.98769501438E-001, +1.70552234778E+002
+8.62504568750E+005, -4.06661395489E-001, +1.71939755211E+002
+8.68754565625E+005, -4.19198925828E-001, +1.73331079965E+002
+8.75004562500E+005, -4.27381878600E-001, +1.74717468904E+002
+8.81254559375E+005, -3.95338162251E-001, +1.76148906879E+002
+8.87504556250E+005, -4.04407623171E-001, +1.77551192537E+002
+8.93754553125E+005, -4.17818529587E-001, +1.78958967048E+002
+9.00004550000E+005, -4.33034798884E-001, +1.80371339248E+002
+9.06254546875E+005, -4.32253891830E-001, +1.81777127618E+002
+9.12504543750E+005, -4.30207306827E-001, +1.83200711595E+002
+9.18754540625E+005, -4.51002316488E-001, +1.84617498169E+002
+9.25004537500E+005, -4.60376416502E-001, +1.86032501329E+002
+9.31254534375E+005, -4.74517598277E-001, +1.87461198885E+002
+9.37504531250E+005, -4.87988388076E-001, +1.88888287695E+002
+9.43754528125E+005, -5.03604190396E-001, +1.90312518331E+002
+9.50004525000E+005, -5.15654714088E-001, +1.91750766458E+002
+9.56254521875E+005, -5.22533084368E-001, +1.93181680010E+002
+9.62504518750E+005, -5.44666018140E-001, +1.94624870174E+002
+9.68754515625E+005, -5.58373336209E-001, +1.96081501117E+002
+9.75004512500E+005, -5.01834425337E-001, +1.97560864459E+002
+9.81254509375E+005, -5.19553552461E-001, +1.99018473365E+002
+9.87504506250E+005, -5.29499331493E-001, +2.00485882163E+002
+9.93754503125E+005, -5.50239196366E-001, +2.01948894576E+002
+1.00000450000E+006, -5.62094681727E-001, +2.03416799958E+002
+1.00625449688E+006, -5.66674819074E-001, +2.04883101050E+002
+1.01250449375E+006, -5.89498956160E-001, +2.06362860831E+002
+1.01875449063E+006, -6.08940558607E-001, +2.07843574502E+002
+1.02500448750E+006, -6.21599317363E-001, +2.09324296035E+002
+1.03125448438E+006, -6.32640028612E-001, +2.10808930512E+002
+1.03750448125E+006, -6.51626088678E-001, +2.12293583566E+002
+1.04375447813E+006, -6.35528761804E-001, +2.13810461313E+002
+1.05000447500E+006, -6.59657773285E-001, +2.15309874121E+002
+1.05625447188E+006, -6.74142728609E-001, +2.16822311456E+002
+1.06250446875E+006, -6.95590048686E-001, +2.18319247314E+002
+1.06875446563E+006, -6.26406822187E-001, +2.19880940453E+002
+1.07500446250E+006, -6.42864321716E-001, +2.21387280336E+002
+1.08125445937E+006, -6.65037944396E-001, +2.22908352702E+002
+1.08750445625E+006, -6.79074159656E-001, +2.24441958238E+002
+1.09375445313E+006, -7.00939041458E-001, +2.25964607772E+002
+1.10000445000E+006, -7.35370418463E-001, +2.27512801166E+002
+1.10625444687E+006, -7.36690503810E-001, +2.29041288979E+002
+1.11250444375E+006, -7.81594219769E-001, +2.30596108840E+002
+1.11875444063E+006, -6.89165096916E-001, +2.32170482411E+002
+1.12500443750E+006, -7.24229931125E-001, +2.33729050270E+002
+1.13125443438E+006, -7.49789921023E-001, +2.35298063856E+002
+1.13750443125E+006, -7.62398104861E-001, +2.36857259687E+002
+1.14375442812E+006, -8.71891341065E-001, +2.38381058302E+002
+1.15000442500E+006, -9.07107801681E-001, +2.39949129280E+002
+1.15625442188E+006, -9.32103936605E-001, +2.41521009896E+002
+1.16250441875E+006, -8.47802193969E-001, +2.43142843177E+002
+1.16875441562E+006, -8.70050648210E-001, +2.44720961444E+002
+1.17500441250E+006, -9.16784067388E-001, +2.46339780922E+002
+1.18125440938E+006, -9.36723872442E-001, +2.47935843151E+002
+1.18750440625E+006, -9.76661309399E-001, +2.49541547852E+002
+1.19375440313E+006, -9.97695648899E-001, +2.51147577645E+002
+1.20000440000E+006, -9.03326761097E-001, +2.52808641086E+002
+1.20625439687E+006, -9.36555720878E-001, +2.54437276937E+002
+1.21250439375E+006, -9.68304076985E-001, +2.56067721995E+002
+1.21875439063E+006, -1.00036227101E+000, +2.57704484714E+002
+1.22500438750E+006, -1.03816472056E+000, +2.59340036802E+002
+1.23125438437E+006, -1.06068515566E+000, +2.60979126941E+002
+1.23750438125E+006, -9.79997107545E-001, +2.62670205822E+002
+1.24375437813E+006, -1.02089705128E+000, +2.64327801696E+002
+1.25000437500E+006, -1.08819230123E+000, +2.66007536520E+002
+1.25625437188E+006, -1.14123382845E+000, +2.67663904133E+002
+1.26250436875E+006, -1.17549774048E+000, +2.69335042799E+002
+1.26875436562E+006, -1.08385885741E+000, +2.71059661025E+002
+1.27500436250E+006, -1.12043277473E+000, +2.72749106959E+002
+1.28125435938E+006, -1.15178464047E+000, +2.74432166123E+002
+1.28750435625E+006, -1.19299015082E+000, +2.76143026121E+002
+1.29375435312E+006, -1.22235873328E+000, +2.77839443266E+002
+1.30000435000E+006, -1.26126257506E+000, +2.79556881790E+002
+1.30625434688E+006, -1.16342102356E+000, +2.81335321125E+002
+1.31250434375E+006, -1.22001962626E+000, +2.83063335349E+002
+1.31875434063E+006, -1.24664730229E+000, +2.84802886316E+002
+1.32500433750E+006, -1.27762675896E+000, +2.86539539739E+002
+1.33125433437E+006, -1.33570700769E+000, +2.88301205263E+002
+1.33750433125E+006, -1.36361848462E+000, +2.90033026236E+002
+1.34375432813E+006, -1.24902402726E+000, +2.91852369472E+002
+1.35000432500E+006, -1.28630667827E+000, +2.93602554085E+002
+1.35625432187E+006, -1.33474990263E+000, +2.95370875214E+002
+1.36250431875E+006, -1.38057679454E+000, +2.97175347963E+002
+1.36875431563E+006, -1.41278630698E+000, +2.98953116187E+002
+1.37500431250E+006, -1.45249142769E+000, +3.00747756365E+002
+1.38125430938E+006, -1.33693630795E+000, +3.02598847723E+002
+1.38750430625E+006, -1.38574980365E+000, +3.04427050084E+002
+1.39375430312E+006, -1.43207160051E+000, +3.06237657615E+002
+1.40000430000E+006, -1.47301750722E+000, +3.08065352598E+002
+1.40625429688E+006, -1.51562741500E+000, +3.09883433972E+002
+1.41250429375E+006, -1.39432373094E+000, +3.11779044589E+002
+1.41875429062E+006, -1.45145376960E+000, +3.13648385756E+002
+1.42500428750E+006, -1.50389696086E+000, +3.15501875269E+002
+1.43125428438E+006, -1.55304594424E+000, +3.17370843945E+002
+1.43750428125E+006, -1.60217801628E+000, +3.19239988886E+002
+1.44375427813E+006, -1.63653214933E+000, +3.21108129570E+002
+1.45000427500E+006, -1.48888526296E+000, +3.23051343452E+002
+1.45625427187E+006, -1.53466984531E+000, +3.24950960961E+002
+1.46250426875E+006, -1.60378891692E+000, +3.26871037728E+002
+1.46875426563E+006, -1.67328364441E+000, +3.28748025838E+002
+1.47500426250E+006, -1.73881300617E+000, +3.30674319961E+002
+1.48125425937E+006, -1.79732569903E+000, +3.32609985181E+002
+1.48750425625E+006, -1.85408353746E+000, +3.34561340580E+002
+1.49375425313E+006, -1.70796302279E+000, +3.36579849084E+002
+1.50000425000E+006, -1.75974844598E+000, +3.38543498898E+002
+1.50625424688E+006, -1.80944176455E+000, +3.40519787905E+002
+1.51250424375E+006, -1.86716433475E+000, +3.42488927494E+002
+1.51875424062E+006, -1.91799499341E+000, +3.44471042982E+002
+1.52500423750E+006, -1.98565709753E+000, +3.46497542252E+002
+1.53125423438E+006, -2.02191960991E+000, +3.48495841242E+002
+1.53750423125E+006, -2.09363288699E+000, +3.50506151799E+002
+1.54375422812E+006, -1.91915132150E+000, +3.52629784974E+002
+1.55000422500E+006, -1.97648753002E+000, +3.54661184219E+002
+1.55625422188E+006, -2.02515724233E+000, +3.56711377119E+002
+1.56250421875E+006, -1.98056012868E+000, +3.58733193521E+002
+1.56875421563E+006, -2.08369755037E+000, +3.60788002145E+002
+1.57500421250E+006, -2.14699083313E+000, +3.62874581508E+002
+1.58125420937E+006, -2.20995117343E+000, +3.64967134306E+002
+1.58750420625E+006, -2.05249283357E+000, +3.67127125429E+002
+1.59375420313E+006, -2.11248013407E+000, +3.69229857337E+002
+1.60000420000E+006, -2.17282523330E+000, +3.71346032524E+002
+1.60625419687E+006, -2.21801240277E+000, +3.73478441022E+002
+1.61250419375E+006, -2.29197444894E+000, +3.75607922067E+002
+1.61875419063E+006, -2.34959248128E+000, +3.77781747900E+002
+1.62500418750E+006, -2.41670314665E+000, +3.79933075021E+002
+1.63125418438E+006, -2.49205497464E+000, +3.82103656641E+002
+1.63750418125E+006, -2.27800929190E+000, +3.84381826910E+002
+1.64375417812E+006, -2.36243653516E+000, +3.86582183083E+002
+1.65000417500E+006, -2.41485766777E+000, +3.88809117317E+002
+1.65625417188E+006, -2.49490875243E+000, +3.91002736649E+002
+1.66250416875E+006, -2.56004581588E+000, +3.93261595880E+002
+1.66875416562E+006, -2.61743235449E+000, +3.95501788699E+002
+1.67500416250E+006, -2.67926368070E+000, +3.97764862368E+002
+1.68125415938E+006, -2.78379390193E+000, +4.00051922630E+002
+1.68750415625E+006, -2.52495218171E+000, +4.02356261728E+002
+1.69375415313E+006, -2.61383300814E+000, +4.04689510597E+002
+1.70000415000E+006, -2.66317478168E+000, +4.06968418706E+002
+1.70625414687E+006, -2.72955846143E+000, +4.09298023393E+002
+1.71250414375E+006, -2.33942782303E+000, +4.11742288507E+002
+1.71875414063E+006, -2.41719344989E+000, +4.14085640032E+002
+1.72500413750E+006, -2.49234525967E+000, +4.16458055741E+002
+1.73125413437E+006, -2.56946216705E+000, +4.18835810319E+002
+1.73750413125E+006, -2.32351394951E+000, +4.21296170926E+002
+1.74375412813E+006, -2.41121889205E+000, +4.23699570658E+002
+1.75000412500E+006, -2.44097873080E+000, +4.26112427508E+002
+1.75625412188E+006, -2.55765495802E+000, +4.28539702459E+002
+1.76250411875E+006, -2.61246920035E+000, +4.30998391604E+002
+1.76875411562E+006, -2.68234389706E+000, +4.33421067003E+002
+1.77500411250E+006, -2.42425505090E+000, +4.35981217961E+002
+1.78125410938E+006, -2.48857738831E+000, +4.38447649040E+002
+1.78750410625E+006, -2.54488900630E+000, +4.40947990124E+002
+1.79375410312E+006, -2.59117773290E+000, +4.43455929810E+002
+1.80000410000E+006, -2.69849243194E+000, +4.45985033654E+002
+1.80625409688E+006, -2.76678743070E+000, +4.48556057153E+002
+1.81250409375E+006, -2.85638858512E+000, +4.51080692505E+002
+1.81875409063E+006, -2.60853180098E+000, +4.53728174081E+002
+1.82500408750E+006, -2.65805666806E+000, +4.56335663745E+002
+1.83125408437E+006, -2.73430437890E+000, +4.58927619253E+002
+1.83750408125E+006, -2.80422324605E+000, +4.61525117576E+002
+1.84375407813E+006, -2.90720578017E+000, +4.64180198717E+002
+1.85000407500E+006, -2.99064469856E+000, +4.66812828432E+002
+1.85625407187E+006, -2.64438543922E+000, +4.69608777660E+002
+1.86250406875E+006, -2.72757042201E+000, +4.72255827453E+002
+1.86875406563E+006, -2.81396419356E+000, +4.74987417942E+002
+1.87500406250E+006, -2.75642847181E+000, +4.77755094871E+002
+1.88125405938E+006, -2.84778495924E+000, +4.80457615790E+002
+1.88750405625E+006, -2.90969303543E+000, +4.83196794403E+002
+1.89375405312E+006, -3.05442363074E+000, +4.86010354793E+002
+1.90000405000E+006, -2.70368867996E+000, +4.88879037720E+002
+1.90625404688E+006, -2.78440836782E+000, +4.91701838885E+002
+1.91250404375E+006, -2.90715175704E+000, +4.94573545402E+002
+1.91875404062E+006, -2.97064445897E+000, +4.97389086097E+002
+1.92500403750E+006, -3.03518647850E+000, +5.00209644965E+002
+1.93125403438E+006, -3.18363883341E+000, +5.03100487180E+002
+1.93750403125E+006, -3.24890344438E+000, +5.05998868616E+002
+1.94375402813E+006, -3.39223721617E+000, +5.08938702418E+002
+1.95000402500E+006, -2.99238394351E+000, +5.11989437942E+002
+1.95625402187E+006, -3.06036886801E+000, +5.14947449836E+002
+1.96250401875E+006, -3.20246953938E+000, +5.17907306052E+002
+1.96875401563E+006, -3.28287001229E+000, +5.20915599405E+002
+1.97500401250E+006, -2.69675518609E+000, +5.24080678496E+002
+1.98125400937E+006, -2.80294351288E+000, +5.27098900626E+002
+1.98750400625E+006, -2.95394241606E+000, +5.30155168810E+002
+1.99375400313E+006, -2.49528308062E+000, +5.33344334720E+002
+2.00000400000E+006, -2.64018881136E+000, +5.36449065384E+002
