"# Channel 1"
"# Trace 1"
Frequency, Formatted Data, Formatted Data
+5.00000000000E+000, -9.95058354687E-001, -1.01545637551E-003
+6.25499687500E+003, -9.88588088972E-001, +4.56914572897E-002
+1.25049937500E+004, -9.85290351918E-001, +9.22749856697E-002
+1.87549906250E+004, -9.79445792859E-001, +1.38394588714E-001
+2.50049875000E+004, -9.71500110336E-001, +1.83940633205E-001
+3.12549843750E+004, -9.61553798848E-001, +2.28817003953E-001
+3.75049812500E+004, -9.49729595568E-001, +2.72873026797E-001
+4.37549781250E+004, -9.36112476275E-001, +3.16050780332E-001
+5.00049750000E+004, -9.20816720032E-001, +3.58394847668E-001
+5.62549718750E+004, -9.03744650916E-001, +3.99589698308E-001
+6.25049687500E+004, -8.85094573536E-001, +4.39606133863E-001
+6.87549656250E+004, -8.64902652434E-001, +4.78414733993E-001
+7.50049625000E+004, -8.43301534160E-001, +5.16056179181E-001
+8.12549593750E+004, -8.20395050604E-001, +5.52152654940E-001
+8.75049562500E+004, -7.96212752099E-001, +5.86928969670E-001
+9.37549531250E+004, -7.70689978022E-001, +6.20730541746E-001
+1.00004950000E+005, -7.44393310946E-001, +6.52446611238E-001
+1.06254946875E+005, -7.17168513232E-001, +6.82711671462E-001
+1.12504943750E+005, -6.89224027971E-001, +7.11244629573E-001
+1.18754940625E+005, -6.60576757094E-001, +7.38305531783E-001
+1.25004937500E+005, -6.31422029037E-001, +7.63764521734E-001
+1.31254934375E+005, -6.01814645438E-001, +7.87640006345E-001
+1.37504931250E+005, -5.71766891566E-001, +8.10057797878E-001
+1.43754928125E+005, -5.41593017289E-001, +8.30815505525E-001
+1.50004925000E+005, -5.11219612872E-001, +8.50177871418E-001
+1.56254921875E+005, -4.80743345879E-001, +8.68002662405E-001
+1.62504918750E+005, -4.50323668574E-001, +8.84454894175E-001
+1.68754915625E+005, -4.19813121133E-001, +8.99588249445E-001
+1.75004912500E+005, -3.89675306309E-001, +9.13316773131E-001
+1.81254909375E+005, -3.59596885571E-001, +9.25801874329E-001
+1.87504906250E+005, -3.29880684405E-001, +9.36989752274E-001
+1.93754903125E+005, -3.00414544981E-001, +9.47046059107E-001
+2.00004900000E+005, -2.71281807711E-001, +9.56022841504E-001
+2.06254896875E+005, -2.42599795903E-001, +9.63910223884E-001
+2.12504893750E+005, -2.14307814580E-001, +9.70785543649E-001
+2.18754890625E+005, -1.86301204803E-001, +9.76710908651E-001
+2.25004887500E+005, -1.58997692582E-001, +9.81725663747E-001
+2.31254884375E+005, -1.31997012299E-001, +9.85862351427E-001
+2.37504881250E+005, -1.05698233240E-001, +9.89250100552E-001
+2.43754878125E+005, -7.97352045375E-002, +9.91802403243E-001
+2.50004875000E+005, -5.43386924793E-002, +9.93663073183E-001
+2.56254871875E+005, -2.94839194541E-002, +9.94848462234E-001
+2.62504868750E+005, -5.36771661805E-003, +9.95466382167E-001
+2.68754865625E+005, +1.83772325295E-002, +9.95472044979E-001
+2.75004862500E+005, +4.15463166374E-002, +9.94896222227E-001
+2.81254859375E+005, +6.43517252211E-002, +9.93762817726E-001
+2.87504856250E+005, +8.64380180242E-002, +9.92200382088E-001
+2.93754853125E+005, +1.08123893507E-001, +9.90135274587E-001
+3.00004850000E+005, +1.29263394955E-001, +9.87629293198E-001
+3.06254846875E+005, +1.49710054322E-001, +9.84878264950E-001
+3.12504843750E+005, +1.69634905031E-001, +9.81780541265E-001
+3.18754840625E+005, +1.89187011259E-001, +9.78220481979E-001
+3.25004837500E+005, +2.08070298864E-001, +9.74500620421E-001
+3.31254834375E+005, +2.26446902721E-001, +9.70517014608E-001
+3.37504831250E+005, +2.44350739767E-001, +9.66282375072E-001
+3.43754828125E+005, +2.61921912182E-001, +9.61712239193E-001
+3.50004825000E+005, +2.78858069189E-001, +9.57021388743E-001
+3.56254821875E+005, +2.95349242619E-001, +9.52194440765E-001
+3.62504818750E+005, +3.11416068287E-001, +9.47171829529E-001
+3.68754815625E+005, +3.27168605672E-001, +9.41838813029E-001
+3.75004812500E+005, +3.42359525835E-001, +9.36553017965E-001
+3.81254809375E+005, +3.57158120968E-001, +9.31164697842E-001
+3.87504806250E+005, +3.71540558836E-001, +9.25634981909E-001
+3.93754803125E+005, +3.85605730690E-001, +9.19870605728E-001
+4.00004800000E+005, +3.99224394393E-001, +9.14170203062E-001
+4.06254796875E+005, +4.12458379103E-001, +9.08381897695E-001
+4.12504793750E+005, +4.25400040867E-001, +9.02389816319E-001
+4.18754790625E+005, +4.37915474606E-001, +8.96475863936E-001
+4.25004787500E+005, +4.50110671070E-001, +8.90534972922E-001
+4.31254784375E+005, +4.62039644818E-001, +8.84390459511E-001
+4.37504781250E+005, +4.73575610555E-001, +8.78390971296E-001
+4.43754778125E+005, +4.84783315354E-001, +8.72374627064E-001
+4.50004775000E+005, +4.95802021829E-001, +8.66118899320E-001
+4.56254771875E+005, +5.06422526727E-001, +8.60093796211E-001
+4.62504768750E+005, +5.16760788186E-001, +8.54033426035E-001
+4.68754765625E+005, +5.26828341399E-001, +8.47951072512E-001
+4.75004762500E+005, +5.36675457233E-001, +8.41730322961E-001
+4.81254759375E+005, +5.46207075298E-001, +8.35692456523E-001
+4.87504756250E+005, +5.55527600602E-001, +8.29612507707E-001
+4.93754753125E+005, +5.64562176814E-001, +8.23607578747E-001
+5.00004750000E+005, +5.73424701953E-001, +8.17433272498E-001
+5.06254746875E+005, +5.81992064892E-001, +8.11475910117E-001
+5.12504743750E+005, +5.90389828157E-001, +8.05335411165E-001
+5.18754740625E+005, +5.98520541803E-001, +7.99410204978E-001
+5.25004737500E+005, +6.06472621140E-001, +7.93465846953E-001
+5.31254734375E+005, +6.14228273002E-001, +7.87452264050E-001
+5.37504731250E+005, +6.21770735767E-001, +7.81619457130E-001
+5.43754728125E+005, +6.29134521941E-001, +7.75840724844E-001
+5.50004725000E+005, +6.36284011951E-001, +7.70081559381E-001
+5.56254721875E+005, +6.43261043111E-001, +7.64390077798E-001
+5.62504718750E+005, +6.50102517966E-001, +7.58685284814E-001
+5.68754715625E+005, +6.56719609450E-001, +7.53037958838E-001
+5.75004712500E+005, +6.63212965591E-001, +7.47216911587E-001
+5.81254709375E+005, +6.69551034022E-001, +7.41502737378E-001
+5.87504706250E+005, +6.75710979320E-001, +7.36000589160E-001
+5.93754703125E+005, +6.81733486672E-001, +7.30550194643E-001
+6.00004700000E+005, +6.87608296900E-001, +7.25132935517E-001
+6.06254696875E+005, +6.93326424601E-001, +7.19758084653E-001
+6.12504693750E+005, +6.98917870811E-001, +7.14252315365E-001
+6.18754690625E+005, +7.04383975919E-001, +7.08956844447E-001
+6.25004687500E+005, +7.09712715892E-001, +7.03666156023E-001
+6.31254684375E+005, +7.14925320424E-001, +6.98496751898E-001
+6.37504681250E+005, +7.20013197056E-001, +6.93363374461E-001
+6.43754678125E+005, +7.24958487973E-001, +6.88069356918E-001
+6.50004675000E+005, +7.29816699566E-001, +6.83004927390E-001
+6.56254671875E+005, +7.34560527691E-001, +6.78033921991E-001
+6.62504668750E+005, +7.39205087868E-001, +6.73046903594E-001
+6.68754665625E+005, +7.43731782556E-001, +6.68140920489E-001
+6.75004662500E+005, +7.48163309235E-001, +6.63280728401E-001
+6.81254659375E+005, +7.52450367128E-001, +6.58268816291E-001
+6.87504656250E+005, +7.56686550462E-001, +6.53494017732E-001
+6.93754653125E+005, +7.60835446489E-001, +6.48777926946E-001
+7.00004650000E+005, +7.64881092185E-001, +6.44079930199E-001
+7.06254646875E+005, +7.68843702068E-001, +6.39447595228E-001
+7.12504643750E+005, +7.72676198721E-001, +6.34657816286E-001
+7.18754640625E+005, +7.76453737654E-001, +6.30123731172E-001
+7.25004637500E+005, +7.80178275843E-001, +6.25605738728E-001
+7.31254634375E+005, +7.83819671719E-001, +6.21161906060E-001
+7.37504631250E+005, +7.87824360021E-001, +6.18218558934E-001
+7.43754628125E+005, +7.91305913783E-001, +6.13787223417E-001
+7.50004625000E+005, +7.94670223682E-001, +6.09227287125E-001
+7.56254621875E+005, +7.97972830713E-001, +6.04865066569E-001
+7.62504618750E+005, +8.01233654626E-001, +6.00572349287E-001
+7.68754615625E+005, +8.04426092108E-001, +5.96291657586E-001
+7.75004612500E+005, +8.07523124727E-001, +5.91896615858E-001
+7.81254609375E+005, +8.10585251876E-001, +5.87704904299E-001
+7.87504606250E+005, +8.13592303970E-001, +5.83656059237E-001
+7.93754603125E+005, +8.16528717203E-001, +5.79567017829E-001
+8.00004600000E+005, +8.19420547974E-001, +5.75496024008E-001
+8.06254596875E+005, +8.22254223677E-001, +5.71470712074E-001
+8.12504593750E+005, +8.25011783589E-001, +5.67494854484E-001
+8.18754590625E+005, +8.27627786979E-001, +5.63392231277E-001
+8.25004587500E+005, +8.30272872320E-001, +5.59495969627E-001
+8.31254584375E+005, +8.32873097872E-001, +5.55659644049E-001
+8.37504581250E+005, +8.35417913130E-001, +5.51815286189E-001
+8.43754578125E+005, +8.37875022442E-001, +5.48054747721E-001
+8.50004575000E+005, +8.40356792103E-001, +5.44290331666E-001
+8.56254571875E+005, +8.42753182661E-001, +5.40583616499E-001
+8.62504568750E+005, +8.45110901553E-001, +5.36906700915E-001
+8.68754565625E+005, +8.47449144253E-001, +5.33278438357E-001
+8.75004562500E+005, +8.49703160961E-001, +5.29687233993E-001
+8.81254559375E+005, +8.51868943483E-001, +5.25954893122E-001
+8.87504556250E+005, +8.54066072567E-001, +5.22429267161E-001
+8.93754553125E+005, +8.56211016006E-001, +5.18914541083E-001
+9.00004550000E+005, +8.58291149722E-001, +5.15464134106E-001
+9.06254546875E+005, +8.60356945036E-001, +5.12022371164E-001
+9.12504543750E+005, +8.62358690056E-001, +5.08591134499E-001
+9.18754540625E+005, +8.64367381222E-001, +5.05238040446E-001
+9.25004537500E+005, +8.66306420531E-001, +5.01907140010E-001
+9.31254534375E+005, +8.68233014963E-001, +4.98613665583E-001
+9.37504531250E+005, +8.70133294028E-001, +4.95359410681E-001
+9.43754528125E+005, +8.71973921072E-001, +4.92121559687E-001
+9.50004525000E+005, +8.73784957618E-001, +4.88931394996E-001
+9.56254521875E+005, +8.75558600127E-001, +4.85745185782E-001
+9.62504518750E+005, +8.77325808834E-001, +4.82607370400E-001
+9.68754515625E+005, +8.79059279929E-001, +4.79470437902E-001
+9.75004512500E+005, +8.80638070826E-001, +4.76264057532E-001
+9.81254509375E+005, +8.82303762463E-001, +4.73189116057E-001
+9.87504506250E+005, +8.83963898087E-001, +4.70149793967E-001
+9.93754503125E+005, +8.85568710710E-001, +4.67132637934E-001
+1.00000450000E+006, +8.87160638651E-001, +4.64175922764E-001
+1.00625449688E+006, +8.88698269800E-001, +4.61214729396E-001
+1.01250449375E+006, +8.90229859044E-001, +4.58289138955E-001
+1.01875449063E+006, +8.91742338776E-001, +4.55399113121E-001
+1.02500448750E+006, +8.93218403999E-001, +4.52517665743E-001
+1.03125448438E+006, +8.94661241112E-001, +4.49668124569E-001
+1.03750448125E+006, +8.96099786691E-001, +4.46876750715E-001
+1.04375447813E+006, +8.97458710318E-001, +4.43999092829E-001
+1.05000447500E+006, +8.98851274672E-001, +4.41243250663E-001
+1.05625447188E+006, +9.00216065516E-001, +4.38499872155E-001
+1.06250446875E+006, +9.01562007982E-001, +4.35787737761E-001
+1.06875446563E+006, +9.02749884765E-001, +4.32945802266E-001
+1.07500446250E+006, +9.04061794629E-001, +4.30294384380E-001
+1.08125445937E+006, +9.05329477244E-001, +4.27644811026E-001
+1.08750445625E+006, +9.06591288018E-001, +4.25003666468E-001
+1.09375445313E+006, +9.07820272853E-001, +4.22424273078E-001
+1.10000445000E+006, +9.09057240554E-001, +4.19829710207E-001
+1.10625444687E+006, +9.10248353331E-001, +4.17285689998E-001
+1.11250444375E+006, +9.11445576664E-001, +4.14745148766E-001
+1.11875444063E+006, +9.12472234389E-001, +4.12106500232E-001
+1.12500443750E+006, +9.13622534818E-001, +4.09605824660E-001
+1.13125443438E+006, +9.14742060443E-001, +4.07142211262E-001
+1.13750443125E+006, +9.15864989066E-001, +4.04685278575E-001
+1.14375442812E+006, +9.17063075974E-001, +4.02383052995E-001
+1.15000442500E+006, +9.18138737782E-001, +3.99990742050E-001
+1.15625442188E+006, +9.19229959963E-001, +3.97604646737E-001
+1.16250441875E+006, +9.20127483368E-001, +3.95109141816E-001
+1.16875441562E+006, +9.21142600558E-001, +3.92767799141E-001
+1.17500441250E+006, +9.22185761049E-001, +3.90427670510E-001
+1.18125440938E+006, +9.23183868695E-001, +3.88103817036E-001
+1.18750440625E+006, +9.24181520571E-001, +3.85810787694E-001
+1.19375440313E+006, +9.25151838711E-001, +3.83537912029E-001
+1.20000440000E+006, +9.25962174035E-001, +3.81142674112E-001
+1.20625439687E+006, +9.26911643265E-001, +3.78899329953E-001
+1.21250439375E+006, +9.27843087129E-001, +3.76688773489E-001
+1.21875439063E+006, +9.28769776156E-001, +3.74471584964E-001
+1.22500438750E+006, +9.29672910702E-001, +3.72290556373E-001
+1.23125438437E+006, +9.30564718606E-001, +3.70119114727E-001
+1.23750438125E+006, +9.31322805761E-001, +3.67842085632E-001
+1.24375437813E+006, +9.32191738311E-001, +3.65723437604E-001
+1.25000437500E+006, +9.33130651274E-001, +3.63603457251E-001
+1.25625437188E+006, +9.33975321424E-001, +3.61513970375E-001
+1.26250436875E+006, +9.34802206309E-001, +3.59422891628E-001
+1.26875436562E+006, +9.35503604965E-001, +3.57237210884E-001
+1.27500436250E+006, +9.36312278346E-001, +3.55194729248E-001
+1.28125435938E+006, +9.37103809369E-001, +3.53159342841E-001
+1.28750435625E+006, +9.37912946857E-001, +3.51124940925E-001
+1.29375435312E+006, +9.38690082776E-001, +3.49113561950E-001
+1.30000435000E+006, +9.39445454204E-001, +3.47121006464E-001
+1.30625434688E+006, +9.40084416944E-001, +3.45028917435E-001
+1.31250434375E+006, +9.40838738226E-001, +3.43050923942E-001
+1.31875434063E+006, +9.41593255422E-001, +3.41101607401E-001
+1.32500433750E+006, +9.42305125747E-001, +3.39150861052E-001
+1.33125433437E+006, +9.43036681052E-001, +3.37228949326E-001
+1.33750433125E+006, +9.43740830233E-001, +3.35327118989E-001
+1.34375432813E+006, +9.44288728520E-001, +3.33312335267E-001
+1.35000432500E+006, +9.44977176091E-001, +3.31440952028E-001
+1.35625432187E+006, +9.45673899342E-001, +3.29570937853E-001
+1.36250431875E+006, +9.46363615297E-001, +3.27702674838E-001
+1.36875431563E+006, +9.47018172391E-001, +3.25854626114E-001
+1.37500431250E+006, +9.47684957242E-001, +3.24030333989E-001
+1.38125430938E+006, +9.48169515126E-001, +3.22108380254E-001
+1.38750430625E+006, +9.48819698871E-001, +3.20299576185E-001
+1.39375430312E+006, +9.49445880007E-001, +3.18490739105E-001
+1.40000430000E+006, +9.50065535251E-001, +3.16715694958E-001
+1.40625429688E+006, +9.50688742425E-001, +3.14955370644E-001
+1.41250429375E+006, +9.51149850597E-001, +3.13096448860E-001
+1.41875429062E+006, +9.51776124159E-001, +3.11339709979E-001
+1.42500428750E+006, +9.52354271493E-001, +3.09610917184E-001
+1.43125428438E+006, +9.52963130621E-001, +3.07893547261E-001
+1.43750428125E+006, +9.53539034438E-001, +3.06177404237E-001
+1.44375427813E+006, +9.54101707566E-001, +3.04469527266E-001
+1.45000427500E+006, +9.54526541922E-001, +3.02685771203E-001
+1.45625427187E+006, +9.55077228613E-001, +3.01012888364E-001
+1.46250426875E+006, +9.55623541149E-001, +2.99342713479E-001
+1.46875426563E+006, +9.56210291256E-001, +2.97714124701E-001
+1.47500426250E+006, +9.56758137646E-001, +2.96083814693E-001
+1.48125425937E+006, +9.57302110134E-001, +2.94436923317E-001
+1.48750425625E+006, +9.57845601982E-001, +2.92793531658E-001
+1.49375425313E+006, +9.58202869896E-001, +2.91104856645E-001
+1.50000425000E+006, +9.58722843440E-001, +2.89489977704E-001
+1.50625424688E+006, +9.59237053263E-001, +2.87874978706E-001
+1.51250424375E+006, +9.59730381456E-001, +2.86288629043E-001
+1.51875424062E+006, +9.60234158230E-001, +2.84719918235E-001
+1.52500423750E+006, +9.60721957703E-001, +2.83138175572E-001
+1.53125423438E+006, +9.61202949086E-001, +2.81584794007E-001
+1.53750423125E+006, +9.61679335056E-001, +2.80038137654E-001
+1.54375422812E+006, +9.62009559644E-001, +2.78401598164E-001
+1.55000422500E+006, +9.62473772622E-001, +2.76857852213E-001
+1.55625422188E+006, +9.62918498927E-001, +2.75331464360E-001
+1.56250421875E+006, +9.63306229054E-001, +2.73821133847E-001
+1.56875421563E+006, +9.63774088389E-001, +2.72339993531E-001
+1.57500421250E+006, +9.64237543464E-001, +2.70833294513E-001
+1.58125420937E+006, +9.64679899637E-001, +2.69358552465E-001
+1.58750420625E+006, +9.64984945321E-001, +2.67803721596E-001
+1.59375420313E+006, +9.65418456187E-001, +2.66324659011E-001
+1.60000420000E+006, +9.65850075440E-001, +2.64872942455E-001
+1.60625419687E+006, +9.66259058081E-001, +2.63416359639E-001
+1.61250419375E+006, +9.66702646149E-001, +2.61966943938E-001
+1.61875419063E+006, +9.67112696271E-001, +2.60528122087E-001
+1.62500418750E+006, +9.67535772956E-001, +2.59117782265E-001
+1.63125418438E+006, +9.67938360437E-001, +2.57691983895E-001
+1.63750418125E+006, +9.68162683400E-001, +2.56182329817E-001
+1.64375417812E+006, +9.68552799245E-001, +2.54785454491E-001
+1.65000417500E+006, +9.68949495986E-001, +2.53382860805E-001
+1.65625417188E+006, +9.69337213766E-001, +2.52006818780E-001
+1.66250416875E+006, +9.69744908620E-001, +2.50627306727E-001
+1.66875416562E+006, +9.70112800161E-001, +2.49242592802E-001
+1.67500416250E+006, +9.70475335668E-001, +2.47867476020E-001
+1.68125415938E+006, +9.70861341087E-001, +2.46503195085E-001
+1.68750415625E+006, +9.71049792725E-001, +2.45092359594E-001
+1.69375415313E+006, +9.71421088106E-001, +2.43741657057E-001
+1.70000415000E+006, +9.71768031233E-001, +2.42406454647E-001
+1.70625414687E+006, +9.72131624567E-001, +2.41064219022E-001
+1.71250414375E+006, +9.72206457817E-001, +2.39635628001E-001
+1.71875414063E+006, +9.72568796058E-001, +2.38327668216E-001
+1.72500413750E+006, +9.72906607306E-001, +2.37004783367E-001
+1.73125413437E+006, +9.73264545416E-001, +2.35699110101E-001
+1.73750413125E+006, +9.73433606977E-001, +2.34343192422E-001
+1.74375412813E+006, +9.73771717194E-001, +2.33042382702E-001
+1.75000412500E+006, +9.74086712710E-001, +2.31754843686E-001
+1.75625412188E+006, +9.74434315091E-001, +2.30498239479E-001
+1.76250411875E+006, +9.74771209013E-001, +2.29218000216E-001
+1.76875411562E+006, +9.75065983264E-001, +2.27978282007E-001
+1.77500411250E+006, +9.75219136567E-001, +2.26656466251E-001
+1.78125410938E+006, +9.75544535029E-001, +2.25394549933E-001
+1.78750410625E+006, +9.75841954662E-001, +2.24157733865E-001
+1.79375410312E+006, +9.76154084876E-001, +2.22931800456E-001
+1.80000410000E+006, +9.76453677989E-001, +2.21703512514E-001
+1.80625409688E+006, +9.76730613211E-001, +2.20472148837E-001
+1.81250409375E+006, +9.77035103773E-001, +2.19263153532E-001
+1.81875409063E+006, +9.77184446258E-001, +2.17978423210E-001
+1.82500408750E+006, +9.77468554002E-001, +2.16770076084E-001
+1.83125408437E+006, +9.77777740149E-001, +2.15586047815E-001
+1.83750408125E+006, +9.78048032570E-001, +2.14394159102E-001
+1.84375407813E+006, +9.78338884325E-001, +2.13194765978E-001
+1.85000407500E+006, +9.78601971604E-001, +2.12039120744E-001
+1.85625407187E+006, +9.78717290382E-001, +2.10777629174E-001
+1.86250406875E+006, +9.78988093366E-001, +2.09612930860E-001
+1.86875406563E+006, +9.79258346992E-001, +2.08447595741E-001
+1.87500406250E+006, +9.79478301741E-001, +2.07273650808E-001
+1.88125405938E+006, +9.79748667209E-001, +2.06131950232E-001
+1.88750405625E+006, +9.80011960113E-001, +2.04973964218E-001
+1.89375405312E+006, +9.80269236688E-001, +2.03828138068E-001
+1.90000405000E+006, +9.80365500909E-001, +2.02622187732E-001
+1.90625404688E+006, +9.80620292878E-001, +2.01477339073E-001
+1.91250404375E+006, +9.80901034209E-001, +2.00350048941E-001
+1.91875404062E+006, +9.81121918767E-001, +1.99249210349E-001
+1.92500403750E+006, +9.81374810765E-001, +1.98141838701E-001
+1.93125403438E+006, +9.81631158728E-001, +1.97031084308E-001
+1.93750403125E+006, +9.81876565366E-001, +1.95910602757E-001
+1.94375402813E+006, +9.82111147987E-001, +1.94813719994E-001
+1.95000402500E+006, +9.82180596002E-001, +1.93655041360E-001
+1.95625402187E+006, +9.82415250306E-001, +1.92558891849E-001
+1.96250401875E+006, +9.82659984194E-001, +1.91486316191E-001
+1.96875401563E+006, +9.82890461805E-001, +1.90400356809E-001
+1.97500401250E+006, +9.82885582057E-001, +1.89232700778E-001
+1.98125400937E+006, +9.83130142983E-001, +1.88174756172E-001
+1.98750400625E+006, +9.83359149688E-001, +1.87112716694E-001
+1.99375400313E+006, +9.83406639967E-001, +1.85976219460E-001
+2.00000400000E+006, +9.83636337046E-001, +1.84927697309E-001
