!Keysight Technologies,E5061B,MY49912438,B.06.30
!Date: Thu Nov 06 19:18:03 2025
!Data & Calibration Information:
!Freq	S11:SOLT1(ON)
# Hz S MA R 50
5.000	9.952353e-001	-1.799517e+002
6254.997	9.895930e-001	1.773543e+002
12504.994	9.895591e-001	1.746500e+002
18754.991	9.891242e-001	1.719579e+002
25004.987	9.887187e-001	1.692792e+002
31254.984	9.883580e-001	1.666140e+002
37504.981	9.881116e-001	1.639692e+002
43754.978	9.879802e-001	1.613437e+002
50004.975	9.880491e-001	1.587322e+002
56254.972	9.880912e-001	1.561460e+002
62504.969	9.882003e-001	1.535855e+002
68754.966	9.883432e-001	1.510501e+002
75004.962	9.886073e-001	1.485348e+002
81254.959	9.888399e-001	1.460567e+002
87504.956	9.891169e-001	1.436029e+002
93754.953	9.895247e-001	1.411493e+002
100004.950	9.898058e-001	1.387649e+002
106254.947	9.901019e-001	1.364084e+002
112504.944	9.903418e-001	1.340979e+002
118754.941	9.906232e-001	1.318192e+002
125004.938	9.909033e-001	1.295798e+002
131254.934	9.911743e-001	1.273814e+002
137504.931	9.914599e-001	1.252150e+002
143754.928	9.917072e-001	1.230988e+002
150004.925	9.919846e-001	1.210181e+002
156254.922	9.921922e-001	1.189783e+002
162504.919	9.924410e-001	1.169805e+002
168754.916	9.926843e-001	1.150143e+002
175004.913	9.929094e-001	1.131048e+002
181254.909	9.931356e-001	1.112257e+002
187504.906	9.933240e-001	1.093941e+002
193754.903	9.935258e-001	1.075973e+002
200004.900	9.937321e-001	1.058405e+002
206254.897	9.939263e-001	1.041248e+002
212504.894	9.941182e-001	1.024471e+002
218754.891	9.942848e-001	1.007977e+002
225004.887	9.944714e-001	9.919835e+001
231254.884	9.946229e-001	9.762381e+001
237504.881	9.948414e-001	9.609788e+001
243754.878	9.949549e-001	9.459519e+001
250004.875	9.950927e-001	9.312893e+001
256254.872	9.952424e-001	9.169674e+001
262504.869	9.954360e-001	9.030737e+001
268754.866	9.956100e-001	8.894154e+001
275004.862	9.957183e-001	8.760733e+001
281254.859	9.958051e-001	8.629370e+001
287504.856	9.959156e-001	8.501972e+001
293754.853	9.959719e-001	8.376668e+001
300004.850	9.960344e-001	8.254142e+001
306254.847	9.961603e-001	8.135502e+001
312504.844	9.962992e-001	8.019565e+001
318754.841	9.963202e-001	7.905323e+001
325004.837	9.964299e-001	7.794688e+001
331254.834	9.965621e-001	7.686477e+001
337504.831	9.966752e-001	7.580837e+001
343754.828	9.967248e-001	7.476370e+001
350004.825	9.968015e-001	7.375446e+001
356254.822	9.969294e-001	7.276637e+001
362504.819	9.970276e-001	7.179887e+001
368754.816	9.970185e-001	7.084311e+001
375004.813	9.971383e-001	6.991892e+001
381254.809	9.972860e-001	6.901438e+001
387504.806	9.974001e-001	6.812900e+001
393754.803	9.973962e-001	6.725674e+001
400004.800	9.975117e-001	6.640884e+001
406254.797	9.976144e-001	6.557841e+001
412504.794	9.976093e-001	6.475900e+001
418754.791	9.977092e-001	6.396448e+001
425004.787	9.978218e-001	6.318580e+001
431254.784	9.978080e-001	6.241552e+001
437504.781	9.979038e-001	6.166896e+001
443754.778	9.980027e-001	6.093786e+001
450004.775	9.979649e-001	6.021110e+001
456254.772	9.980927e-001	5.951008e+001
462504.769	9.981793e-001	5.882154e+001
468754.766	9.982682e-001	5.814670e+001
475004.763	9.982374e-001	5.747831e+001
481254.759	9.983543e-001	5.683044e+001
487504.756	9.984023e-001	5.619292e+001
493754.753	9.985234e-001	5.557018e+001
500004.750	9.984835e-001	5.495048e+001
506254.747	9.985858e-001	5.435157e+001
512504.744	9.985502e-001	5.375487e+001
518754.741	9.986455e-001	5.317740e+001
525004.737	9.987010e-001	5.260774e+001
531254.734	9.986731e-001	5.204467e+001
537504.731	9.987525e-001	5.149798e+001
543754.728	9.988522e-001	5.096151e+001
550004.725	9.989295e-001	5.043372e+001
556254.722	9.990243e-001	4.991815e+001
562504.719	9.991097e-001	4.940750e+001
568754.716	9.991653e-001	4.890787e+001
575004.713	9.990963e-001	4.840833e+001
581254.709	9.990624e-001	4.791936e+001
587504.706	9.991395e-001	4.744551e+001
593754.703	9.992239e-001	4.697967e+001
600004.700	9.993053e-001	4.652152e+001
606254.697	9.993767e-001	4.607137e+001
612504.694	9.993059e-001	4.562183e+001
618754.691	9.993707e-001	4.518534e+001
625004.688	9.994254e-001	4.475388e+001
631254.684	9.995062e-001	4.433373e+001
637504.681	9.995824e-001	4.391935e+001
643754.678	9.995096e-001	4.350377e+001
650004.675	9.995649e-001	4.310210e+001
656254.672	9.996532e-001	4.270786e+001
662504.669	9.997127e-001	4.231772e+001
668754.666	9.997793e-001	4.193489e+001
675004.662	9.998506e-001	4.155838e+001
681254.659	9.997661e-001	4.118041e+001
687504.656	9.998297e-001	4.081434e+001
693754.653	9.999020e-001	4.045443e+001
700004.650	9.999443e-001	4.009893e+001
706254.647	1.000001e+000	3.975095e+001
712504.644	9.999115e-001	3.939927e+001
718754.641	9.999740e-001	3.906008e+001
725004.637	1.000036e+000	3.872494e+001
731254.634	1.000100e+000	3.839631e+001
737504.631	1.001430e+000	3.812230e+001
743754.628	1.001463e+000	3.780005e+001
750004.625	1.001327e+000	3.747564e+001
756254.622	1.001333e+000	3.716186e+001
762504.619	1.001353e+000	3.685391e+001
768754.616	1.001359e+000	3.654851e+001
775004.612	1.001237e+000	3.624018e+001
781254.609	1.001243e+000	3.594277e+001
787504.606	1.001307e+000	3.565448e+001
793754.603	1.001329e+000	3.536641e+001
800004.600	1.001348e+000	3.508157e+001
806254.597	1.001367e+000	3.479999e+001
812504.594	1.001379e+000	3.452221e+001
818754.591	1.001213e+000	3.424463e+001
825004.588	1.001214e+000	3.397423e+001
831254.584	1.001235e+000	3.370876e+001
837504.581	1.001236e+000	3.344646e+001
843754.578	1.001223e+000	3.318747e+001
850004.575	1.001240e+000	3.293073e+001
856254.572	1.001263e+000	3.267846e+001
862504.569	1.001269e+000	3.242865e+001
868754.566	1.001289e+000	3.218186e+001
875004.563	1.001295e+000	3.193957e+001
881254.559	1.001180e+000	3.169313e+001
887504.556	1.001189e+000	3.145524e+001
893754.553	1.001211e+000	3.121990e+001
900004.550	1.001237e+000	3.098722e+001
906254.547	1.001217e+000	3.075897e+001
912504.544	1.001194e+000	3.053114e+001
918754.541	1.001234e+000	3.030764e+001
925004.537	1.001241e+000	3.008760e+001
931254.534	1.001261e+000	2.986857e+001
937504.531	1.001279e+000	2.965287e+001
943754.528	1.001302e+000	2.944062e+001
950004.525	1.001314e+000	2.922928e+001
956254.522	1.001313e+000	2.902195e+001
962504.519	1.001350e+000	2.881572e+001
968754.516	1.001365e+000	2.861047e+001
975004.512	1.001209e+000	2.840497e+001
981254.509	1.001235e+000	2.820525e+001
987504.506	1.001241e+000	2.800696e+001
993754.503	1.001272e+000	2.781195e+001
1000004.500	1.001282e+000	2.761896e+001
1006254.497	1.001275e+000	2.742878e+001
1012504.494	1.001308e+000	2.723944e+001
1018754.491	1.001333e+000	2.705252e+001
1025004.487	1.001343e+000	2.686811e+001
1031254.484	1.001349e+000	2.668568e+001
1037504.481	1.001371e+000	2.650565e+001
1043754.478	1.001319e+000	2.632419e+001
1050004.475	1.001351e+000	2.614717e+001
1056254.472	1.001362e+000	2.597098e+001
1062504.469	1.001388e+000	2.579887e+001
1068754.466	1.001233e+000	2.562175e+001
1075004.462	1.001249e+000	2.545311e+001
1081254.459	1.001275e+000	2.528501e+001
1087504.456	1.001285e+000	2.511773e+001
1093754.453	1.001310e+000	2.495378e+001
1100004.450	1.001356e+000	2.478922e+001
1106254.447	1.001341e+000	2.462886e+001
1112504.444	1.001405e+000	2.446779e+001
1118754.441	1.001223e+000	2.430688e+001
1125004.438	1.001268e+000	2.414955e+001
1131254.434	1.001297e+000	2.399318e+001
1137504.431	1.001302e+000	2.383977e+001
1143754.428	1.001471e+000	2.369163e+001
1150004.425	1.001511e+000	2.354112e+001
1156254.422	1.001533e+000	2.339212e+001
1162504.419	1.001377e+000	2.324041e+001
1168754.416	1.001396e+000	2.309457e+001
1175004.412	1.001452e+000	2.294681e+001
1181254.409	1.001465e+000	2.280297e+001
1187504.406	1.001509e+000	2.266002e+001
1193754.403	1.001523e+000	2.251882e+001
1200004.400	1.001361e+000	2.237467e+001
1206254.397	1.001394e+000	2.223501e+001
1212504.394	1.001423e+000	2.209692e+001
1218754.391	1.001453e+000	2.195998e+001
1225004.388	1.001489e+000	2.182480e+001
1231254.384	1.001503e+000	2.169098e+001
1237504.381	1.001372e+000	2.155466e+001
1243754.378	1.001412e+000	2.142261e+001
1250004.375	1.001486e+000	2.129040e+001
1256254.372	1.001540e+000	2.116161e+001
1262504.369	1.001568e+000	2.103323e+001
1268754.366	1.001428e+000	2.090242e+001
1275004.363	1.001458e+000	2.077576e+001
1281254.359	1.001481e+000	2.065108e+001
1287504.356	1.001516e+000	2.052584e+001
1293754.353	1.001535e+000	2.040314e+001
1300004.350	1.001565e+000	2.028038e+001
1306254.347	1.001426e+000	2.015488e+001
1312504.344	1.001478e+000	2.003431e+001
1318754.341	1.001492e+000	1.991439e+001
1325004.337	1.001511e+000	1.979607e+001
1331254.334	1.001561e+000	1.967745e+001
1337504.331	1.001575e+000	1.956222e+001
1343754.328	1.001426e+000	1.944267e+001
1350004.325	1.001451e+000	1.932895e+001
1356254.322	1.001488e+000	1.921537e+001
1362504.319	1.001521e+000	1.910083e+001
1368754.316	1.001539e+000	1.898931e+001
1375004.313	1.001564e+000	1.887802e+001
1381254.309	1.001422e+000	1.876466e+001
1387504.306	1.001457e+000	1.865394e+001
1393754.303	1.001488e+000	1.854555e+001
1400004.300	1.001513e+000	1.843740e+001
1406254.297	1.001539e+000	1.833105e+001
1412504.294	1.001399e+000	1.822154e+001
1418754.291	1.001440e+000	1.811472e+001
1425004.287	1.001475e+000	1.801003e+001
1431254.284	1.001506e+000	1.790567e+001
1437504.281	1.001536e+000	1.780250e+001
1443754.278	1.001551e+000	1.770056e+001
1450004.275	1.001394e+000	1.759583e+001
1456254.272	1.001421e+000	1.749455e+001
1462504.269	1.001468e+000	1.739333e+001
1468754.266	1.001514e+000	1.729550e+001
1475004.263	1.001556e+000	1.719623e+001
1481254.259	1.001590e+000	1.709761e+001
1487504.256	1.001622e+000	1.699932e+001
1493754.253	1.001476e+000	1.689893e+001
1500004.250	1.001504e+000	1.680229e+001
1506254.247	1.001529e+000	1.670614e+001
1512504.244	1.001560e+000	1.661141e+001
1518754.241	1.001584e+000	1.651712e+001
1525004.238	1.001621e+000	1.642181e+001
1531254.234	1.001633e+000	1.632891e+001
1537504.231	1.001672e+000	1.623648e+001
1543754.228	1.001514e+000	1.614008e+001
1550004.225	1.001542e+000	1.604882e+001
1556254.222	1.001562e+000	1.595775e+001
1562504.219	1.001511e+000	1.586899e+001
1568754.216	1.001572e+000	1.577971e+001
1575004.212	1.001601e+000	1.569008e+001
1581254.209	1.001630e+000	1.560121e+001
1587504.206	1.001496e+000	1.551062e+001
1593754.203	1.001523e+000	1.542333e+001
1600004.200	1.001549e+000	1.533647e+001
1606254.197	1.001563e+000	1.524992e+001
1612504.194	1.001598e+000	1.516444e+001
1618754.191	1.001619e+000	1.507817e+001
1625004.188	1.001647e+000	1.499374e+001
1631254.184	1.001679e+000	1.490949e+001
1637504.181	1.001517e+000	1.482222e+001
1643754.178	1.001556e+000	1.473875e+001
1650004.175	1.001573e+000	1.465524e+001
1656254.172	1.001607e+000	1.457387e+001
1662504.169	1.001630e+000	1.449103e+001
1668754.166	1.001648e+000	1.440980e+001
1675004.162	1.001668e+000	1.432864e+001
1681254.159	1.001714e+000	1.424753e+001
1687504.156	1.001537e+000	1.416689e+001
1693754.153	1.001573e+000	1.408600e+001
1700004.150	1.001585e+000	1.400789e+001
1706254.147	1.001607e+000	1.392893e+001
1712504.144	1.001361e+000	1.384721e+001
1718754.141	1.001390e+000	1.376958e+001
1725004.138	1.001418e+000	1.369186e+001
1731254.134	1.001445e+000	1.361484e+001
1737504.131	1.001292e+000	1.353616e+001
1743754.128	1.001326e+000	1.346006e+001
1750004.125	1.001327e+000	1.338453e+001
1756254.122	1.001375e+000	1.330936e+001
1762504.119	1.001389e+000	1.323410e+001
1768754.116	1.001410e+000	1.316075e+001
1775004.113	1.001260e+000	1.308424e+001
1781254.109	1.001279e+000	1.301125e+001
1787504.106	1.001293e+000	1.293809e+001
1793754.103	1.001302e+000	1.286552e+001
1800004.100	1.001341e+000	1.279314e+001
1806254.097	1.001359e+000	1.272039e+001
1812504.094	1.001388e+000	1.264975e+001
1818754.091	1.001253e+000	1.257662e+001
1825004.087	1.001262e+000	1.250532e+001
1831254.084	1.001284e+000	1.243523e+001
1837504.081	1.001302e+000	1.236577e+001
1843754.078	1.001335e+000	1.229555e+001
1850004.075	1.001358e+000	1.222671e+001
1856254.072	1.001186e+000	1.215458e+001
1862504.069	1.001210e+000	1.208693e+001
1868754.066	1.001234e+000	1.201791e+001
1875004.063	1.001195e+000	1.194882e+001
1881254.059	1.001221e+000	1.188207e+001
1887504.056	1.001234e+000	1.181518e+001
1893754.053	1.001280e+000	1.174722e+001
1900004.050	1.001120e+000	1.167887e+001
1906254.047	1.001141e+000	1.161226e+001
1912504.044	1.001177e+000	1.154527e+001
1918754.041	1.001189e+000	1.148034e+001
1925004.037	1.001202e+000	1.141602e+001
1931254.034	1.001246e+000	1.135081e+001
1937504.031	1.001257e+000	1.128620e+001
1943754.028	1.001298e+000	1.122139e+001
1950004.025	1.001131e+000	1.115506e+001
1956254.022	1.001144e+000	1.109137e+001
1962504.019	1.001184e+000	1.102835e+001
1968754.016	1.001199e+000	1.096503e+001
1975004.013	1.000973e+000	1.089935e+001
1981254.009	1.001000e+000	1.083729e+001
1987504.006	1.001042e+000	1.077516e+001
1993754.003	1.000870e+000	1.071120e+001
2000004.000	1.000910e+000	1.064954e+001
2006253.997	1.000936e+000	1.058758e+001
2012503.994	1.000958e+000	1.052573e+001
2018753.991	1.000971e+000	1.046562e+001
2025003.988	1.001008e+000	1.040391e+001
2031253.984	1.000845e+000	1.034155e+001
2037503.981	1.000869e+000	1.028052e+001
2043753.978	1.000900e+000	1.022197e+001
2050003.975	1.000907e+000	1.016250e+001
2056253.972	1.000941e+000	1.010231e+001
2062503.969	1.000945e+000	1.004282e+001
2068753.966	1.000783e+000	9.982355e+000
2075003.962	1.000795e+000	9.923222e+000
2081253.959	1.000831e+000	9.865378e+000
2087503.956	1.000761e+000	9.806498e+000
2093753.953	1.000791e+000	9.748141e+000
2100003.950	1.000798e+000	9.689123e+000
2106253.947	1.000675e+000	9.630953e+000
2112503.944	1.000693e+000	9.573367e+000
2118753.941	1.000715e+000	9.516387e+000
2125003.938	1.000729e+000	9.459352e+000
2131253.934	1.000757e+000	9.402442e+000
2137503.931	1.000767e+000	9.346647e+000
2143753.928	1.000784e+000	9.290101e+000
2150003.925	1.000614e+000	9.233193e+000
2156253.922	1.000622e+000	9.177872e+000
2162503.919	1.000642e+000	9.122256e+000
2168753.916	1.000661e+000	9.067031e+000
2175003.913	1.000670e+000	9.011436e+000
2181253.909	1.000676e+000	8.956857e+000
2187503.906	1.000532e+000	8.901520e+000
2193753.903	1.000545e+000	8.846500e+000
2200003.900	1.000566e+000	8.792748e+000
2206253.897	1.000576e+000	8.738686e+000
2212503.894	1.000707e+000	8.686609e+000
2218753.891	1.000752e+000	8.632819e+000
2225003.887	1.000748e+000	8.579076e+000
2231253.884	1.000608e+000	8.524645e+000
2237503.881	1.000611e+000	8.472714e+000
2243753.878	1.000623e+000	8.418365e+000
2250003.875	1.000648e+000	8.366972e+000
2256253.872	1.000662e+000	8.314309e+000
2262503.869	1.000499e+000	8.260475e+000
2268753.866	1.000511e+000	8.207331e+000
2275003.862	1.000535e+000	8.155412e+000
2281253.859	1.000528e+000	8.105006e+000
2287503.856	1.000548e+000	8.052813e+000
2293753.853	1.000395e+000	8.000297e+000
2300003.850	1.000395e+000	7.948686e+000
2306253.847	1.000405e+000	7.897237e+000
2312503.844	1.000416e+000	7.845942e+000
2318753.841	1.000434e+000	7.795511e+000
2325003.837	1.000455e+000	7.745283e+000
2331253.834	1.000278e+000	7.693467e+000
2337503.831	1.000279e+000	7.643545e+000
2343753.828	1.000288e+000	7.593868e+000
2350003.825	1.000404e+000	7.543937e+000
2356253.822	1.000419e+000	7.494496e+000
2362503.819	1.000451e+000	7.445570e+000
2368753.816	1.000299e+000	7.394752e+000
2375003.813	1.000310e+000	7.345012e+000
2381253.809	1.000313e+000	7.296176e+000
2387503.806	1.000327e+000	7.247084e+000
2393753.803	1.000330e+000	7.199241e+000
2400003.800	1.000346e+000	7.150469e+000
2406253.797	1.000337e+000	7.101797e+000
2412503.794	1.000185e+000	7.052588e+000
2418753.791	1.000194e+000	7.003136e+000
2425003.788	1.000203e+000	6.956002e+000
2431253.784	1.000225e+000	6.907896e+000
2437503.781	1.000222e+000	6.860374e+000
2443753.778	1.000216e+000	6.811934e+000
2450003.775	1.000062e+000	6.763788e+000
2456253.772	1.000055e+000	6.716812e+000
2462503.769	1.000084e+000	6.669463e+000
2468753.766	1.000073e+000	6.622161e+000
2475003.762	9.998721e-001	6.574366e+000
2481253.759	9.998895e-001	6.527806e+000
2487503.756	9.998995e-001	6.481233e+000
2493753.753	9.999058e-001	6.435713e+000
2500003.750	9.999183e-001	6.388508e+000
2506253.747	9.999171e-001	6.342333e+000
2512503.744	9.999329e-001	6.296590e+000
2518753.741	9.999273e-001	6.250551e+000
2525003.737	9.999391e-001	6.205224e+000
2531253.734	9.998704e-001	6.158014e+000
2537503.731	9.998863e-001	6.112789e+000
2543753.728	9.999098e-001	6.067225e+000
2550003.725	9.999319e-001	6.022189e+000
2556253.722	9.999250e-001	5.976645e+000
2562503.719	9.997512e-001	5.930677e+000
2568753.716	9.997407e-001	5.885260e+000
2575003.712	9.997597e-001	5.839567e+000
2581253.709	9.997630e-001	5.795486e+000
2587503.706	9.997622e-001	5.752036e+000
2593753.703	9.997588e-001	5.708029e+000
2600003.700	9.997586e-001	5.663308e+000
2606253.697	9.997980e-001	5.619779e+000
2612503.694	9.996249e-001	5.574162e+000
2618753.691	9.996367e-001	5.529936e+000
2625003.688	9.996272e-001	5.486924e+000
2631253.684	9.996150e-001	5.442660e+000
2637503.681	9.996364e-001	5.398654e+000
2643753.678	9.996392e-001	5.354904e+000
2650003.675	9.996246e-001	5.311911e+000
2656253.672	9.996428e-001	5.267592e+000
2662503.669	9.996256e-001	5.224909e+000
2668753.666	9.994531e-001	5.180636e+000
2675003.663	9.994659e-001	5.137812e+000
2681253.659	9.994712e-001	5.093982e+000
2687503.656	9.994810e-001	5.051000e+000
2693753.653	9.994719e-001	5.008926e+000
2700003.650	9.994666e-001	4.965923e+000
2706253.647	9.994455e-001	4.923768e+000
2712503.644	9.994420e-001	4.880739e+000
2718753.641	9.994534e-001	4.838803e+000
2725003.637	9.992971e-001	4.796195e+000
2731253.634	9.992962e-001	4.753518e+000
2737503.631	9.992891e-001	4.712182e+000
2743753.628	9.992859e-001	4.670117e+000
2750003.625	9.992767e-001	4.628763e+000
2756253.622	9.992849e-001	4.586564e+000
2762503.619	9.992853e-001	4.543872e+000
2768753.616	9.992824e-001	4.503121e+000
2775003.612	9.992525e-001	4.460926e+000
2781253.609	9.990975e-001	4.418335e+000
2787503.606	9.990869e-001	4.377775e+000
2793753.603	9.990872e-001	4.336972e+000
2800003.600	9.990800e-001	4.295014e+000
2806253.597	9.990974e-001	4.253897e+000
2812503.594	9.990784e-001	4.212361e+000
2818753.591	9.990805e-001	4.171753e+000
2825003.587	9.990753e-001	4.130728e+000
2831253.584	9.990647e-001	4.089631e+000
2837503.581	9.989215e-001	4.049340e+000
2843753.578	9.988944e-001	4.007685e+000
2850003.575	9.988858e-001	3.968126e+000
2856253.572	9.988915e-001	3.927021e+000
2862503.569	9.985240e-001	3.885944e+000
2868753.566	9.982472e-001	3.843607e+000
2875003.563	9.980733e-001	3.803140e+000
2881253.559	9.979764e-001	3.763884e+000
2887503.556	9.979076e-001	3.724271e+000
2893753.553	9.977431e-001	3.683144e+000
2900003.550	9.977450e-001	3.642472e+000
2906253.547	9.977292e-001	3.602600e+000
2912503.544	9.977155e-001	3.563657e+000
2918753.541	9.977329e-001	3.524405e+000
2925003.538	9.977069e-001	3.485054e+000
2931253.534	9.976854e-001	3.444656e+000
2937503.531	9.976941e-001	3.404786e+000
2943753.528	9.976752e-001	3.365652e+000
2950003.525	9.976529e-001	3.326236e+000
2956253.522	9.976561e-001	3.286996e+000
2962503.519	9.975127e-001	3.247439e+000
2968753.516	9.975019e-001	3.208265e+000
2975003.512	9.974953e-001	3.168789e+000
2981253.509	9.974655e-001	3.130638e+000
2987503.506	9.974584e-001	3.091318e+000
2993753.503	9.974600e-001	3.053243e+000
3000003.500	9.974402e-001	3.012865e+000
3006253.497	9.974336e-001	2.973925e+000
3012503.494	9.974084e-001	2.936264e+000
3018753.491	9.973952e-001	2.897393e+000
3025003.487	9.973872e-001	2.858928e+000
3031253.484	9.972503e-001	2.819288e+000
3037503.481	9.972308e-001	2.782169e+000
3043753.478	9.972056e-001	2.742594e+000
3050003.475	9.972078e-001	2.704363e+000
3056253.472	9.971804e-001	2.666068e+000
3062503.469	9.971674e-001	2.628404e+000
3068753.466	9.971581e-001	2.590200e+000
3075003.462	9.971377e-001	2.551403e+000
3081253.459	9.971457e-001	2.513052e+000
3087503.456	9.971195e-001	2.475195e+000
3093753.453	9.969800e-001	2.437732e+000
3100003.450	9.969689e-001	2.399477e+000
3106253.447	9.969448e-001	2.360694e+000
3112503.444	9.969332e-001	2.323409e+000
3118753.441	9.969297e-001	2.286061e+000
