!Keysight Technologies,E5061B,MY49912438,B.06.30
!Date: Thu Nov 06 19:27:14 2025
!Data & Calibration Information:
!Freq	S11:SOLT1(ON)
# Hz S RI R 50
5.000	-9.950217e-001	-8.298859e-004
6254.997	-9.879313e-001	2.868571e-002
12504.994	-9.865666e-001	5.829936e-002
18754.991	-9.839081e-001	8.770236e-002
25004.987	-9.804083e-001	1.169326e-001
31254.984	-9.760850e-001	1.459692e-001
37504.981	-9.710126e-001	1.747250e-001
43754.978	-9.651976e-001	2.032269e-001
50004.975	-9.587567e-001	2.315358e-001
56254.972	-9.514726e-001	2.595158e-001
62504.969	-9.434553e-001	2.871368e-001
68754.966	-9.347044e-001	3.144357e-001
75004.962	-9.252867e-001	3.414599e-001
81254.959	-9.151287e-001	3.679787e-001
87504.956	-9.042859e-001	3.941527e-001
93754.953	-8.927635e-001	4.204079e-001
100004.950	-8.805510e-001	4.456108e-001
106254.947	-8.677438e-001	4.704196e-001
112504.944	-8.542885e-001	4.945480e-001
118754.941	-8.403067e-001	5.182163e-001
125004.938	-8.257695e-001	5.413040e-001
131254.934	-8.107056e-001	5.637941e-001
137504.931	-7.951635e-001	5.857899e-001
143754.928	-7.791678e-001	6.070349e-001
150004.925	-7.627529e-001	6.277358e-001
156254.922	-7.459051e-001	6.477819e-001
162504.919	-7.287371e-001	6.672054e-001
168754.916	-7.111661e-001	6.860777e-001
175004.913	-6.934030e-001	7.041363e-001
181254.909	-6.752960e-001	7.216531e-001
187504.906	-6.569922e-001	7.384214e-001
193754.903	-6.384464e-001	7.546154e-001
200004.900	-6.197200e-001	7.701827e-001
206254.897	-6.008560e-001	7.850653e-001
212504.894	-5.818607e-001	7.993442e-001
218754.891	-5.626595e-001	8.130821e-001
225004.887	-5.435027e-001	8.260931e-001
231254.884	-5.241688e-001	8.385799e-001
237504.881	-5.049358e-001	8.504074e-001
243754.878	-4.855283e-001	8.616912e-001
250004.875	-4.661564e-001	8.724194e-001
256254.872	-4.468072e-001	8.825601e-001
262504.869	-4.276298e-001	8.920725e-001
268754.866	-4.084009e-001	9.011394e-001
275004.862	-3.892372e-001	9.096454e-001
281254.859	-3.700002e-001	9.177182e-001
287504.856	-3.510067e-001	9.252135e-001
293754.853	-3.319851e-001	9.322664e-001
300004.850	-3.130880e-001	9.388230e-001
306254.847	-2.944830e-001	9.448883e-001
312504.844	-2.760353e-001	9.505240e-001
318754.841	-2.575913e-001	9.557173e-001
325004.837	-2.394627e-001	9.604754e-001
331254.834	-2.215180e-001	9.648406e-001
337504.831	-2.037487e-001	9.687943e-001
343754.828	-1.860013e-001	9.723957e-001
350004.825	-1.686082e-001	9.756010e-001
356254.822	-1.514189e-001	9.784867e-001
362504.819	-1.344152e-001	9.810117e-001
368754.816	-1.174306e-001	9.832153e-001
375004.813	-1.008625e-001	9.851172e-001
381254.809	-8.451206e-002	9.867499e-001
387504.806	-6.836252e-002	9.880605e-001
393754.803	-5.230340e-002	9.890632e-001
400004.800	-3.659119e-002	9.898246e-001
406254.797	-2.110750e-002	9.903467e-001
412504.794	-5.681387e-003	9.905551e-001
418754.791	9.361962e-003	9.905806e-001
425004.787	2.417766e-002	9.904088e-001
431254.784	3.893454e-002	9.899549e-001
437504.781	5.331263e-002	9.893382e-001
443754.778	6.745633e-002	9.885679e-001
450004.775	8.160156e-002	9.874744e-001
456254.772	9.529588e-002	9.863325e-001
462504.769	1.088025e-001	9.849905e-001
468754.766	1.220895e-001	9.834890e-001
475004.763	1.352899e-001	9.817467e-001
481254.759	1.481420e-001	9.799701e-001
487504.756	1.608068e-001	9.780017e-001
493754.753	1.732497e-001	9.759541e-001
500004.750	1.856198e-001	9.736880e-001
506254.747	1.976352e-001	9.713890e-001
512504.744	2.096052e-001	9.688708e-001
518754.741	2.212199e-001	9.663547e-001
525004.737	2.327299e-001	9.636943e-001
531254.734	2.440771e-001	9.608771e-001
537504.731	2.551367e-001	9.580636e-001
543754.728	2.659737e-001	9.551783e-001
550004.725	2.766577e-001	9.522234e-001
556254.722	2.871259e-001	9.491809e-001
562504.719	2.974813e-001	9.460708e-001
568754.716	3.076125e-001	9.428695e-001
575004.713	3.177298e-001	9.394587e-001
581254.709	3.276252e-001	9.360405e-001
587504.706	3.372483e-001	9.326909e-001
593754.703	3.466964e-001	9.293028e-001
600004.700	3.559888e-001	9.258422e-001
606254.697	3.650947e-001	9.223430e-001
612504.694	3.741750e-001	9.186642e-001
618754.691	3.830008e-001	9.150799e-001
625004.688	3.917096e-001	9.114470e-001
631254.684	4.002214e-001	9.078163e-001
637504.681	4.085850e-001	9.041548e-001
643754.678	4.169120e-001	9.003010e-001
650004.675	4.249959e-001	8.965627e-001
656254.672	4.329333e-001	8.928512e-001
662504.669	4.407412e-001	8.890734e-001
668754.666	4.484089e-001	8.852997e-001
675004.662	4.559499e-001	8.815211e-001
681254.659	4.634315e-001	8.775428e-001
687504.656	4.707247e-001	8.737273e-001
693754.653	4.778782e-001	8.699015e-001
700004.650	4.849170e-001	8.660569e-001
706254.647	4.918278e-001	8.622148e-001
712504.644	4.987043e-001	8.581604e-001
718754.641	5.053784e-001	8.543400e-001
725004.637	5.119581e-001	8.504804e-001
731254.634	5.184182e-001	8.466163e-001
737504.631	5.246054e-001	8.450809e-001
743754.628	5.309071e-001	8.411692e-001
750004.625	5.371513e-001	8.370884e-001
756254.622	5.432006e-001	8.331456e-001
762504.619	5.491703e-001	8.292432e-001
768754.616	5.550397e-001	8.253243e-001
775004.612	5.608957e-001	8.212680e-001
781254.609	5.665943e-001	8.173688e-001
787504.606	5.721082e-001	8.135500e-001
793754.603	5.775792e-001	8.096857e-001
800004.600	5.829853e-001	8.058391e-001
806254.597	5.882849e-001	8.019752e-001
812504.594	5.935184e-001	7.981420e-001
818754.591	5.986483e-001	7.941110e-001
825004.588	6.036930e-001	7.903068e-001
831254.584	6.086322e-001	7.865219e-001
837504.581	6.135154e-001	7.827241e-001
843754.578	6.182791e-001	7.789501e-001
850004.575	6.230229e-001	7.751857e-001
856254.572	6.276637e-001	7.714610e-001
862504.569	6.322261e-001	7.677314e-001
868754.566	6.367326e-001	7.640491e-001
875004.563	6.411348e-001	7.603470e-001
881254.559	6.455312e-001	7.565026e-001
887504.556	6.498231e-001	7.528460e-001
893754.553	6.540367e-001	7.491963e-001
900004.550	6.581799e-001	7.455833e-001
906254.547	6.622737e-001	7.419591e-001
912504.544	6.663006e-001	7.383179e-001
918754.541	6.702634e-001	7.347643e-001
925004.537	6.741380e-001	7.312162e-001
931254.534	6.779751e-001	7.276781e-001
937504.531	6.817391e-001	7.241889e-001
943754.528	6.854336e-001	7.206902e-001
950004.525	6.890797e-001	7.172200e-001
956254.522	6.926910e-001	7.137421e-001
962504.519	6.962458e-001	7.103282e-001
968754.516	6.997591e-001	7.068948e-001
975004.512	7.031739e-001	7.033143e-001
981254.509	7.065480e-001	6.999252e-001
987504.506	7.099018e-001	6.965548e-001
993754.503	7.131936e-001	6.931943e-001
1000004.500	7.164153e-001	6.899011e-001
1006254.497	7.195968e-001	6.865816e-001
1012504.494	7.227444e-001	6.832919e-001
1018754.491	7.258338e-001	6.800569e-001
1025004.487	7.288867e-001	6.768094e-001
1031254.484	7.318815e-001	6.735934e-001
1037504.481	7.348482e-001	6.703715e-001
1043754.478	7.377435e-001	6.670916e-001
1050004.475	7.406187e-001	6.639487e-001
1056254.472	7.434741e-001	6.607877e-001
1062504.469	7.462502e-001	6.576746e-001
1068754.466	7.489623e-001	6.543672e-001
1075004.462	7.516655e-001	6.512969e-001
1081254.459	7.543380e-001	6.482275e-001
1087504.456	7.569864e-001	6.451736e-001
1093754.453	7.595840e-001	6.421671e-001
1100004.450	7.621580e-001	6.391425e-001
1106254.447	7.646538e-001	6.361465e-001
1112504.444	7.671721e-001	6.331783e-001
1118754.441	7.695725e-001	6.300526e-001
1125004.438	7.720034e-001	6.271202e-001
1131254.434	7.743878e-001	6.242013e-001
1137504.431	7.767472e-001	6.212938e-001
1143754.428	7.791062e-001	6.186025e-001
1150004.425	7.814099e-001	6.157594e-001
1156254.422	7.836732e-001	6.129162e-001
1162504.419	7.858345e-001	6.099205e-001
1168754.416	7.880108e-001	6.071043e-001
1175004.412	7.902225e-001	6.043255e-001
1181254.409	7.923643e-001	6.015492e-001
1187504.406	7.944733e-001	5.987870e-001
1193754.403	7.965634e-001	5.960511e-001
1200004.400	7.985504e-001	5.931757e-001
1206254.397	8.005871e-001	5.904551e-001
1212504.394	8.025943e-001	5.877778e-001
1218754.391	8.045913e-001	5.851108e-001
1225004.388	8.065376e-001	5.824800e-001
1231254.384	8.084588e-001	5.798393e-001
1237504.381	8.102885e-001	5.770506e-001
1243754.378	8.121751e-001	5.744519e-001
1250004.375	8.140787e-001	5.718562e-001
1256254.372	8.159220e-001	5.693072e-001
1262504.369	8.177403e-001	5.667529e-001
1268754.366	8.194615e-001	5.640640e-001
1275004.363	8.212169e-001	5.615467e-001
1281254.359	8.229441e-001	5.590449e-001
1287504.356	8.246929e-001	5.565640e-001
1293754.353	8.263929e-001	5.540869e-001
1300004.350	8.280683e-001	5.516241e-001
1306254.347	8.296490e-001	5.490184e-001
1312504.344	8.313011e-001	5.466006e-001
1318754.341	8.329165e-001	5.441739e-001
1325004.337	8.345025e-001	5.417829e-001
1331254.334	8.361017e-001	5.394012e-001
1337504.331	8.376332e-001	5.370323e-001
1343754.328	8.390837e-001	5.345209e-001
1350004.325	8.406170e-001	5.321740e-001
1356254.322	8.421097e-001	5.298569e-001
1362504.319	8.436158e-001	5.275385e-001
1368754.316	8.450605e-001	5.252481e-001
1375004.313	8.465220e-001	5.229689e-001
1381254.309	8.478558e-001	5.205401e-001
1387504.306	8.492863e-001	5.182861e-001
1393754.303	8.506768e-001	5.160314e-001
1400004.300	8.520662e-001	5.138189e-001
1406254.297	8.534206e-001	5.115969e-001
1412504.294	8.546753e-001	5.092669e-001
1418754.291	8.560324e-001	5.070718e-001
1425004.287	8.573541e-001	5.048975e-001
1431254.284	8.586506e-001	5.027454e-001
1437504.281	8.599429e-001	5.005843e-001
1443754.278	8.612195e-001	4.984501e-001
1450004.275	8.623966e-001	4.961889e-001
1456254.272	8.636213e-001	4.940773e-001
1462504.269	8.648518e-001	4.919661e-001
1468754.266	8.661531e-001	4.899509e-001
1475004.263	8.673654e-001	4.878770e-001
1481254.259	8.685652e-001	4.858201e-001
1487504.256	8.697572e-001	4.837628e-001
1493754.253	8.708160e-001	4.815793e-001
1500004.250	8.719624e-001	4.795381e-001
1506254.247	8.731077e-001	4.775176e-001
1512504.244	8.742373e-001	4.755118e-001
1518754.241	8.753350e-001	4.735139e-001
1525004.238	8.764546e-001	4.715232e-001
1531254.234	8.775338e-001	4.695508e-001
1537504.231	8.786180e-001	4.676042e-001
1543754.228	8.795749e-001	4.654804e-001
1550004.225	8.806167e-001	4.635406e-001
1556254.222	8.816589e-001	4.616166e-001
1562504.219	8.826214e-001	4.596701e-001
1568754.216	8.836572e-001	4.577953e-001
1575004.212	8.846676e-001	4.559009e-001
1581254.209	8.856899e-001	4.540364e-001
1587504.206	8.865662e-001	4.520203e-001
1593754.203	8.875543e-001	4.501618e-001
1600004.200	8.885179e-001	4.483127e-001
1606254.197	8.894717e-001	4.464614e-001
1612504.194	8.904228e-001	4.446323e-001
1618754.191	8.913731e-001	4.427983e-001
1625004.188	8.923001e-001	4.409905e-001
1631254.184	8.932074e-001	4.391871e-001
1637504.181	8.939965e-001	4.372411e-001
1643754.178	8.949107e-001	4.354507e-001
1650004.175	8.958049e-001	4.336935e-001
1656254.172	8.966609e-001	4.319330e-001
1662504.169	8.975608e-001	4.301672e-001
1668754.166	8.984104e-001	4.284025e-001
1675004.162	8.992636e-001	4.266602e-001
1681254.159	9.001252e-001	4.249441e-001
1687504.156	9.008206e-001	4.230867e-001
1693754.153	9.016626e-001	4.213839e-001
1700004.150	9.024660e-001	4.196815e-001
1706254.147	9.032820e-001	4.179781e-001
1712504.144	9.038563e-001	4.160738e-001
1718754.141	9.046553e-001	4.144146e-001
1725004.138	9.054524e-001	4.127419e-001
1731254.134	9.062446e-001	4.110972e-001
1737504.131	9.068816e-001	4.093306e-001
1743754.128	9.076528e-001	4.076835e-001
1750004.125	9.084004e-001	4.060490e-001
1756254.122	9.091601e-001	4.044411e-001
1762504.119	9.099187e-001	4.028246e-001
1768754.116	9.106271e-001	4.012264e-001
1775004.113	9.112351e-001	3.995055e-001
1781254.109	9.119674e-001	3.979240e-001
1787504.106	9.126605e-001	3.963476e-001
1793754.103	9.133677e-001	3.947895e-001
1800004.100	9.140776e-001	3.932252e-001
1806254.097	9.147655e-001	3.916580e-001
1812504.094	9.154441e-001	3.901260e-001
1818754.091	9.160159e-001	3.884588e-001
1825004.087	9.166805e-001	3.869134e-001
1831254.084	9.173484e-001	3.853990e-001
1837504.081	9.180134e-001	3.838991e-001
1843754.078	9.186929e-001	3.823973e-001
1850004.075	9.193164e-001	3.808835e-001
1856254.072	9.198361e-001	3.792721e-001
1862504.069	9.204623e-001	3.777993e-001
1868754.066	9.210867e-001	3.763074e-001
1875004.063	9.216743e-001	3.748170e-001
1881254.059	9.222915e-001	3.733667e-001
1887504.056	9.229042e-001	3.719064e-001
1893754.053	9.235190e-001	3.704470e-001
1900004.050	9.239917e-001	3.688812e-001
1906254.047	9.245876e-001	3.674558e-001
1912504.044	9.252004e-001	3.660239e-001
1918754.041	9.257696e-001	3.646318e-001
1925004.037	9.263471e-001	3.632163e-001
1931254.034	9.269324e-001	3.618173e-001
1937504.031	9.275049e-001	3.604114e-001
1943754.028	9.280575e-001	3.590186e-001
1950004.025	9.284896e-001	3.575075e-001
1956254.022	9.290561e-001	3.561355e-001
1962504.019	9.296051e-001	3.547784e-001
1968754.016	9.301495e-001	3.534056e-001
1975004.013	9.304994e-001	3.518969e-001
1981254.009	9.310493e-001	3.505665e-001
1987504.006	9.315815e-001	3.492181e-001
1993754.003	9.319705e-001	3.477550e-001
2000004.000	9.325056e-001	3.464371e-001
2006253.997	9.330255e-001	3.451080e-001
2012503.994	9.335370e-001	3.437758e-001
2018753.991	9.340374e-001	3.424697e-001
2025003.988	9.345502e-001	3.411532e-001
2031253.984	9.349008e-001	3.397309e-001
2037503.981	9.354229e-001	3.384252e-001
2043753.978	9.358945e-001	3.371577e-001
2050003.975	9.363817e-001	3.358697e-001
2056253.972	9.368697e-001	3.345793e-001
2062503.969	9.373561e-001	3.333038e-001
2068753.966	9.376852e-001	3.319264e-001
2075003.962	9.381341e-001	3.306447e-001
2081253.959	9.386221e-001	3.294045e-001
2087503.956	9.390213e-001	3.281068e-001
2093753.953	9.394829e-001	3.268696e-001
2100003.950	9.399450e-001	3.256069e-001
2106253.947	9.402671e-001	3.242896e-001
2112503.944	9.407221e-001	3.230668e-001
2118753.941	9.411551e-001	3.218481e-001
2125003.938	9.415959e-001	3.206278e-001
2131253.934	9.420477e-001	3.194179e-001
2137503.931	9.424725e-001	3.181887e-001
2143753.928	9.428909e-001	3.169744e-001
2150003.925	9.431742e-001	3.156826e-001
2156253.922	9.435713e-001	3.144940e-001
2162503.919	9.440015e-001	3.132996e-001
2168753.916	9.444126e-001	3.121180e-001
2175003.913	9.447947e-001	3.109461e-001
2181253.909	9.451984e-001	3.097659e-001
2187503.906	9.454692e-001	3.085041e-001
2193753.903	9.458740e-001	3.073347e-001
2200003.900	9.462707e-001	3.061979e-001
2206253.897	9.466614e-001	3.050360e-001
2212503.894	9.471477e-001	3.039610e-001
2218753.891	9.475574e-001	3.028350e-001
2225003.887	9.479468e-001	3.016830e-001
2231253.884	9.481792e-001	3.004566e-001
2237503.881	9.485621e-001	2.993280e-001
2243753.878	9.489321e-001	2.981973e-001
2250003.875	9.493020e-001	2.971012e-001
2256253.872	9.496592e-001	2.959920e-001
2262503.869	9.498955e-001	2.947634e-001
2268753.866	9.502444e-001	2.936399e-001
2275003.862	9.506192e-001	2.925615e-001
2281253.859	9.509788e-001	2.914483e-001
2287503.856	9.513254e-001	2.903564e-001
2293753.853	9.515204e-001	2.891811e-001
2300003.850	9.518637e-001	2.880695e-001
2306253.847	9.522090e-001	2.870088e-001
2312503.844	9.525462e-001	2.859225e-001
2318753.841	9.528924e-001	2.848473e-001
2325003.837	9.532285e-001	2.837766e-001
2331253.834	9.534002e-001	2.826114e-001
2337503.831	9.537300e-001	2.815594e-001
2343753.828	9.540664e-001	2.805092e-001
2350003.825	9.544730e-001	2.795049e-001
2356253.822	9.548037e-001	2.784560e-001
2362503.819	9.551167e-001	2.774142e-001
2368753.816	9.553027e-001	2.762919e-001
2375003.813	9.556297e-001	2.752590e-001
2381253.809	9.559380e-001	2.742267e-001
2387503.806	9.562498e-001	2.731921e-001
2393753.803	9.565511e-001	2.721721e-001
2400003.800	9.568451e-001	2.711581e-001
2406253.797	9.571616e-001	2.701413e-001
2412503.794	9.573172e-001	2.690449e-001
2418753.791	9.576174e-001	2.680183e-001
2425003.788	9.579104e-001	2.670110e-001
2431253.784	9.581997e-001	2.660330e-001
2437503.781	9.585047e-001	2.650237e-001
2443753.778	9.587774e-001	2.640234e-001
2450003.775	9.589181e-001	2.629495e-001
2456253.772	9.592018e-001	2.619604e-001
2462503.769	9.594844e-001	2.609794e-001
2468753.766	9.597553e-001	2.599946e-001
2475003.762	9.598402e-001	2.589188e-001
2481253.759	9.601376e-001	2.579438e-001
2487503.756	9.604122e-001	2.570007e-001
2493753.753	9.606836e-001	2.560284e-001
2500003.750	9.609569e-001	2.550617e-001
2506253.747	9.612092e-001	2.541039e-001
2512503.744	9.614902e-001	2.531439e-001
2518753.741	9.617409e-001	2.521944e-001
2525003.737	9.620002e-001	2.512591e-001
2531253.734	9.621947e-001	2.502551e-001
2537503.731	9.624738e-001	2.493343e-001
2543753.728	9.627206e-001	2.484033e-001
2550003.725	9.629773e-001	2.474586e-001
2556253.722	9.632423e-001	2.465361e-001
2562503.719	9.633375e-001	2.455373e-001
2568753.716	9.635815e-001	2.445926e-001
2575003.712	9.638324e-001	2.436783e-001
2581253.709	9.640730e-001	2.427666e-001
2587503.706	9.643157e-001	2.418456e-001
2593753.703	9.645442e-001	2.409323e-001
2600003.700	9.647885e-001	2.400133e-001
2606253.697	9.650419e-001	2.391203e-001
2612503.694	9.651264e-001	2.381363e-001
2618753.691	9.653663e-001	2.372380e-001
2625003.688	9.655661e-001	2.363445e-001
2631253.684	9.657967e-001	2.354343e-001
2637503.681	9.660256e-001	2.345404e-001
2643753.678	9.662443e-001	2.336739e-001
2650003.675	9.664578e-001	2.327716e-001
2656253.672	9.666855e-001	2.319002e-001
2662503.669	9.668851e-001	2.310327e-001
2668753.666	9.669588e-001	2.300777e-001
2675003.663	9.671701e-001	2.292056e-001
2681253.659	9.674010e-001	2.283371e-001
2687503.656	9.676158e-001	2.274588e-001
2693753.653	9.678054e-001	2.265984e-001
2700003.650	9.680261e-001	2.257311e-001
2706253.647	9.682321e-001	2.248606e-001
2712503.644	9.684291e-001	2.239934e-001
2718753.641	9.686311e-001	2.231416e-001
2725003.637	9.686981e-001	2.222366e-001
2731253.634	9.688964e-001	2.213836e-001
2737503.631	9.690943e-001	2.205363e-001
2743753.628	9.692979e-001	2.196964e-001
2750003.625	9.694789e-001	2.188686e-001
2756253.622	9.696731e-001	2.179937e-001
2762503.619	9.698961e-001	2.170367e-001
2768753.616	9.700642e-001	2.162432e-001
2775003.612	9.702482e-001	2.154430e-001
2781253.609	9.702891e-001	2.145767e-001
2787503.606	9.704754e-001	2.137598e-001
2793753.603	9.706662e-001	2.129361e-001
2800003.600	9.708525e-001	2.121181e-001
2806253.597	9.710426e-001	2.112978e-001
2812503.594	9.712209e-001	2.104575e-001
2818753.591	9.713995e-001	2.096290e-001
2825003.587	9.715917e-001	2.087976e-001
2831253.584	9.717568e-001	2.079826e-001
2837503.581	9.717894e-001	2.071634e-001
2843753.578	9.719559e-001	2.063508e-001
2850003.575	9.721212e-001	2.055575e-001
2856253.572	9.722966e-001	2.047613e-001
2862503.569	9.721472e-001	2.038398e-001
2868753.566	9.720543e-001	2.029291e-001
2875003.563	9.720800e-001	2.020852e-001
2881253.559	9.721600e-001	2.012517e-001
2887503.556	9.722774e-001	2.004700e-001
2893753.553	9.722890e-001	1.996164e-001
2900003.550	9.724572e-001	1.988151e-001
2906253.547	9.726187e-001	1.980124e-001
2912503.544	9.727721e-001	1.972279e-001
2918753.541	9.729387e-001	1.964967e-001
2925003.538	9.730902e-001	1.957351e-001
2931253.534	9.732289e-001	1.949665e-001
2937503.531	9.734114e-001	1.941753e-001
2943753.528	9.735518e-001	1.934203e-001
2950003.525	9.736863e-001	1.926690e-001
2956253.522	9.738376e-001	1.919224e-001
2962503.519	9.738641e-001	1.911163e-001
2968753.516	9.740178e-001	1.903622e-001
2975003.512	9.741487e-001	1.896091e-001
2981253.509	9.743056e-001	1.888676e-001
2987503.506	9.744517e-001	1.881123e-001
2993753.503	9.745730e-001	1.873652e-001
3000003.500	9.747245e-001	1.865960e-001
3006253.497	9.748715e-001	1.858589e-001
3012503.494	9.749892e-001	1.851410e-001
3018753.491	9.751406e-001	1.844005e-001
3025003.487	9.752806e-001	1.836649e-001
3031253.484	9.752921e-001	1.828700e-001
3037503.481	9.754247e-001	1.821403e-001
3043753.478	9.755421e-001	1.814014e-001
3050003.475	9.756960e-001	1.806693e-001
3056253.472	9.758282e-001	1.799256e-001
3062503.469	9.759451e-001	1.792275e-001
3068753.466	9.760709e-001	1.785066e-001
3075003.462	9.762063e-001	1.777691e-001
3081253.459	9.763334e-001	1.771080e-001
3087503.456	9.764586e-001	1.764073e-001
3093753.453	9.764614e-001	1.756594e-001
3100003.450	9.765836e-001	1.749366e-001
3106253.447	9.767075e-001	1.742167e-001
3112503.444	9.768345e-001	1.734982e-001
