!Keysight Technologies,E5061B,MY49912438,B.06.04
!Date: Thu Nov 06 14:32:48 2025
!Data & Calibration Information:
!Freq	S11:SOLT2(ON)
# Hz S RI R 50
5.000	8.871862e-001	5.644183e-003
5.053	9.022952e-001	-6.204293e-003
5.107	8.968481e-001	2.035109e-003
5.160	8.943858e-001	5.486943e-003
5.213	8.940696e-001	-4.783343e-003
5.267	8.974685e-001	1.472026e-003
5.320	8.857506e-001	-7.901564e-003
5.374	8.984449e-001	7.749971e-003
5.427	8.880254e-001	-2.698793e-003
5.480	8.955523e-001	-2.458869e-003
5.534	8.958172e-001	-3.494766e-003
5.587	8.983580e-001	2.068763e-003
5.640	8.978609e-001	-4.006504e-003
5.694	8.986258e-001	-1.664818e-005
5.747	8.973025e-001	-1.612625e-003
5.800	8.990726e-001	4.498816e-003
5.854	8.995220e-001	5.286798e-003
5.907	8.982085e-001	1.041226e-004
5.960	8.966133e-001	3.731151e-003
6.014	8.980176e-001	-2.486110e-003
6.067	9.063662e-001	2.020382e-003
6.121	8.916337e-001	-1.633760e-003
6.174	9.008929e-001	4.699527e-003
6.227	8.933817e-001	6.459681e-003
6.281	9.012600e-001	-8.653850e-004
6.334	8.964039e-001	-4.111643e-003
6.387	8.969644e-001	5.954455e-004
6.441	9.023902e-001	-1.699424e-003
6.494	8.999900e-001	-3.976260e-003
6.547	8.898807e-001	4.847530e-003
6.601	8.981691e-001	-2.887207e-003
6.654	8.920840e-001	7.726964e-004
6.708	8.938210e-001	1.385696e-004
6.761	8.996066e-001	4.986485e-003
6.814	8.981242e-001	-2.397837e-003
6.868	8.901833e-001	-6.025695e-003
6.930	8.929540e-001	6.643220e-004
7.004	8.909800e-001	6.244368e-003
7.077	8.891074e-001	6.842346e-005
7.151	8.992256e-001	1.984962e-003
7.225	9.073019e-001	1.422573e-003
7.298	9.003363e-001	5.152391e-004
7.372	8.932586e-001	4.031947e-003
7.445	8.972321e-001	2.143602e-003
7.519	8.995598e-001	-3.020624e-004
7.593	8.953730e-001	-6.600632e-003
7.666	9.050432e-001	5.267465e-003
7.740	8.967536e-001	-4.106716e-004
7.813	9.048017e-001	3.509004e-003
7.887	8.963391e-001	7.787645e-004
7.961	8.950249e-001	4.643126e-004
8.034	8.921687e-001	5.853530e-003
8.108	8.947163e-001	1.261113e-003
8.181	8.986939e-001	-3.880785e-003
8.255	8.950496e-001	2.138143e-003
8.329	8.981294e-001	3.040585e-004
8.402	8.999708e-001	1.693507e-003
8.476	8.965778e-001	-4.376993e-003
8.550	9.015203e-001	2.825424e-003
8.623	8.959399e-001	-2.079540e-003
8.697	8.906438e-001	-1.804085e-003
8.770	8.962051e-001	-3.029110e-003
8.844	9.007454e-001	4.658763e-003
8.918	8.991363e-001	4.937296e-003
8.991	8.948509e-001	5.954030e-003
9.065	9.020439e-001	-2.422263e-003
9.138	8.975595e-001	1.860611e-003
9.212	8.982334e-001	1.802579e-003
9.286	8.964300e-001	-4.135965e-003
9.359	8.929214e-001	2.208116e-003
9.433	8.938529e-001	-1.411128e-003
9.519	9.015614e-001	3.136026e-004
9.620	9.003636e-001	-3.586424e-003
9.722	8.971469e-001	1.342675e-003
9.823	8.936878e-001	-1.322739e-003
9.925	8.954093e-001	-4.266865e-003
10.027	8.972724e-001	9.268606e-004
10.128	8.974060e-001	1.087407e-003
10.230	8.960445e-001	3.877765e-004
10.331	8.963165e-001	-1.728831e-003
10.433	8.940654e-001	1.212910e-004
10.535	9.025671e-001	1.625361e-003
10.636	8.990987e-001	-9.210051e-004
10.738	8.992777e-001	-4.715661e-003
10.839	8.988128e-001	-1.020130e-003
10.941	8.982130e-001	-8.023495e-004
11.042	8.990154e-001	-1.141004e-003
11.144	9.002437e-001	2.426293e-005
11.246	8.979193e-001	-4.109802e-003
11.347	9.008921e-001	-2.011670e-003
11.449	8.919727e-001	-7.422495e-004
11.550	9.004165e-001	2.463925e-003
11.652	8.996912e-001	-4.901885e-003
11.754	9.011608e-001	-5.296319e-003
11.855	9.001172e-001	2.286502e-003
11.957	8.965521e-001	-1.283594e-003
12.058	8.976662e-001	-1.188284e-004
12.160	9.003904e-001	1.975314e-003
12.261	9.011940e-001	-1.344735e-003
12.363	8.993308e-001	1.058035e-003
12.465	8.948143e-001	-1.661213e-003
12.566	8.952520e-001	2.945858e-004
12.668	8.991920e-001	5.085828e-004
12.769	8.979886e-001	5.212526e-004
12.871	8.979796e-001	1.230181e-003
12.973	8.988531e-001	3.423978e-003
13.074	9.022859e-001	4.032432e-004
13.193	8.971826e-001	-2.861349e-004
13.333	9.002679e-001	-2.416915e-003
13.473	9.006423e-001	-1.015637e-003
13.614	8.979951e-001	1.074186e-003
13.754	8.978972e-001	2.116697e-004
13.894	8.980219e-001	-1.794061e-003
14.034	8.981919e-001	1.798003e-003
14.174	8.953093e-001	-2.656830e-003
14.314	8.979517e-001	4.996882e-004
14.454	8.940086e-001	1.122788e-003
14.595	8.960834e-001	-3.080876e-003
14.735	8.954377e-001	6.517466e-004
14.875	8.982940e-001	-3.709813e-005
15.015	8.961125e-001	-1.971305e-003
15.155	9.037234e-001	-1.696227e-003
15.295	8.969847e-001	7.362626e-005
15.435	8.983462e-001	-4.761936e-004
15.575	8.995812e-001	7.754510e-004
15.716	8.959538e-001	-1.425429e-003
15.856	8.964377e-001	-2.542066e-003
15.996	8.952799e-001	2.776904e-003
16.136	8.990496e-001	2.328607e-003
16.276	8.984574e-001	9.393462e-004
16.416	9.007630e-001	-1.914649e-003
16.556	8.978099e-001	1.360581e-003
16.696	8.970212e-001	2.969640e-003
16.837	8.991156e-001	2.713976e-004
16.977	8.977085e-001	1.135123e-003
17.117	8.981347e-001	2.013039e-003
17.257	8.991823e-001	1.956444e-003
17.397	8.983451e-001	-2.590458e-004
17.537	8.959424e-001	-4.480267e-003
17.677	8.920393e-001	1.706438e-003
17.817	8.998181e-001	-1.180514e-003
17.958	8.988166e-001	-2.714124e-004
18.121	8.985014e-001	-5.962158e-005
18.315	8.984094e-001	3.037620e-004
18.508	8.976756e-001	1.415617e-003
18.701	8.970036e-001	-1.665635e-003
18.895	9.005576e-001	-1.001021e-003
19.088	8.960946e-001	8.008198e-004
19.282	8.958742e-001	-1.095250e-003
19.475	8.987556e-001	-9.131667e-004
19.668	8.965564e-001	-5.475342e-005
19.862	8.962186e-001	8.341182e-004
20.055	8.950876e-001	-1.353810e-003
20.248	8.987130e-001	-1.474364e-003
20.442	8.986040e-001	-1.156009e-003
20.635	8.952561e-001	9.723766e-004
20.829	8.969576e-001	-1.496023e-003
21.022	8.961082e-001	-1.226204e-003
21.215	8.993108e-001	-6.841165e-004
21.409	8.969131e-001	-6.166200e-004
21.602	8.967868e-001	-1.453998e-003
21.796	8.968499e-001	-2.537106e-004
21.989	8.982634e-001	-6.331544e-005
22.182	8.974005e-001	2.031105e-003
22.376	8.979936e-001	8.422211e-005
22.569	8.994889e-001	2.515465e-004
22.763	8.965923e-001	-1.368766e-003
22.956	8.977929e-001	-2.080768e-003
23.149	8.986633e-001	-1.134113e-004
23.343	8.978537e-001	-1.102782e-003
23.536	8.953101e-001	6.295699e-005
23.729	8.972524e-001	-2.664500e-003
23.923	8.988016e-001	-2.631255e-003
24.116	8.968320e-001	1.058131e-003
24.310	8.978821e-001	-4.332163e-003
24.503	8.976999e-001	-5.223344e-004
24.696	8.941824e-001	3.136844e-004
24.890	8.973948e-001	-1.965108e-003
25.117	8.981048e-001	-4.219539e-004
25.383	8.952630e-001	-3.563503e-004
25.650	8.984351e-001	-1.096807e-003
25.917	8.982353e-001	3.863361e-004
26.184	8.983622e-001	1.047747e-003
26.450	8.998520e-001	-6.991895e-004
26.717	8.962587e-001	-1.734986e-003
26.984	8.977233e-001	-4.731931e-004
27.251	9.005012e-001	2.258185e-004
27.517	9.000251e-001	-1.801170e-003
27.784	9.003999e-001	8.473596e-004
28.051	8.982969e-001	4.525823e-005
28.318	8.975256e-001	-1.494004e-004
28.585	8.951821e-001	-3.034777e-003
28.851	8.972030e-001	-1.305657e-003
29.118	8.954469e-001	1.070166e-003
29.385	8.955063e-001	1.685884e-004
29.652	8.967113e-001	2.995561e-003
29.918	8.973057e-001	-2.457507e-003
30.185	8.957199e-001	-3.437004e-003
30.452	8.981186e-001	-1.211193e-003
30.719	8.954321e-001	1.077784e-003
30.985	8.986186e-001	-3.364686e-003
31.252	8.971508e-001	-3.847332e-004
31.519	8.993291e-001	1.889893e-003
31.786	8.956094e-001	3.801909e-004
32.052	8.977280e-001	-8.418506e-004
32.319	8.967824e-001	-5.264866e-004
32.586	8.991834e-001	-1.939483e-003
32.853	8.960275e-001	-2.826239e-003
33.120	8.976578e-001	-2.550443e-004
33.386	8.985707e-001	1.016276e-003
33.653	8.978826e-001	1.125554e-004
33.920	8.964004e-001	-4.750690e-005
34.187	8.972207e-001	1.685539e-003
34.498	8.954802e-001	1.862637e-003
34.866	8.961054e-001	-5.734981e-004
35.234	8.973145e-001	1.294723e-003
35.603	8.983161e-001	-6.498438e-004
35.971	8.978027e-001	4.320336e-004
36.339	8.979761e-001	-2.025928e-003
36.707	8.964865e-001	-1.667861e-003
37.075	8.958151e-001	-2.483692e-004
37.443	8.988288e-001	-1.088179e-003
37.812	8.993347e-001	7.064439e-004
38.180	8.980242e-001	-1.135891e-004
38.548	8.964926e-001	-2.542029e-003
38.916	8.980372e-001	-1.080462e-003
39.284	8.982216e-001	-4.817723e-004
39.652	8.968174e-001	-3.685230e-005
40.021	8.954139e-001	-3.599503e-004
40.389	8.964629e-001	5.885474e-004
40.757	8.989702e-001	-1.914280e-003
41.125	8.975679e-001	7.912142e-004
41.493	8.988069e-001	1.221074e-003
41.861	8.969382e-001	-6.272578e-004
42.229	8.979017e-001	-1.271643e-003
42.598	8.964680e-001	-2.248581e-004
42.966	8.977705e-001	4.757256e-004
43.334	8.964128e-001	2.783352e-006
43.702	8.969282e-001	-3.102727e-004
44.070	8.963462e-001	-3.417692e-004
44.438	8.965066e-001	-6.517908e-004
44.807	8.958223e-001	9.192371e-004
45.175	8.962010e-001	-5.025042e-004
45.543	8.972032e-001	-2.296929e-003
45.911	8.942055e-001	9.539701e-005
46.279	8.954403e-001	2.564176e-003
46.647	8.975087e-001	-5.774870e-004
47.016	8.960893e-001	-1.000266e-003
47.384	8.981943e-001	-1.143035e-003
47.815	8.965593e-001	4.821028e-005
48.326	8.986255e-001	1.208277e-003
48.836	8.973496e-001	-7.282448e-004
49.346	8.963593e-001	-2.642489e-003
49.857	8.961785e-001	-6.599000e-004
50.367	8.935426e-001	5.998358e-004
50.877	8.974725e-001	-1.056487e-003
51.387	8.993315e-001	9.524582e-004
51.898	8.979815e-001	-1.076617e-003
52.408	8.981521e-001	-6.915893e-004
52.918	8.973853e-001	-7.730946e-005
53.429	8.960521e-001	-1.200395e-003
53.939	8.948682e-001	-1.206042e-003
54.449	8.951896e-001	-2.219283e-003
54.959	8.952066e-001	-3.686306e-004
55.470	8.964912e-001	-9.997278e-004
55.980	8.956194e-001	-7.973194e-004
56.490	8.985083e-001	-2.090349e-003
57.001	8.975374e-001	-1.708573e-003
57.511	8.974206e-001	-7.676555e-004
58.021	8.957317e-001	1.379362e-004
58.531	8.972517e-001	-6.985827e-004
59.042	8.956703e-001	-2.427230e-003
59.552	8.979388e-001	-1.707482e-003
60.062	8.969938e-001	-1.606195e-003
60.573	8.959168e-001	-1.899029e-004
61.083	8.963067e-001	-1.223473e-003
61.593	8.963095e-001	-1.106330e-003
62.103	8.959374e-001	-4.461070e-004
62.614	8.977838e-001	-2.441089e-003
63.124	8.965362e-001	-3.436372e-004
63.634	8.971063e-001	-1.732088e-003
64.145	8.953778e-001	-6.361108e-004
64.655	8.951479e-001	4.287974e-004
65.165	8.969615e-001	-2.229419e-003
65.675	8.967231e-001	2.059183e-003
66.274	8.954409e-001	-5.803739e-004
66.978	8.959803e-001	-2.693406e-003
67.681	8.972421e-001	-8.534694e-004
68.385	8.971725e-001	-5.159982e-004
69.089	8.958415e-001	-1.319179e-003
69.793	8.963946e-001	-8.618158e-004
70.497	8.954862e-001	6.043714e-004
71.201	8.964660e-001	-2.198537e-003
71.905	8.975479e-001	-7.642511e-004
72.609	8.963049e-001	-1.656745e-003
73.313	8.965007e-001	7.515947e-005
74.017	8.963970e-001	5.265530e-004
74.721	8.953059e-001	4.152826e-004
75.424	8.970811e-001	-8.666082e-004
76.128	8.963519e-001	-1.728993e-003
76.832	8.977089e-001	-2.268647e-003
77.536	8.960378e-001	-1.571457e-003
78.240	8.969798e-001	-1.150616e-003
78.944	8.966734e-001	-1.924366e-003
79.648	8.969867e-001	3.998488e-004
80.352	8.968626e-001	-1.779841e-004
81.056	8.959599e-001	-9.673836e-004
81.760	8.969787e-001	2.263060e-005
82.464	8.975570e-001	-1.641612e-004
83.167	8.963565e-001	-4.630680e-004
83.871	8.964226e-001	-1.547119e-003
84.575	8.950247e-001	-1.594690e-003
85.279	8.969435e-001	-1.933446e-003
85.983	8.958603e-001	-1.001660e-004
86.687	8.964841e-001	3.032928e-004
87.391	8.962698e-001	-6.542443e-004
88.095	8.965825e-001	-6.753485e-004
88.799	8.957957e-001	-7.427001e-004
89.503	8.959157e-001	-5.015906e-004
90.207	8.950209e-001	-1.109873e-003
91.028	8.968658e-001	-5.531832e-004
92.000	8.953312e-001	-7.178580e-004
92.971	8.963792e-001	-1.524615e-003
93.943	8.968919e-001	-6.458479e-004
94.914	8.955214e-001	-1.219301e-003
95.885	8.960155e-001	6.636534e-004
96.857	8.959240e-001	-1.224077e-003
97.828	8.953137e-001	-9.018232e-004
98.800	8.966464e-001	-9.074596e-004
99.771	8.948159e-001	-1.913309e-003
100.743	8.956936e-001	-5.361385e-004
101.714	8.956377e-001	-2.032956e-004
102.686	8.957085e-001	-5.932969e-004
103.657	8.960572e-001	-2.028869e-003
104.629	8.959520e-001	-8.699065e-004
105.600	8.964082e-001	-1.350577e-003
106.571	8.954029e-001	-1.573669e-004
107.543	8.954738e-001	-1.614608e-003
108.514	8.968976e-001	-1.506462e-004
109.486	8.965138e-001	-1.957607e-004
110.457	8.950881e-001	-3.063592e-004
111.429	8.959270e-001	-1.674373e-003
112.400	8.962707e-001	-8.468343e-004
113.372	8.955509e-001	3.637321e-004
114.343	8.961997e-001	-5.889221e-004
115.315	8.971722e-001	-7.464076e-004
116.286	8.953902e-001	-5.137467e-004
117.257	8.952015e-001	-4.503176e-004
118.229	8.954869e-001	-1.116319e-003
119.200	8.960812e-001	6.323563e-004
120.172	8.977835e-001	-1.154030e-003
121.143	8.949411e-001	-1.141029e-003
122.115	8.956258e-001	-2.014813e-003
123.086	8.961697e-001	-1.675092e-003
124.058	8.953278e-001	-3.194624e-004
125.029	8.966877e-001	-5.430839e-004
126.168	8.964105e-001	8.828409e-004
127.508	8.956888e-001	-7.993369e-004
128.848	8.959909e-001	-9.576637e-004
130.188	8.959272e-001	-4.139191e-004
131.528	8.963307e-001	-4.043803e-004
132.868	8.974777e-001	-7.273121e-004
134.208	8.952905e-001	-4.862442e-004
135.548	8.962010e-001	-2.813272e-006
136.888	8.962596e-001	-6.481095e-004
138.229	8.967938e-001	-1.003796e-003
139.569	8.961876e-001	-5.580068e-004
140.909	8.962346e-001	-2.111489e-003
142.249	8.963469e-001	-1.201668e-003
143.589	8.969712e-001	-1.235683e-003
144.929	8.956481e-001	-7.994042e-004
146.269	8.954060e-001	-1.504580e-004
147.609	8.958107e-001	-9.584307e-004
148.949	8.959261e-001	-2.900174e-004
150.289	8.962413e-001	-6.736138e-004
151.629	8.952909e-001	-2.679012e-003
152.969	8.963064e-001	-1.571025e-003
154.309	8.953361e-001	-6.727903e-004
155.649	8.949412e-001	-4.851704e-004
156.989	8.960721e-001	-1.454459e-003
158.329	8.963010e-001	-5.698683e-004
159.669	8.955727e-001	-1.047575e-003
161.009	8.955177e-001	-1.481283e-003
162.350	8.954459e-001	-2.679111e-004
163.690	8.959641e-001	-6.592570e-004
165.030	8.962886e-001	-1.048242e-003
166.370	8.951546e-001	-5.171683e-004
167.710	8.961154e-001	-8.147738e-004
169.050	8.957190e-001	-6.059979e-004
170.390	8.956589e-001	-1.358565e-003
171.730	8.960093e-001	-6.332777e-004
173.294	8.940852e-001	-8.619575e-004
175.144	8.942569e-001	-1.367748e-004
176.993	8.949519e-001	-1.108693e-003
178.842	8.961385e-001	-3.216837e-004
180.692	8.955373e-001	-9.389985e-004
182.541	8.954318e-001	-3.398605e-004
184.391	8.953168e-001	-1.577805e-003
186.240	8.946217e-001	-4.499232e-004
188.089	8.962728e-001	-9.045957e-004
189.939	8.960052e-001	-2.402681e-004
191.788	8.962882e-001	-1.471778e-003
193.638	8.951353e-001	-4.830297e-004
195.487	8.947057e-001	-7.321098e-004
197.336	8.940482e-001	-1.602437e-003
199.186	8.947952e-001	-1.143067e-003
201.035	8.952125e-001	-1.281087e-003
202.885	8.958555e-001	-9.724974e-004
204.734	8.953940e-001	-3.473399e-004
206.583	8.955373e-001	-7.502733e-004
208.433	8.967468e-001	-3.650906e-004
210.282	8.957849e-001	-6.091838e-004
212.132	8.953791e-001	-1.623626e-003
213.981	8.960823e-001	-7.906500e-004
215.830	8.952681e-001	-5.710657e-004
217.680	8.948165e-001	-1.983410e-003
219.529	8.949511e-001	-1.628692e-003
221.379	8.951658e-001	-8.264571e-004
223.228	8.955873e-001	-1.633897e-003
225.077	8.960501e-001	-4.780603e-004
226.927	8.959735e-001	-7.993172e-004
228.776	8.944874e-001	-6.702096e-004
230.626	8.945738e-001	-7.056418e-004
232.475	8.950360e-001	-1.109874e-003
234.324	8.948491e-001	7.310492e-005
236.174	8.948758e-001	-1.336323e-003
238.023	8.952460e-001	-9.313292e-004
240.191	8.954069e-001	-1.360034e-003
242.755	8.951591e-001	-1.670441e-003
245.318	8.949341e-001	-1.427477e-003
247.881	8.957624e-001	-3.164910e-004
250.445	8.954129e-001	-1.044983e-003
253.008	8.955981e-001	-1.523489e-003
255.571	8.952510e-001	-7.546260e-004
258.135	8.955604e-001	5.329244e-005
260.698	8.947333e-001	-3.475758e-004
263.261	8.955312e-001	-7.873188e-004
265.825	8.955670e-001	-1.635606e-003
268.388	8.953763e-001	-1.704427e-003
270.951	8.954539e-001	-4.710335e-004
273.515	8.961500e-001	-2.100856e-003
276.078	8.948375e-001	-1.767937e-003
278.641	8.955225e-001	-7.543102e-004
281.205	8.957845e-001	-2.808760e-004
283.768	8.948282e-001	-7.762536e-004
286.331	8.956588e-001	-1.578819e-003
288.895	8.958180e-001	-1.346768e-003
291.458	8.961339e-001	-8.918056e-004
294.021	8.949096e-001	-6.036332e-004
296.584	8.947856e-001	-1.169635e-003
299.148	8.952748e-001	-1.196029e-003
301.711	8.951082e-001	-1.414551e-003
304.274	8.954249e-001	-9.047850e-004
306.838	8.952928e-001	-1.371902e-003
309.401	8.957050e-001	-1.586237e-003
311.964	8.947507e-001	-1.059994e-003
314.528	8.950774e-001	-1.384268e-003
317.091	8.957035e-001	-1.460819e-003
319.654	8.946571e-001	-2.177689e-004
322.218	8.953966e-001	-1.117787e-003
324.781	8.956694e-001	-1.391689e-003
327.344	8.950406e-001	-1.661190e-003
329.908	8.949853e-001	-8.558913e-004
332.913	8.950600e-001	-1.608669e-003
336.449	8.954261e-001	-2.329538e-003
339.985	8.956076e-001	-1.763226e-003
343.521	8.946369e-001	-1.807838e-004
347.057	8.955155e-001	-1.403689e-003
350.593	8.952217e-001	-2.186873e-003
354.128	8.950914e-001	-1.240691e-003
357.664	8.958244e-001	-8.911267e-004
361.200	8.950594e-001	-1.537590e-003
364.736	8.949345e-001	-1.546768e-003
368.272	8.948790e-001	-1.280750e-003
371.808	8.957313e-001	-9.284000e-004
375.344	8.955999e-001	-6.110474e-004
378.880	8.952592e-001	-1.483705e-003
382.416	8.952591e-001	-9.784312e-004
385.952	8.951678e-001	-1.023816e-003
389.488	8.948302e-001	-8.612113e-004
393.024	8.952466e-001	-7.879267e-004
396.560	8.956949e-001	-1.553363e-004
400.096	8.947228e-001	-1.792374e-003
403.632	8.954069e-001	-1.186742e-003
407.168	8.948153e-001	-1.150266e-003
410.704	8.946322e-001	-6.814124e-004
414.239	8.951866e-001	-1.242950e-003
417.775	8.956737e-001	-1.389647e-003
421.311	8.952064e-001	-1.330204e-003
424.847	8.956805e-001	-1.268791e-003
428.383	8.950481e-001	-1.371838e-003
431.919	8.952845e-001	-1.091752e-003
435.455	8.947548e-001	-2.057932e-003
438.991	8.950154e-001	-1.136263e-003
442.527	8.950906e-001	-7.361095e-004
446.063	8.949905e-001	-1.652370e-003
449.599	8.948673e-001	-1.299326e-003
453.135	8.944918e-001	-1.351927e-003
457.263	8.943723e-001	-7.525809e-004
462.142	8.947916e-001	-1.000435e-003
467.022	8.949836e-001	-1.781874e-003
471.902	8.951483e-001	-1.799704e-003
476.782	8.950397e-001	-1.682988e-003
481.662	8.948032e-001	-1.072072e-003
486.542	8.950329e-001	-1.332000e-003
491.422	8.950717e-001	-8.418126e-004
496.302	8.954979e-001	-9.579562e-004
501.182	8.950025e-001	-1.287626e-003
506.062	8.948217e-001	-9.625025e-004
510.941	8.948110e-001	-1.617313e-003
515.821	8.955128e-001	-1.083142e-003
520.701	8.945977e-001	-1.710292e-003
525.581	8.950259e-001	-1.573979e-003
530.461	8.948162e-001	-1.608530e-003
535.341	8.949566e-001	-1.724835e-003
540.221	8.946420e-001	-6.312917e-004
545.101	8.946142e-001	-1.368153e-003
549.981	8.950771e-001	-7.297591e-004
554.861	8.947053e-001	-7.246801e-004
559.741	8.954293e-001	-9.031962e-004
564.620	8.946373e-001	-1.112580e-003
569.500	8.944155e-001	-1.942908e-003
574.380	8.950132e-001	-1.346080e-003
579.260	8.945916e-001	-1.777474e-003
584.140	8.953166e-001	-1.769784e-003
589.020	8.948381e-001	-1.555348e-003
593.900	8.949863e-001	-1.851934e-003
598.780	8.954139e-001	-1.644725e-003
603.660	8.944985e-001	-1.540652e-003
608.540	8.947367e-001	-1.506421e-003
613.420	8.948484e-001	-1.584353e-003
618.299	8.949334e-001	-1.149007e-003
623.179	8.948085e-001	-1.414775e-003
628.059	8.955140e-001	-1.933392e-003
633.780	8.953429e-001	-1.940717e-003
640.512	8.944872e-001	-1.101039e-003
647.243	8.944963e-001	-1.158484e-003
653.975	8.942766e-001	-1.033746e-003
660.706	8.949199e-001	-1.038994e-003
667.438	8.951326e-001	-2.116592e-003
674.169	8.944949e-001	-3.699940e-004
680.901	8.950567e-001	-1.165240e-003
687.633	8.948458e-001	-1.736844e-003
694.364	8.944375e-001	-1.279446e-003
701.096	8.953213e-001	-1.371022e-003
707.827	8.950430e-001	-1.755608e-003
714.559	8.950773e-001	-1.272739e-003
721.290	8.952379e-001	-1.528816e-003
728.022	8.952524e-001	-1.100625e-003
734.753	8.952266e-001	-1.575372e-003
741.485	8.949233e-001	-1.788350e-003
